(1030000000.000000) can0 354#200A000000027480
(1030000000.001020) can0 5E1#893FC00B0A013880
(1030000000.001021) can0 28B#0000000000000000
(1030000000.001023) can0 0A7#0010FA24D12E00A0
(1030000000.001024) can0 0D0#4A7704600201F000
(1030000000.002017) can0 033#000698000E4207D0
(1030000000.002018) can0 03D#0000088000000000
(1030000000.003034) can0 125#9000411F403E5F60
(1030000000.004523) can0 FFF#0000000000000000
(1030000000.005824) can0 00E#205296020809767A
(1030000000.007940) can0 193#00080803E7C80000
(1030000000.008958) can0 20E#4E2003A0F83FAFFF
(1030000000.008959) can0 522#DF7FD00079E0001C
(1030000000.008960) can0 366#811DC8020147CE38
(1030000000.009978) can0 580#00000003AE07FFF0
(1030000000.009979) can0 434#036AA0A3032302F0
(1030000000.009980) can0 2E1#0000000000000004
(1030000000.010978) can0 354#200A000000026580
(1030000000.010979) can0 5E1#893FC00B0A013880
(1030000000.010980) can0 6E0#01B601B301AD01AF
(1030000000.010981) can0 153#00000000000C000A
(1030000000.011995) can0 662#4EE0000040000000
(1030000000.011996) can0 19C#14422015020028E0
(1030000000.011997) can0 0D0#527704600101F000
(1030000000.011998) can0 033#000690000E8207D0
(1030000000.012993) can0 274#00F22AF2907C8E29
(1030000000.012994) can0 0C0#6000000000000000
(1030000000.012995) can0 162#000804F3EA11F4CE
(1030000000.012996) can0 0A7#0010FAA4D12E00A0
(1030000000.014064) can0 498#87FFBFFC08807C81
(1030000000.014065) can0 464#0002400000901E50
(1030000000.014066) can0 69E#0440047D1FC015A2
(1030000000.014067) can0 125#9000411F40202160
(1030000000.014068) can0 230#F3000002EC001800
(1030000000.015822) can0 00E#205296020809767A
(1030000000.017392) can0 107#0000000000000000
(1030000000.018412) can0 FFF#0000000000000000
(1030000000.018414) can0 0BA#06B853C410000334
(1030000000.018415) can0 6E0#01B601B301AF01B0
(1030000000.018416) can0 51B#28B181B189C7F8C1
(1030000000.019411) can0 32D#00000420AC010020
(1030000000.019412) can0 FFF#0000000000000000
(1030000000.019413) can0 4FD#11450A4E5D0D4A88
(1030000000.020429) can0 354#200A000000026580
(1030000000.020430) can0 5E1#893FC00B0A013880
(1030000000.021393) can0 28B#0000000000000000
(1030000000.021396) can0 0A7#0010FA24D12E00A0
(1030000000.021397) can0 295#0000000000001840
(1030000000.021408) can0 0D0#5A770460FF01F100
(1030000000.022455) can0 033#000688000EC207D0
(1030000000.022456) can0 1CA#3FF1FF8000000C20
(1030000000.022457) can0 577#000008000000014E
(1030000000.022458) can0 125#9000411F40200360
(1030000000.023461) can0 3C1#7B551FBAFB6A692E
(1030000000.024763) can0 FFF#0000000000000000
(1030000000.025728) can0 00E#2052960208097674
(1030000000.026746) can0 26E#0106408289120A04
(1030000000.027965) can0 193#00080803E7C80000
(1030000000.028984) can0 20E#4E2003A0F9BFAFFF
(1030000000.028985) can0 522#DF7FD0007968001C
(1030000000.028986) can0 585#0040000000020018
(1030000000.029997) can0 366#811DC8020147CE38
(1030000000.029999) can0 580#00000003A687FFF0
(1030000000.030000) can0 2E1#0000000000000004
(1030000000.031042) can0 354#200A000000025E00
(1030000000.031043) can0 5E1#893FC00B0A013C80
(1030000000.031044) can0 434#038000A323332320
(1030000000.031045) can0 153#00000000000C000A
(1030000000.032015) can0 662#4EE0000040000000
(1030000000.032017) can0 19C#183E2015020028E0
(1030000000.032028) can0 0D0#62770460FE01F100
(1030000000.032029) can0 033#000680000F0207D0
(1030000000.033090) can0 274#00F22CF0907C8E29
(1030000000.033091) can0 69E#0440047D1FC015A2
(1030000000.033092) can0 6E0#01BA01B701AF01B0
(1030000000.033093) can0 125#9000411F403FE560
(1030000000.034139) can0 0C0#6000000000000000
(1030000000.034140) can0 162#00080503EA11F4CE
(1030000000.034141) can0 0A7#0010FA24D12E00A0
(1030000000.034142) can0 2A3#000000841E803C10
(1030000000.034143) can0 498#87FFBFFC08807C42
(1030000000.035130) can0 230#F2000002EC001A00
(1030000000.036149) can0 00E#205296020809767A
(1030000000.037474) can0 107#0000000000000000
(1030000000.038453) can0 FFF#0000000000000000
(1030000000.038454) can0 6E0#01BA01B801B101B0
(1030000000.039460) can0 FFF#0000000000000000
(1030000000.040465) can0 FFF#0000000000000000
(1030000000.040466) can0 0F4#9A0C010204B10240
(1030000000.040467) can0 354#200A000000025E00
(1030000000.040467) can0 5E1#893FC00B0A013C80
(1030000000.041524) can0 28B#0000000000000000
(1030000000.041525) can0 0D0#6A770460FE01F000
(1030000000.041526) can0 033#000678000F4207D0
(1030000000.041527) can0 6FC#0000076772B94000
(1030000000.042547) can0 0A7#0010FAA4D12E00A0
(1030000000.042549) can0 239#0000007620004500
(1030000000.042550) can0 125#9000411F403FC760
(1030000000.042551) can0 FFF#0000000000000000
(1030000000.044726) can0 FFF#0000000000000000
(1030000000.045822) can0 00E#205296020809767A
(1030000000.046844) can0 0D7#0000020080000000
(1030000000.047850) can0 5B3#0400000000000400
(1030000000.048883) can0 193#00080803E7C80000
(1030000000.048884) can0 3C1#7B551FBB3A6B292E
(1030000000.048885) can0 20E#4E2003A0FA3FCFFF
(1030000000.048886) can0 522#DF7FD00078F0001C
(1030000000.049876) can0 366#811DC8020147CE38
(1030000000.049878) can0 580#00000003A707FFE0
(1030000000.049879) can0 434#03A2A0A353633330
(1030000000.049880) can0 6E0#01BA01B801B201B1
(1030000000.050904) can0 2E1#0000000000000004
(1030000000.050906) can0 354#200A000000024F00
(1030000000.050907) can0 5E1#893FC00B0A013C80
(1030000000.050908) can0 162#00080503EA11F4CE
(1030000000.051805) can0 153#00000000000C000A
(1030000000.051807) can0 295#0000000000001840
(1030000000.051808) can0 662#4EE0000040000000
(1030000000.051809) can0 19C#1C3A2015020028E0
(1030000000.052926) can0 0D0#72770460FD01F000
(1030000000.052928) can0 033#000670000F8207D0
(1030000000.052929) can0 69E#0440047D1FC015A2
(1030000000.052930) can0 274#00F22EEE907C8E29
(1030000000.052931) can0 125#9000411F403FA960
(1030000000.053925) can0 0C0#6000000000000000
(1030000000.053927) can0 0A7#0010F9A4D12E00A0
(1030000000.053928) can0 497#0000000000000000
(1030000000.053934) can0 498#87FFBFFC05807CC3
(1030000000.054903) can0 230#F1000002EC001C00
(1030000000.055943) can0 00E#205296020809766E
(1030000000.056946) can0 2E2#18080D4040000118
(1030000000.056948) can0 345#050202C23C774081
(1030000000.056949) can0 430#0041448C6A8010A0
(1030000000.056949) can0 130#0001600000000000
(1030000000.057971) can0 107#0000000000000000
(1030000000.057973) can0 FFF#0000000000000000
(1030000000.057974) can0 0BA#06B853C410000334
(1030000000.058977) can0 6E0#01BA01B901B201B1
(1030000000.058978) can0 03C#000004002D000000
(1030000000.058979) can0 207#040460482ADED518
(1030000000.058980) can0 4C9#01F8D5820D02F64B
(1030000000.059996) can0 1D6#020F828030240580
(1030000000.059999) can0 354#200A000000024780
(1030000000.061020) can0 5E1#893FC00B0A013880
(1030000000.061022) can0 28B#0000000000000000
(1030000000.061023) can0 0A7#0010F9A4D12E00A0
(1030000000.061024) can0 0D0#7A770460FA01F200
(1030000000.062040) can0 033#000668000FC207D0
(1030000000.062042) can0 2D2#0000500000000000
(1030000000.062043) can0 55C#101B000041823000
(1030000000.063038) can0 125#9000411F403F8B60
(1030000000.064028) can0 2B4#14EA490000005800
(1030000000.065060) can0 FFF#0000000000000000
(1030000000.066081) can0 00E#205296020809767A
(1030000000.067339) can0 32D#00000420AC010020
(1030000000.068434) can0 193#00080803E7C80000
(1030000000.069457) can0 20E#4E2003A0FBBFCFFF
(1030000000.069458) can0 4FD#11440A4E5B0D4A88
(1030000000.069459) can0 522#DF7FD0007878001C
(1030000000.069460) can0 366#811DC8020147CE38
(1030000000.069461) can0 580#000000039F87FFE0
(1030000000.070497) can0 2E1#0000000000000004
(1030000000.070499) can0 354#200A000000024780
(1030000000.070500) can0 5E1#893FA00B0A013C80
(1030000000.071456) can0 434#03CAA0A363835350
(1030000000.071459) can0 4E7#0000001403740000
(1030000000.071460) can0 153#00000000000C000A
(1030000000.071461) can0 FFF#0000000000000000
(1030000000.072509) can0 662#4EE0000040000000
(1030000000.072511) can0 684#4CD680194160101E
(1030000000.072512) can0 636#249C0000F0017000
(1030000000.072513) can0 2D7#100060D800000008
(1030000000.073515) can0 19C#00562015020028E0
(1030000000.073517) can0 0D0#027704600901F200
(1030000000.073518) can0 033#0006E0000C0207D0
(1030000000.073519) can0 274#00F220FC907C8E29
(1030000000.074538) can0 6E0#01BE01B901B201B2
(1030000000.074539) can0 0C0#6000000000000000
(1030000000.074540) can0 69E#0440047D1FC015A2
(1030000000.074541) can0 162#00080503EA11F4CE
(1030000000.075517) can0 125#9000411F403F6D60
(1030000000.075519) can0 0A7#0010FAA4D12E00A0
(1030000000.075520) can0 3C1#7B551FBBB96BA92E
(1030000000.075521) can0 66C#0000000018000000
(1030000000.075523) can0 2C1#01F3EFC7C79EA15C
(1030000000.076568) can0 498#87FFBFFC02807D44
(1030000000.076570) can0 00E#2052960208097674
(1030000000.076571) can0 3E4#00D4000085000000
(1030000000.076572) can0 65C#4008F2C6000F0000
(1030000000.077601) can0 577#000008000000014E
(1030000000.077602) can0 230#F0000002EC001E00
(1030000000.077603) can0 FFF#0000000000000000
(1030000000.077604) can0 107#0000000000000000
(1030000000.078603) can0 FFF#0000000000000000
(1030000000.078605) can0 6E0#01C001BC01B201B2
(1030000000.080086) can0 354#200A00000002B080
(1030000000.081046) can0 5E1#893FA00B0A013C80
(1030000000.081047) can0 28B#0000000000000000
(1030000000.081048) can0 0A7#0010FA24D12E00A0
(1030000000.081050) can0 295#0000000000001840
(1030000000.082146) can0 0D0#0A7704600601F400
(1030000000.082148) can0 033#0006D8000C4207D0
(1030000000.082149) can0 407#5001605021809220
(1030000000.083143) can0 125#9000411F403F4F60
(1030000000.084647) can0 FFF#0000000000000000
(1030000000.085832) can0 00E#205296020809767A
(1030000000.088036) can0 193#00080803E7C80000
(1030000000.089060) can0 20E#4E2003A0FCBF8FF7
(1030000000.089061) can0 522#DF7FD0007F80001C
(1030000000.089062) can0 366#811DC8020147CE38
(1030000000.090031) can0 580#000000041007FFE0
(1030000000.090033) can0 434#03E220A383938360
(1030000000.090034) can0 2E1#0000000000000004
(1030000000.091080) can0 354#200A400000029980
(1030000000.091082) can0 5E1#893FA00B0A013880
(1030000000.091083) can0 6E0#01C001BD01B301B3
(1030000000.091084) can0 153#00000000000C000A
(1030000000.092084) can0 662#4EE0000040000000
(1030000000.092086) can0 19C#04522015020028E0
(1030000000.092087) can0 0D0#127704600501F400
(1030000000.092088) can0 033#0006D0000C8207D0
(1030000000.093098) can0 274#00F222FA907C8E29
(1030000000.093100) can0 69E#0440047D1FC015A2
(1030000000.093101) can0 0C0#6000000000000000
(1030000000.093102) can0 125#900040DF3FFF9160
(1030000000.094118) can0 162#00080503EA11F4CE
(1030000000.094120) can0 0A7#0010F9A4D12E00A0
(1030000000.094122) can0 498#87FFBFFC00807D85
(1030000000.094123) can0 230#FF000002EC000000
(1030000000.095796) can0 00E#205296020809766E
(1030000000.097371) can0 107#0000000000000000
(1030000000.098372) can0 FFF#0000000000000000
(1030000000.098373) can0 0BA#06B8538410000338
(1030000000.098374) can0 6E0#01BF01BD01B501B5
(1030000000.098375) can0 3C1#7B551FBB392C692E
(1030000000.099953) can0 354#200A400000029980
(1030000000.100929) can0 5E1#893FA00B0A013C80
(1030000000.100931) can0 28B#0000000000000000
(1030000000.100932) can0 0A7#0010F9A4D12E00A0
(1030000000.100933) can0 0D0#1A7704600301F500
(1030000000.101962) can0 033#0006C8000CC207D0
(1030000000.101963) can0 03D#0000088000000000
(1030000000.102946) can0 125#9000411F403F1360
(1030000000.104716) can0 FFF#0000000000000000
(1030000000.105734) can0 00E#2052960208097680
(1030000000.107919) can0 193#00080803E7C80000
(1030000000.108938) can0 20E#4E2003A0FDBF6FF7
(1030000000.108939) can0 522#DF7FD0007F08001C
(1030000000.108940) can0 366#815DC8020147CE38
(1030000000.109958) can0 580#000000041087FFD0
(1030000000.109959) can0 434#040A20A393B39390
(1030000000.109960) can0 2E1#0000000000000004
(1030000000.110959) can0 354#200A400000029200
(1030000000.110960) can0 5E1#893FA00B0A013C80
(1030000000.110961) can0 6E0#01C201BE01B501B5
(1030000000.110962) can0 153#00000000000C000A
(1030000000.111977) can0 295#0000000000001840
(1030000000.111978) can0 662#4EE0000040000000
(1030000000.111979) can0 19C#084E2015020028E0
(1030000000.111980) can0 0D0#227704600201F500
(1030000000.112981) can0 033#0006C0000D0207D0
(1030000000.112982) can0 274#00F224F8907C8E29
(1030000000.112983) can0 0C0#6000000000000000
(1030000000.112983) can0 162#00080503EA11F4CE
(1030000000.114022) can0 0A7#0010FAA4D12E00A0
(1030000000.114023) can0 498#87FFBFFCFD807E06
(1030000000.114024) can0 464#0002400000901D51
(1030000000.114025) can0 69E#0440047D1FC015A2
(1030000000.114026) can0 125#9000411F403EF560
(1030000000.115037) can0 230#FE000002EC000200
(1030000000.116058) can0 00E#205296020809767A
(1030000000.117269) can0 107#0000000000000000
(1030000000.118267) can0 FFF#0000000000000000
(1030000000.118269) can0 32D#00000420AC010020
(1030000000.118270) can0 6E0#01C201BF01B601B6
(1030000000.119287) can0 4FD#11400A4E550C4A88
(1030000000.120307) can0 354#200A400000029200
(1030000000.120308) can0 5E1#893FA00B0A013880
(1030000000.121306) can0 28B#0000000000000000
(1030000000.121307) can0 0A7#0010F9A4D12E00A0
(1030000000.121307) can0 033#0006B8000D4207D0
(1030000000.121308) can0 0D0#2A770460FF01F700
(1030000000.122327) can0 1CA#3FF1FF8000000C20
(1030000000.122328) can0 577#000008000000014E
(1030000000.122329) can0 125#9000411F403ED760
(1030000000.123325) can0 3C1#7B551FB9F9ECE92E
(1030000000.124620) can0 FFF#0000000000000000
(1030000000.125704) can0 00E#2052960208097674
(1030000000.126809) can0 26E#0106408289120A04
(1030000000.127915) can0 193#00080803E7C80000
(1030000000.128931) can0 20E#4E1FFBA0FF3F6FFF
(1030000000.128932) can0 522#DF7FD0007E90001C
(1030000000.128933) can0 585#0040000000020018
(1030000000.129952) can0 366#811DC8020147CE38
(1030000000.129953) can0 580#000000040907FFD0
(1030000000.129954) can0 434#0422A0A3B3C3B3B0
(1030000000.129955) can0 6E0#01C301BF01B601B6
(1030000000.130958) can0 2E1#0000000000000004
(1030000000.130959) can0 354#200A400000028300
(1030000000.130960) can0 5E1#893F800B0A013880
(1030000000.130961) can0 153#00000000000C000A
(1030000000.131974) can0 662#4EE0000040000000
(1030000000.131975) can0 19C#0C4E2014820028E0
(1030000000.131976) can0 0D0#32770460FE01F700
(1030000000.131977) can0 033#0006B0000D8207D0
(1030000000.132997) can0 274#00F226F6907C8E27
(1030000000.132998) can0 0C0#6000000000000000
(1030000000.132999) can0 69E#0440047D1FC015A2
(1030000000.133000) can0 125#9000411F403EB960
(1030000000.133001) can0 162#00080513EA11F4CE
(1030000000.134014) can0 0A7#0010F9A4D12E00A0
(1030000000.134015) can0 2A3#000000841E803C10
(1030000000.134016) can0 498#87FFBFFCFB807E47
(1030000000.135054) can0 230#FD000002EC000400
(1030000000.136060) can0 00E#2052960208097698
(1030000000.137270) can0 107#0000000000000000
(1030000000.138290) can0 FFF#0000000000000000
(1030000000.138291) can0 0BA#06A8538410000338
(1030000000.138292) can0 6E0#01C501C101B701B8
(1030000000.139660) can0 FFF#0000000000000000
(1030000000.140677) can0 FFF#0000000000000000
(1030000000.140678) can0 354#200A400000027B80
(1030000000.140679) can0 0F4#9A0C010204B10240
(1030000000.140680) can0 5E1#893F800B0A013C80
(1030000000.141660) can0 295#0000000000001840
(1030000000.141661) can0 28B#0000000000000000
(1030000000.141662) can0 0D0#3A770460FC01F800
(1030000000.141663) can0 033#0006A8000DC207D0
(1030000000.142682) can0 6FC#00000767F2B94000
(1030000000.142683) can0 0A7#0010FAA4D12E00A0
(1030000000.142683) can0 125#9000411F403E9B60
(1030000000.142684) can0 239#00000076A0004540
(1030000000.143700) can0 FFF#0000000000000000
(1030000000.144719) can0 FFF#0000000000000000
(1030000000.145727) can0 00E#2052960208097692
(1030000000.146748) can0 0D7#0000020080000000
(1030000000.147769) can0 5B3#0400000000000400
(1030000000.148766) can0 193#00080803E7C80000
(1030000000.148767) can0 3C1#7B551FBB37EDA92E
(1030000000.148768) can0 20E#4E2003A0FF3F4FF7
(1030000000.148769) can0 5FD#BDDDFDFFFEFFEDDA
(1030000000.149788) can0 522#DF7FD0007E18001C
(1030000000.149789) can0 366#811DC8020147CE38
(1030000000.149790) can0 580#000000040987FFC0
(1030000000.149791) can0 434#0442A0A3D3F3C3C0
(1030000000.150831) can0 6E0#01C501C101B801B8
(1030000000.150832) can0 2E1#0000000000000004
(1030000000.150833) can0 354#200A400000027B80
(1030000000.150834) can0 5E1#893F800B0A013C80
(1030000000.150835) can0 153#00000000000C000A
(1030000000.151831) can0 662#4EE0000040000000
(1030000000.151832) can0 19C#104A2014820028E0
(1030000000.151833) can0 0D0#42770460FB01F800
(1030000000.151834) can0 033#0006A0000E0207D0
(1030000000.152851) can0 274#00F228F4907C8E27
(1030000000.152852) can0 69E#0440047D1FC015A2
(1030000000.152853) can0 0C0#6000000000000000
(1030000000.152854) can0 125#9000411F403E7D60
(1030000000.153851) can0 162#00080513EA11F4CE
(1030000000.153852) can0 0A7#0010FA24D12E00A0
(1030000000.153853) can0 497#0000000000000000
(1030000000.153854) can0 498#87FFBFFCF9807E88
(1030000000.154869) can0 230#FC000002EC000600
(1030000000.155912) can0 00E#205296020809767A
(1030000000.156934) can0 2E2#18080D4040000118
(1030000000.156935) can0 345#050202C23C774081
(1030000000.156936) can0 430#0041448C6A8010A0
(1030000000.156937) can0 130#0001600000000000
(1030000000.157954) can0 107#0000000000000000
(1030000000.158955) can0 FFF#0000000000000000
(1030000000.158956) can0 6E0#01C601C201B801B8
(1030000000.158957) can0 0FD#0000010080100000
(1030000000.158958) can0 03C#000004002E000000
(1030000000.159997) can0 FFF#0000000000000000
(1030000000.159998) can0 207#040460482ADED518
(1030000000.159999) can0 4C9#01F915820D02F64B
(1030000000.160000) can0 1D6#020B808030240580
(1030000000.160001) can0 1A4#00000002ECCC0000
(1030000000.160997) can0 354#200A400000026C80
(1030000000.160998) can0 5E1#893F800B0A013880
(1030000000.160999) can0 28B#0000000000000000
(1030000000.161000) can0 0D0#4A770460F901F900
(1030000000.162018) can0 033#000698000E4207D0
(1030000000.162019) can0 0A7#0010F9A4D12E00A0
(1030000000.162020) can0 2D2#0000080000000000
(1030000000.163037) can0 125#9000411F403E5F60
(1030000000.164035) can0 2B4#14EA490000005800
(1030000000.165058) can0 FFF#0000000000000000
(1030000000.165059) can0 4CB#8000000000000000
(1030000000.165060) can0 280#18E0027000000000
(1030000000.166057) can0 00E#205296020809766E
(1030000000.167371) can0 32D#00000420AC010020
(1030000000.168389) can0 193#00080803E7C80000
(1030000000.168390) can0 20E#4E2003A1003F4FFF
(1030000000.169411) can0 4FD#114C0A4E650ECA88
(1030000000.169412) can0 522#DF7FD0007DA0001C
(1030000000.169413) can0 366#811DC8020147CE38
(1030000000.169414) can0 580#000000040A07FFB0
(1030000000.170411) can0 434#046800A3F403F3D0
(1030000000.170412) can0 6E0#01C601C401BB01BB
(1030000000.170413) can0 2E1#0000000000000004
(1030000000.170414) can0 354#200A400000025D80
(1030000000.171431) can0 5E1#893F600B0A013C80
(1030000000.171432) can0 4E7#0000001403740000
(1030000000.171433) can0 153#00000000000C000A
(1030000000.171434) can0 FFF#0000000000000000
(1030000000.172453) can0 295#0000000000001840
(1030000000.172454) can0 662#4EE0000040000000
(1030000000.172455) can0 684#4CD680194160101E
(1030000000.172456) can0 69E#0440047D1FC015A2
(1030000000.172457) can0 636#249C0000F0018000
(1030000000.173473) can0 125#9000411F40202160
(1030000000.173474) can0 2D7#100060D800000008
(1030000000.173475) can0 3C1#7B551FBB772E292E
(1030000000.173476) can0 19C#14462014820028E0
(1030000000.174494) can0 0D0#52770460F801F900
(1030000000.174495) can0 033#000690000E8207D0
(1030000000.174495) can0 274#00F22AF2907C8E27
(1030000000.174496) can0 0C0#6000000000000000
(1030000000.175516) can0 162#00080513EA11F4CE
(1030000000.175517) can0 0A7#0010F9A4D12E00A0
(1030000000.175518) can0 66C#0000000020000000
(1030000000.175519) can0 498#87FFBFFCF5807F49
(1030000000.176514) can0 3E4#00D4000085000000
(1030000000.176515) can0 65C#4008F2C6000F0000
(1030000000.176516) can0 00E#205296020809768C
(1030000000.176517) can0 577#000008000000014E
(1030000000.177534) can0 FFF#0000000000000000
(1030000000.177535) can0 230#FB000002EC000800
(1030000000.177536) can0 107#0000000000000000
(1030000000.178555) can0 FFF#0000000000000000
(1030000000.178556) can0 0BA#06A8534410000338
(1030000000.178557) can0 2C1#01F2AFC7CA1E9572
(1030000000.178558) can0 6E0#01C601C401BC01BC
(1030000000.179910) can0 354#200A400000025D80
(1030000000.180930) can0 5E1#893F600B0A013C80
(1030000000.180931) can0 28B#0000000000000000
(1030000000.180932) can0 0A7#0010FAA4D12E00A0
(1030000000.180933) can0 0D0#5A770460F401FC00
(1030000000.181950) can0 033#000688000EC207D0
(1030000000.181951) can0 407#5001605021809220
(1030000000.181951) can0 075#0F32000FAE1EE000
(1030000000.182949) can0 125#9000411F40200360
(1030000000.184741) can0 FFF#0000000000000000
(1030000000.185741) can0 00E#2052960208097680
(1030000000.187952) can0 193#00080803E7C80000
(1030000000.188971) can0 20E#4E2003A1013F4FFF
(1030000000.188972) can0 522#DF7FD0007D28001C
(1030000000.188973) can0 366#815DC8020147CE38
(1030000000.189971) can0 580#000000040A87FFA0
(1030000000.189972) can0 434#000000A404240400
(1030000000.189973) can0 6E0#01C701C501BC01BC
(1030000000.189974) can0 2E1#0000000000000004
(1030000000.190992) can0 354#200A800000024E00
(1030000000.190993) can0 5E1#893F400B0A013880
(1030000000.190994) can0 162#00080513EA11F4CE
(1030000000.190995) can0 153#00000000000C000A
(1030000000.191994) can0 662#4EE0000040000000
(1030000000.191995) can0 19C#18422014820028E0
(1030000000.191996) can0 0D0#62770460F301FC00
(1030000000.191997) can0 033#000680000F0207D0
(1030000000.193012) can0 274#00F22CF0907C8E27
(1030000000.193013) can0 69E#0440047D1FC015A2
(1030000000.193014) can0 0C0#6000000000000000
(1030000000.193015) can0 125#900040DF3FE04560
(1030000000.194032) can0 0A7#0010F9A4D12E00A0
(1030000000.194033) can0 498#87FFBFFCF080800A
(1030000000.194033) can0 230#FA000002EC000A00
(1030000000.194034) can0 03A#00000000001D0800
(1030000000.195717) can0 00E#205296020809767A
(1030000000.197258) can0 107#0000000000000000
(1030000000.198280) can0 FFF#0000000000000000
(1030000000.198281) can0 6E0#01C701C501BF01BF
(1030000000.198282) can0 3C1#7B551FBC756EE92E
(1030000000.200029) can0 354#200A800000024E00
(1030000000.201031) can0 5E1#893F400B0A013880
(1030000000.201032) can0 28B#0000000000000000
(1030000000.201033) can0 295#0000000000001840
(1030000000.201034) can0 0D0#6A770460EF01FF00
(1030000000.202051) can0 033#000678000F4207D0
(1030000000.202052) can0 0A7#0010F924D12E00A0
(1030000000.202053) can0 03D#0000088000000000
(1030000000.202054) can0 4EE#A0000D08F04C4008
(1030000000.203071) can0 125#9000411F403FC760
(1030000000.204716) can0 FFF#0000000000000000
(1030000000.205716) can0 00E#2052960208097686
(1030000000.207949) can0 193#00080803E7C80000
(1030000000.208967) can0 20E#4E2007A1023F2FFF
(1030000000.208968) can0 522#DF7FD0007CB0001C
(1030000000.208969) can0 366#811DC8020147CE38
(1030000000.209989) can0 580#000000040B07FF90
(1030000000.209990) can0 434#002000A434342420
(1030000000.209991) can0 6E0#01C801C501BF01C0
(1030000000.209992) can0 2E1#0000000000000004
(1030000000.211009) can0 354#200A800000023F00
(1030000000.211010) can0 5E1#893F200B0A013C80
(1030000000.211011) can0 162#00080513EA11F4CE
(1030000000.211012) can0 153#00000000000C000A
(1030000000.212009) can0 662#4EE0000040000000
(1030000000.212010) can0 19C#1C402014420028E0
(1030000000.212011) can0 0D0#72770460EE01FF00
(1030000000.212012) can0 033#000670000F8207D0
(1030000000.213050) can0 274#00F22EEE907C8E27
(1030000000.213051) can0 0C0#6000000000000000
(1030000000.213052) can0 0A7#0010FAA4D12E00A0
(1030000000.213053) can0 55C#101B000041823000
(1030000000.214029) can0 498#87FFBFFCED80808B
(1030000000.214030) can0 464#0002400000901C52
(1030000000.214031) can0 69E#0440047D1FC015A2
(1030000000.214032) can0 125#9000411F403FA960
(1030000000.214033) can0 69D#808DCFB04FC1FCB1
(1030000000.215049) can0 230#F9000002EC000C00
(1030000000.216069) can0 00E#2052960208097680
(1030000000.217259) can0 107#0000000000000000
(1030000000.218279) can0 FFF#0000000000000000
(1030000000.218280) can0 0BA#06A852C410000338
(1030000000.218281) can0 6E0#01C901C701C001C0
(1030000000.218282) can0 273#0000000800000000
(1030000000.219279) can0 1C4#017002002841BA02
(1030000000.219280) can0 2A4#2020031C040898D0
(1030000000.219281) can0 FFF#0000000000000000
(1030000000.219282) can0 371#0106000000000880
(1030000000.220299) can0 67D#0018600208000220
(1030000000.220300) can0 51B#2909183F01060801
(1030000000.220301) can0 354#200A800000023780
(1030000000.220302) can0 5E1#893F200B0A013C80
(1030000000.221320) can0 28B#0000000000000000
(1030000000.221321) can0 0A7#0010F9A4D12E00A0
(1030000000.221322) can0 0D0#7A770460EA020100
(1030000000.221323) can0 033#000668000FC207D0
(1030000000.222320) can0 1CA#3FF1FF8000000C20
(1030000000.222321) can0 32D#00000420AC010020
(1030000000.222322) can0 0CC#434103B238AFA216
(1030000000.222323) can0 125#9000411F403F8B60
(1030000000.222324) can0 4FD#11440A4E5D0D4A88
(1030000000.223340) can0 577#000008000000014E
(1030000000.223341) can0 FFF#0000000000000000
(1030000000.223342) can0 3C1#7B551FBBF56F692E
(1030000000.223343) can0 5E8#000002040039B000
(1030000000.224613) can0 FFF#0000000000000000
(1030000000.225715) can0 00E#2052960208097680
(1030000000.227317) can0 26E#0106408289160A04
(1030000000.228339) can0 419#0A9B464D045FC26F
(1030000000.228340) can0 193#00080803E7C80000
(1030000000.228340) can0 20E#4E2003A1033F6FFF
(1030000000.229339) can0 522#DF7FD0007C38001C
(1030000000.229340) can0 585#0040000000020018
(1030000000.229341) can0 366#811DC8020147CE38
(1030000000.230361) can0 580#000000040B87FF80
(1030000000.230362) can0 3B9#2004720000005C42
(1030000000.230363) can0 434#005680A454645430
(1030000000.230364) can0 2E1#0000000000000004
(1030000000.230365) can0 354#200A800000023780
(1030000000.231375) can0 5E1#893F000B0A013880
(1030000000.231376) can0 153#00000000000C000A
(1030000000.231377) can0 295#0000000000001840
(1030000000.231378) can0 662#4EE0000040000000
(1030000000.232444) can0 19C#005C2014420028E0
(1030000000.232445) can0 0D0#02770460F9020100
(1030000000.232446) can0 033#0006E0000C0207D0
(1030000000.232447) can0 274#00F220FC907C8E23
(1030000000.233443) can0 69E#0440047D1FC015A2
(1030000000.233444) can0 6E0#01C901C701C201C3
(1030000000.233445) can0 125#9000411F403F6D60
(1030000000.233446) can0 0C0#6000000000000000
(1030000000.234465) can0 162#00080513EA11F4CE
(1030000000.234466) can0 0A7#0010F9A4D12E00A0
(1030000000.234467) can0 2A3#0000008420803C10
(1030000000.234468) can0 21D#0000000000010000
(1030000000.235485) can0 498#87FFBFFCE980814C
(1030000000.235486) can0 230#F8000002EC000E00
(1030000000.236505) can0 00E#2052960208097680
(1030000000.237526) can0 107#0000000000000000
(1030000000.237528) can0 FFF#0000000000000000
(1030000000.238545) can0 6E0#01CA01C701C201C3
(1030000000.239856) can0 FFF#0000000000000000
(1030000000.240854) can0 354#200A80000002A080
(1030000000.240855) can0 FFF#0000000000000000
(1030000000.240856) can0 0F4#9A0C010204B10240
(1030000000.240857) can0 5E1#893F000B0A013C80
(1030000000.241902) can0 28B#0000000000000000
(1030000000.241904) can0 0D0#0A770460F5020400
(1030000000.241905) can0 033#0006D8000C4207D0
(1030000000.241906) can0 6FC#0000076872B95000
(1030000000.242860) can0 0A7#0010FA24D12E00A0
(1030000000.242861) can0 125#9000411F403F4F60
(1030000000.242862) can0 239#0000007740004560
(1030000000.242863) can0 FFF#0000000000000000
(1030000000.243886) can0 FFF#0000000000000000
(1030000000.243887) can0 FFF#0000000000000000
(1030000000.244909) can0 FFF#0000000000000000
(1030000000.245900) can0 00E#2052960208097680
(1030000000.246921) can0 5B3#0400000000000400
(1030000000.246922) can0 0D7#0000020080000000
(1030000000.247948) can0 193#00080803E7C80000
(1030000000.248943) can0 3C1#7B551FBBB4F0292E
(1030000000.248944) can0 20E#4E2003A104BF8FFF
(1030000000.248945) can0 522#DF7FD0007BC0001C
(1030000000.248946) can0 366#815DC8020147CE38
(1030000000.250000) can0 580#000000040C07FF70
(1030000000.250001) can0 434#007780A464746460
(1030000000.250002) can0 6E0#01CC01C701C501C5
(1030000000.250003) can0 498#87FFBFFCE580820D
(1030000000.251040) can0 2E1#0000000000000004
(1030000000.251041) can0 354#200A800000029180
(1030000000.251042) can0 5E1#893EE00B0A013880
(1030000000.251042) can0 153#00000000000C000A
(1030000000.252081) can0 662#4EE0000040000000
(1030000000.252082) can0 19C#04582014420028E0
(1030000000.252083) can0 0D0#12770460F1020700
(1030000000.252083) can0 033#0006D0000C8207D0
(1030000000.252084) can0 274#00F222FA907C8E23
(1030000000.253085) can0 69E#0440047D1FC015A2
(1030000000.253086) can0 125#9000411F403F3160
(1030000000.253087) can0 0C0#6000000000000000
(1030000000.253088) can0 162#00080513EA11F4CE
(1030000000.254051) can0 0A7#0010F9A4D12E00A0
(1030000000.254052) can0 497#0000000000000000
(1030000000.254053) can0 230#F7000002EC001000
(1030000000.255744) can0 00E#2052960208097680
(1030000000.256767) can0 2E2#18080D4040000118
(1030000000.256768) can0 345#050202C23C774081
(1030000000.256769) can0 430#0041448C6A8010A0
(1030000000.256770) can0 130#0001600000000000
(1030000000.257787) can0 107#0000000000000000
(1030000000.257789) can0 FFF#0000000000000000
(1030000000.258787) can0 0BA#06A852C410000338
(1030000000.258788) can0 6E0#01CC01C701C701C7
(1030000000.258789) can0 03C#000004002F000000
(1030000000.258790) can0 207#040460482ADED518
(1030000000.259807) can0 4C9#01F915820D02F64B
(1030000000.259808) can0 1D6#020F828030240580
(1030000000.260808) can0 354#200A800000029180
(1030000000.260809) can0 5E1#893EE00B0A013880
(1030000000.260810) can0 28B#0000000000000000
(1030000000.260811) can0 0A7#0010F9A4D12E00A0
(1030000000.261829) can0 295#0000000000001840
(1030000000.261830) can0 0D0#1A770460F0020700
(1030000000.261833) can0 033#0006C8000CC207D0
(1030000000.261834) can0 2D2#0000100000000000
(1030000000.262846) can0 125#9000411F403F1360
(1030000000.263870) can0 2B4#14EA490000005800
(1030000000.264870) can0 FFF#0000000000000000
(1030000000.265890) can0 00E#2052960208097680
(1030000000.267352) can0 1E5#01460405A841A3E0
(1030000000.268370) can0 32D#00000420AC010020
(1030000000.268371) can0 193#00080803E7C80000
(1030000000.268372) can0 20E#4E2003A105BF6FFF
(1030000000.269371) can0 4FD#11450A4E5D0D4A88
(1030000000.269372) can0 522#DF7FD0007B48001C
(1030000000.269373) can0 366#815DC8020147CE38
(1030000000.269374) can0 580#000000040C87FF60
(1030000000.270392) can0 434#0088E0A474947470
(1030000000.270393) can0 6E0#01CC01C901C701C7
(1030000000.270394) can0 2E1#0000000000000004
(1030000000.270395) can0 354#200AC00000028200
(1030000000.271413) can0 5E1#893EC00B0A013880
(1030000000.271415) can0 162#00080513EA11F4CE
(1030000000.271416) can0 4E7#0000001403740000
(1030000000.271417) can0 153#00000000000C000A
(1030000000.272432) can0 FFF#0000000000000000
(1030000000.272433) can0 662#4EE0000040000000
(1030000000.272434) can0 684#4CD680194160101E
(1030000000.272435) can0 69E#0440047D1FC015A2
(1030000000.272436) can0 636#249C0000F0019000
(1030000000.273454) can0 125#9000411F403EF560
(1030000000.273455) can0 2D7#100060D800000008
(1030000000.273456) can0 3C1#7B551FBB74B0A92E
(1030000000.273457) can0 19C#08542014420028E0
(1030000000.274454) can0 0D0#22770460EF020700
(1030000000.274455) can0 033#0006C0000D0207D0
(1030000000.274456) can0 274#00F224F8907C8E23
(1030000000.274457) can0 0C0#6000000000000000
(1030000000.275484) can0 0A7#0010F9A4D12E00A0
(1030000000.275485) can0 66C#0000000018000000
(1030000000.275486) can0 498#87FFBFFCE080830E
(1030000000.275487) can0 3E4#00D4000085000000
(1030000000.276495) can0 65C#4008F2C6000F0000
(1030000000.276496) can0 577#000008000000014E
(1030000000.276497) can0 00E#2052960208097686
(1030000000.276498) can0 230#F6000002EC001200
(1030000000.277494) can0 618#FB7DBEFFF777BFDD
(1030000000.277495) can0 107#0000000000000000
(1030000000.278515) can0 FFF#0000000000000000
(1030000000.278516) can0 0F1#3E101CC00359CC00
(1030000000.278517) can0 6E0#01CC01CB01C901C9
(1030000000.280040) can0 354#200AC00000028200
(1030000000.281062) can0 5E1#893EC00B0A013880
(1030000000.281063) can0 28B#0000000000000000
(1030000000.281064) can0 0A7#0010FAA4D12E00A0
(1030000000.281065) can0 0D0#2A770460EA020B00
(1030000000.282061) can0 033#0006B8000D4207D0
(1030000000.282062) can0 407#5001605021C09220
(1030000000.282063) can0 125#9000411F403ED760
(1030000000.283081) can0 2C1#01F3CFC7C81E7786
(1030000000.284606) can0 FFF#0000000000000000
(1030000000.285749) can0 00E#2052960208097686
(1030000000.287956) can0 193#00080803E7C80000
(1030000000.288954) can0 20E#4E2003A106BFAFFF
(1030000000.288956) can0 522#DF7FD0007AD0001C
(1030000000.288957) can0 366#815DC8020147CE38
(1030000000.289977) can0 580#000000040D07FF50
(1030000000.289978) can0 434#00A8E0A4A4C49490
(1030000000.289979) can0 6E0#01CC01CB01CC01CA
(1030000000.289980) can0 498#87FFBFFCDD80838F
(1030000000.290976) can0 2E1#0000000000000004
(1030000000.290977) can0 354#200AC00000027300
(1030000000.290978) can0 5E1#893EA00B0A013480
(1030000000.290979) can0 153#00000000000C000A
(1030000000.291998) can0 295#0000000000001840
(1030000000.291999) can0 662#4EE0000040000000
(1030000000.292003) can0 19C#0C502014420028E0
(1030000000.292004) can0 0D0#32770460E7020D00
(1030000000.293021) can0 033#0006B0000D8207D0
(1030000000.293022) can0 69E#0440047D1FC015A2
(1030000000.293023) can0 125#9000411F403EB960
(1030000000.293024) can0 274#00F226F6907C8E23
(1030000000.293025) can0 0C0#6000000000000000
(1030000000.294017) can0 162#00080513EA11F4CE
(1030000000.294018) can0 0A7#0010F924D12E00A0
(1030000000.294019) can0 230#F5000002EC001400
(1030000000.295724) can0 00E#205296020809767A
(1030000000.297270) can0 107#0000000000000000
(1030000000.298288) can0 FFF#0000000000000000
(1030000000.298290) can0 0BA#06A8530410000338
(1030000000.298291) can0 6E0#01CB01C801CC01CA
(1030000000.298292) can0 3C1#7B551FBB3431692E
(1030000000.299287) can0 041#8022002001000000
(1030000000.300308) can0 354#200AC00000026B80
(1030000000.300309) can0 5E1#893EA00B0A013880
(1030000000.301274) can0 28B#0000000000000000
(1030000000.301275) can0 0A7#0010F924D12E00A0
(1030000000.301276) can0 0D0#3A770460E6020D00
(1030000000.301277) can0 033#0006C8000DC1C7C0
(1030000000.302329) can0 03D#0000090000000000
(1030000000.302330) can0 125#9000411F403E9B60
(1030000000.304705) can0 FFF#0000000000000000
(1030000000.305723) can0 00E#2052960208097692
(1030000000.307935) can0 193#00080803E7C80000
(1030000000.308953) can0 20E#4E2003A108BFAFF7
(1030000000.308954) can0 522#DF7FD0007A58001C
(1030000000.308955) can0 366#815DC8020147CE38
(1030000000.309974) can0 580#000000040587FF50
(1030000000.309975) can0 434#00C720A4C4D4C4A0
(1030000000.309976) can0 6E0#01CB01C801CE01CF
(1030000000.309977) can0 498#87FFBFFCE8808480
(1030000000.310975) can0 2E1#0000000000000004
(1030000000.310976) can0 354#200AC00000026B80
(1030000000.310977) can0 5E1#893E800B0A013880
(1030000000.310978) can0 153#00000000000C000A
(1030000000.312016) can0 662#4EE0000040000000
(1030000000.312018) can0 19C#10662011020028E0
(1030000000.312019) can0 0D0#42770460E1021100
(1030000000.312020) can0 033#0006C8000E01B7C0
(1030000000.313014) can0 274#00F228F4907C8E21
(1030000000.313015) can0 69E#0440047D1FC015A2
(1030000000.313016) can0 0C0#6000000000000000
(1030000000.313017) can0 125#9000411F403E7D60
(1030000000.313018) can0 162#00080513EA11F4CE
(1030000000.314015) can0 0A7#0010FAA4D12E00A0
(1030000000.314016) can0 464#0002400000901B53
(1030000000.314017) can0 230#F4000002EC001600
(1030000000.315743) can0 00E#2052960208097686
(1030000000.317289) can0 107#0000000000000000
(1030000000.318306) can0 FFF#0000000000000000
(1030000000.318307) can0 297#1100002000025110
(1030000000.318308) can0 6E0#01CE01C801CE01D1
(1030000000.318309) can0 5AF#20C0000000200000
(1030000000.319326) can0 32D#00000420AC010020
(1030000000.319327) can0 4FD#11450A4E5D0D4A88
(1030000000.320347) can0 354#200AC00000025C80
(1030000000.320348) can0 5E1#893E800B0A013880
(1030000000.321348) can0 28B#0000000000000000
(1030000000.321350) can0 295#0000000000001840
(1030000000.321351) can0 0D0#4A770460E0021100
(1030000000.321352) can0 033#0006C0000E41B7C0
(1030000000.322369) can0 0A7#0010F9A4D12E00A0
(1030000000.322370) can0 1CA#3FF1FF8000000C20
(1030000000.322371) can0 577#000008000000014E
(1030000000.322372) can0 125#9000411F403E5F60
(1030000000.323369) can0 3C1#7B551FBBB331E92E
(1030000000.324388) can0 FFF#0000000000000000
(1030000000.325408) can0 FFF#0000000000000000
(1030000000.326407) can0 00E#2052960208097686
(1030000000.327828) can0 26E#0106408289120A04
(1030000000.328826) can0 193#00080803E7C80000
(1030000000.328827) can0 20E#4E2003A108BF8FF7
(1030000000.328828) can0 522#DF7FD00079E0001C
(1030000000.329847) can0 585#0040000000020018
(1030000000.329848) can0 366#815DC8020147CE38
(1030000000.329849) can0 580#000000040E07FF30
(1030000000.329850) can0 434#00E700A4D4F4D4D0
(1030000000.330868) can0 6E0#01CF01CA01CF01D1
(1030000000.330869) can0 2E1#0000000000000004
(1030000000.330870) can0 354#200B000000024580
(1030000000.330871) can0 5E1#893E800B0A013880
(1030000000.330872) can0 153#00000000000C000A
(1030000000.331888) can0 662#4EE0000040000000
(1030000000.331890) can0 19C#14622011020028E0
(1030000000.331891) can0 0D0#52770460DF021100
(1030000000.331892) can0 033#0006B8000E81B7D0
(1030000000.332909) can0 274#00F22AF2907C8E21
(1030000000.332910) can0 69E#0440047D1FC015A2
(1030000000.332911) can0 125#9000411F40202160
(1030000000.332912) can0 0C0#6000000000000000
(1030000000.333908) can0 162#00080513EA11F4CE
(1030000000.333909) can0 0A7#0010F924D12E00A0
(1030000000.333910) can0 2A3#0000008420803C10
(1030000000.333911) can0 498#87FFBFFCE3808581
(1030000000.334928) can0 230#F3000002EC001800
(1030000000.335927) can0 00E#205296020809768C
(1030000000.337327) can0 107#0000000000000000
(1030000000.338346) can0 FFF#0000000000000000
(1030000000.338347) can0 0BA#06A852C410000338
(1030000000.338348) can0 6E0#01CF01CD01D101D2
(1030000000.339947) can0 354#200B000000024580
(1030000000.340969) can0 FFF#0000000000000000
(1030000000.340970) can0 FFF#0000000000000000
(1030000000.340971) can0 0F4#9A0C010204B10240
(1030000000.340972) can0 5E1#893E600B0A013880
(1030000000.341970) can0 28B#0000000000000000
(1030000000.341971) can0 0D0#5A770460DA021500
(1030000000.341972) can0 033#0006B0000EC1B7D0
(1030000000.341973) can0 6FC#00000768B2B95800
(1030000000.342991) can0 0A7#0010FA24D12E00A0
(1030000000.342992) can0 125#9000411F40200360
(1030000000.342993) can0 239#00000077A0004580
(1030000000.342994) can0 FFF#0000000000000000
(1030000000.344674) can0 FFF#0000000000000000
(1030000000.345709) can0 00E#205296020809768C
(1030000000.346761) can0 5B3#0400000000000400
(1030000000.346762) can0 0D7#0000020080000000
(1030000000.347948) can0 193#00080803E7C80000
(1030000000.348969) can0 3C1#7B551FBB72B2A92E
(1030000000.348970) can0 20E#4E2003A10A3F8FF7
(1030000000.348971) can0 522#DF7FD0007968001C
(1030000000.348972) can0 366#815DC8020147CE38
(1030000000.349969) can0 580#000000040687FF30
(1030000000.349970) can0 434#0105A0A50504F4F0
(1030000000.349971) can0 6E0#01CD01CD01D101D4
(1030000000.349972) can0 498#87FFBFFCE0808602
(1030000000.350990) can0 2E1#0000000000000004
(1030000000.350991) can0 354#200B000000023E00
(1030000000.350992) can0 5E1#893E400B0A013880
(1030000000.350993) can0 153#00000000000C000A
(1030000000.351992) can0 295#0000000000001840
(1030000000.351993) can0 662#4EE0000040000000
(1030000000.351994) can0 19C#185E2011020028E0
(1030000000.351995) can0 0D0#62770460D7021700
(1030000000.353034) can0 033#0006A8000F01B7D0
(1030000000.353035) can0 69E#0440047D1FC015A2
(1030000000.353036) can0 125#9000411F403FE560
(1030000000.353037) can0 274#00F22CF0907C8E21
(1030000000.353038) can0 0C0#6000000000000000
(1030000000.354030) can0 162#00080503EA11F4CE
(1030000000.354032) can0 0A7#0010FA24D12E00A0
(1030000000.354033) can0 497#0000000000000000
(1030000000.354036) can0 230#F2000002EC001A00
(1030000000.355737) can0 00E#2052960208097686
(1030000000.356739) can0 2E2#18080D4040000118
(1030000000.356741) can0 345#050202C23C774081
(1030000000.356742) can0 430#0041448C688010A0
(1030000000.356743) can0 130#0001600000000000
(1030000000.357759) can0 107#0000000000000000
(1030000000.357760) can0 FFF#0000000000000000
(1030000000.358759) can0 FFF#0000000000000000
(1030000000.358760) can0 6E0#01D001CF01D301D4
(1030000000.358761) can0 03C#000004002D000000
(1030000000.358762) can0 207#040460482ADED518
(1030000000.359779) can0 4C9#01F915820D02F64B
(1030000000.359780) can0 1D6#028B808034740590
(1030000000.360801) can0 354#200B000000023E00
(1030000000.360802) can0 5E1#893E400B0A013880
(1030000000.360803) can0 28B#0000000000000000
(1030000000.360804) can0 0A7#0010FA24D12E00A0
(1030000000.361821) can0 0D0#6A770460D6021700
(1030000000.361822) can0 033#0006A0000F41B7D0
(1030000000.361823) can0 2D2#0000180000000000
(1030000000.361824) can0 55C#101B000041823000
(1030000000.362820) can0 125#9000411F403FC760
(1030000000.363840) can0 2B4#14EA490000005800
(1030000000.364841) can0 FFF#0000000000000000
(1030000000.364842) can0 4CB#8000000000000000
(1030000000.365862) can0 280#18E0027000000000
(1030000000.365863) can0 00E#2052960208097686
(1030000000.367927) can0 32D#00000420AC010020
(1030000000.368946) can0 193#00080803E7C80000
(1030000000.368947) can0 20E#4E2003A10B3FAFF7
(1030000000.368948) can0 4FD#11430A4E5B0D4B08
(1030000000.368949) can0 522#DF7FD00078F0001C
(1030000000.369945) can0 366#815DC8020147CE38
(1030000000.369946) can0 580#00000003FF07FF30
(1030000000.369947) can0 434#012620A515351500
(1030000000.369948) can0 6E0#01D001CC01D601D6
(1030000000.370966) can0 2E1#0000000000000004
(1030000000.370967) can0 354#200B000000022F00
(1030000000.370968) can0 5E1#893E400B0A013880
(1030000000.370969) can0 4E7#0000001403740000
(1030000000.371966) can0 153#00000000000C000A
(1030000000.371967) can0 FFF#0000000000000000
(1030000000.371968) can0 662#4EE0000040000000
(1030000000.371969) can0 684#4CD680194160101E
(1030000000.372987) can0 636#249C0000F0019000
(1030000000.372989) can0 69E#0440047D1FC015A2
(1030000000.372990) can0 2D7#100060D800000008
(1030000000.372991) can0 125#9000411F403FA960
(1030000000.372992) can0 19C#1C5C2010C20028E0
(1030000000.373987) can0 3C1#7B551FBBF1B3292E
(1030000000.373988) can0 0D0#72770460D5021700
(1030000000.373989) can0 033#000698000F81B7D0
(1030000000.373990) can0 274#00F22EEE907C8E1D
(1030000000.375007) can0 0C0#6000000000000000
(1030000000.375009) can0 162#00080503EA11F4CE
(1030000000.375010) can0 0A7#0010FA24D12E00A0
(1030000000.375010) can0 66C#0000000018000000
(1030000000.376028) can0 498#87FFBFFCDB808703
(1030000000.376029) can0 3E4#00D4000085000000
(1030000000.376031) can0 65C#4008F2B6000F0000
(1030000000.376032) can0 00E#205296020809768C
(1030000000.377024) can0 577#000008000000014E
(1030000000.377025) can0 230#F1000002EC001C00
(1030000000.378069) can0 107#0000000000000000
(1030000000.378070) can0 FFF#0000000000000000
(1030000000.378071) can0 0BA#06A852C410000338
(1030000000.378072) can0 6E0#01D201CC01D601D9
(1030000000.379923) can0 354#200B000000022780
(1030000000.380944) can0 5E1#893E400B0A013880
(1030000000.380945) can0 28B#0000000000000000
(1030000000.380946) can0 0A7#0010FA24D12E00A0
(1030000000.380947) can0 295#0000000000001840
(1030000000.381943) can0 0D0#7A770460D0021B00
(1030000000.381944) can0 033#000690000FC1B7D0
(1030000000.381945) can0 407#5001605022009220
(1030000000.382963) can0 125#9000411F403F8B60
(1030000000.384608) can0 FFF#0000000000000000
(1030000000.385734) can0 00E#2052960208097686
(1030000000.387966) can0 193#00080803E7C80000
(1030000000.388964) can0 2C1#01F3EFC7CA9E559C
(1030000000.388965) can0 20E#4E2003A10BBFAFFF
(1030000000.388966) can0 522#DF7FD0007878001C
(1030000000.388967) can0 366#815DC8020147CE38
(1030000000.389984) can0 580#00000003F787FF30
(1030000000.389985) can0 434#014680A535453530
(1030000000.389986) can0 6E0#01CF01CE01D701D9
(1030000000.389987) can0 498#87FFBFFCD6808804
(1030000000.390985) can0 2E1#0000000000000004
(1030000000.390986) can0 354#200B000000022780
(1030000000.390987) can0 5E1#893E400B0A013480
(1030000000.390988) can0 153#00000000000C000A
(1030000000.392003) can0 662#4EE0000040000000
(1030000000.392004) can0 19C#00782010C20028E0
(1030000000.392005) can0 0D0#02770460DB021F00
(1030000000.392006) can0 033#000708000C01B7D0
(1030000000.393026) can0 274#00F220FC907C8E1D
(1030000000.393027) can0 69E#0440047D1FC015A2
(1030000000.393028) can0 125#9000411F403F6D60
(1030000000.393029) can0 0C0#6000000000000000
(1030000000.393029) can0 162#000804F3EA11F4CE
(1030000000.394024) can0 0A7#0010F924D12E00A0
(1030000000.394025) can0 230#F0000002EC001E00
(1030000000.395731) can0 00E#2052960208097686
(1030000000.397347) can0 107#0000000000000000
(1030000000.398390) can0 FFF#0000000000000000
(1030000000.398392) can0 30A#402D7001D4943200
(1030000000.398393) can0 3C1#7B551FBBF0F3E92E
(1030000000.398394) can0 6E0#01CF01D101D901D9
(1030000000.400054) can0 354#200B000000029080
(1030000000.401008) can0 5E1#893E400B0A013880
(1030000000.401009) can0 28B#0000000000000000
(1030000000.401010) can0 0A7#0010F9A4D12E00A0
(1030000000.401011) can0 0D0#0A770460DA021F00
(1030000000.401999) can0 033#000700000C41B7D0
(1030000000.402001) can0 03D#0000090000000000
(1030000000.402002) can0 125#9000411F403F4F60
(1030000000.404555) can0 FFF#0000000000000000
(1030000000.405782) can0 00E#2052960208097686
(1030000000.407992) can0 193#00080803E7C80000
(1030000000.408993) can0 20E#4E2003A10D3FAFFF
(1030000000.408995) can0 522#DF7FD0007F80001C
(1030000000.408996) can0 366#815DC8020147CE38
(1030000000.410012) can0 580#000000046807FF30
(1030000000.410014) can0 434#016860A565654540
(1030000000.410015) can0 6E0#01D101D101D901DB
(1030000000.410016) can0 498#87FFBFFCD3808885
(1030000000.411013) can0 2E1#0000000000000004
(1030000000.411015) can0 354#200B000000028180
(1030000000.411016) can0 5E1#893E400B0A013880
(1030000000.411017) can0 153#00000000000C000A
(1030000000.412029) can0 295#0000000000001840
(1030000000.412031) can0 662#4EE0000040000000
(1030000000.412032) can0 19C#04742010C20028E0
(1030000000.412033) can0 0D0#12770460D7022100
(1030000000.413050) can0 033#0006F8000C81B7D0
(1030000000.413051) can0 69E#0440047D1FC015A2
(1030000000.413052) can0 274#00F222FA907C8E1D
(1030000000.413053) can0 125#9000411F403F3160
(1030000000.413054) can0 0C0#6000000000000000
(1030000000.414079) can0 162#000804F3EA11F4CE
(1030000000.414081) can0 0A7#0010FAA4D12E00A0
(1030000000.414082) can0 464#0002400000901A54
(1030000000.414083) can0 230#FF000002EC000000
(1030000000.415778) can0 00E#205296020809768C
(1030000000.417437) can0 107#0000000000000000
(1030000000.418449) can0 FFF#0000000000000000
(1030000000.418451) can0 0BA#06A8528410000338
(1030000000.418452) can0 6E0#01D201CF01DC01DB
(1030000000.418453) can0 51B#280C410128000121
(1030000000.419462) can0 32D#00000420AC010020
(1030000000.419464) can0 4FD#11470A4E5F0DCA88
(1030000000.420466) can0 354#200B000000028180
(1030000000.420467) can0 5E1#893E400B0A013480
(1030000000.420468) can0 28B#0000000000000000
(1030000000.421489) can0 0A7#0010F9A4C12E00A0
(1030000000.421491) can0 0D0#1A770460D6022100
(1030000000.421492) can0 033#0006F0000CC1B7D0
(1030000000.421492) can0 1CA#3FF1FF8000000C20
(1030000000.422479) can0 577#000008000000014E
(1030000000.422481) can0 125#9000411F403F1360
(1030000000.423510) can0 3C1#7B551FBBB0B4692E
(1030000000.423511) can0 2B4#14EA4A0000005800
(1030000000.424631) can0 FFF#0000000000000000
(1030000000.425762) can0 00E#205296020809767A
(1030000000.427952) can0 193#00080803E7C80000
(1030000000.429012) can0 20E#4E2003A10E3FAFF7
(1030000000.429014) can0 26E#0106408289160A04
(1030000000.429015) can0 522#DF7FD0007F08001C
(1030000000.430014) can0 585#0040000000020018
(1030000000.430016) can0 366#815DC8020147CE38
(1030000000.430017) can0 580#000000046087FF30
(1030000000.430018) can0 434#0186C0A575956560
(1030000000.431031) can0 2E1#0000000000000004
(1030000000.431032) can0 354#200B400000027200
(1030000000.431033) can0 5E1#893E400B0A013480
(1030000000.431034) can0 153#00000000000C000A
(1030000000.431036) can0 662#4EE0000040000000
(1030000000.432022) can0 19C#08702010C20028E0
(1030000000.432024) can0 0D0#22770460D5022100
(1030000000.432025) can0 033#0006E8000D01B7D0
(1030000000.432025) can0 274#00F224F8907C8E1D
(1030000000.433071) can0 69E#0440047D1FC015A2
(1030000000.433073) can0 6E0#01D201CF01DD01DE
(1030000000.433074) can0 125#9000411F403EF560
(1030000000.433075) can0 0C0#6000000000000000
(1030000000.434061) can0 162#000804F3EA11F4CE
(1030000000.434063) can0 0A7#0010F9A4C12E00A0
(1030000000.434064) can0 2A3#0000008422803C10
(1030000000.434065) can0 498#87FFBFFCD0808906
(1030000000.435091) can0 230#FE000002EC000200
(1030000000.436065) can0 00E#205296020809768C
(1030000000.437429) can0 107#0000000000000000
(1030000000.438462) can0 FFF#0000000000000000
(1030000000.438464) can0 6E0#01D501D001DD01DF
(1030000000.440083) can0 354#200B400000027200
(1030000000.441083) can0 5E1#893E400B0A013480
(1030000000.441085) can0 FFF#0000000000000000
(1030000000.441086) can0 FFF#0000000000000000
(1030000000.441087) can0 0F4#9A0C010204B10240
(1030000000.442114) can0 295#0000000000001840
(1030000000.442115) can0 28B#0000000000000000
(1030000000.442116) can0 0D0#2A770460D2022300
(1030000000.442117) can0 033#0006E0000D41B7D0
(1030000000.443111) can0 125#9000411F403ED760
(1030000000.443113) can0 6FC#0000076892B96800
(1030000000.443114) can0 0A7#0010FB24D12E00A0
(1030000000.443115) can0 239#00000077C00045A0
(1030000000.444129) can0 FFF#0000000000000000
(1030000000.445079) can0 FFF#0000000000000000
(1030000000.446141) can0 00E#205296020809768C
(1030000000.447173) can0 5B3#0400000000000400
(1030000000.447174) can0 0D7#0000020080000000
(1030000000.448171) can0 533#ED7FCF7EFFF3EF7F
(1030000000.448173) can0 193#00080803E7C80000
(1030000000.449187) can0 3C1#7B551FBB3075292E
(1030000000.449189) can0 20E#4E2003A10EBF6FFF
(1030000000.449190) can0 522#DF7FD0007E90001C
(1030000000.449190) can0 366#815DC8020147CE38
(1030000000.450193) can0 580#000000046907FF10
(1030000000.450195) can0 434#01A600A595A59590
(1030000000.450196) can0 6E0#01D601D401DE01DF
(1030000000.450197) can0 498#87FFBFFCCB808A07
(1030000000.450198) can0 2E1#0000000000000004
(1030000000.451212) can0 354#200B400000026300
(1030000000.451213) can0 5E1#893E400B0A013080
(1030000000.451214) can0 153#00000000000C000A
(1030000000.451215) can0 662#4EE0000040000000
(1030000000.452233) can0 19C#0C6E2010820028E0
(1030000000.452235) can0 0D0#32770460CD022700
(1030000000.452236) can0 033#0006D8000D81B7D0
(1030000000.452237) can0 274#00F226F6907C8E1D
(1030000000.453235) can0 69E#0440047D1FC015A2
(1030000000.453237) can0 125#9000411F403EB960
(1030000000.453238) can0 0C0#6000000000000000
(1030000000.453239) can0 162#000804E3EA11F4CE
(1030000000.454258) can0 0A7#0010F9A4D12E00A0
(1030000000.454260) can0 497#0000000000000000
(1030000000.454261) can0 230#FD000002EC000400
(1030000000.455735) can0 00E#205296020809767A
(1030000000.456776) can0 2E2#18080D4040000118
(1030000000.456777) can0 345#050202C23C774081
(1030000000.456778) can0 430#0041448C688010A0
(1030000000.456779) can0 130#0001600000000000
(1030000000.457771) can0 107#0000000000000000
(1030000000.457772) can0 FFF#0000000000000000
(1030000000.458798) can0 0BA#06A8528410000338
(1030000000.458800) can0 6E0#01D601D401DF01DF
(1030000000.458801) can0 03C#000004002D000000
(1030000000.458801) can0 207#040460482ADED518
(1030000000.459806) can0 4C9#01F8D5820D03F64B
(1030000000.459808) can0 1D6#020FC28030240580
(1030000000.460815) can0 354#200B400000025B80
(1030000000.460817) can0 5E1#893E200B0A013080
(1030000000.460818) can0 28B#0000000000000000
(1030000000.460819) can0 0A7#0010F924D12E00A0
(1030000000.461836) can0 0D0#3A770460CC022700
(1030000000.461838) can0 033#0006D0000DC1B7D0
(1030000000.461839) can0 2D2#0000200000000000
(1030000000.462860) can0 125#9000411F403E9B60
(1030000000.463887) can0 2B4#14EA4A0000005800
(1030000000.464879) can0 FFF#0000000000000000
(1030000000.465904) can0 00E#205296020809768C
(1030000000.467432) can0 30A#402D7001D4943200
(1030000000.468458) can0 1C4#0000020000800000
(1030000000.468460) can0 2A4#36DC001C040898D0
(1030000000.468461) can0 193#00080803E7C80000
(1030000000.468462) can0 20E#4E2003A1103F6FFF
(1030000000.469460) can0 32D#00000420AC010020
(1030000000.469461) can0 522#DF7FD0007E18001C
(1030000000.469462) can0 366#815DC8020147CE38
(1030000000.469463) can0 580#000000046187FF10
(1030000000.470482) can0 434#01C640A5B5B5A5A0
(1030000000.470484) can0 6E0#01D601D501DF01E1
(1030000000.470485) can0 2E1#0000000000000004
(1030000000.470486) can0 354#200B400000025B80
(1030000000.471500) can0 5E1#893E000B0A013480
(1030000000.471501) can0 4E7#0000001403740000
(1030000000.471502) can0 153#00000000000C000A
(1030000000.471503) can0 FFF#0000000000000000
(1030000000.472524) can0 295#0000000000001840
(1030000000.472526) can0 662#4EE0000040000000
(1030000000.472527) can0 684#4CD680194160101E
(1030000000.472528) can0 69E#0440047D1FC015A2
(1030000000.472528) can0 636#249C0000F001A000
(1030000000.473545) can0 125#9000411F403E7D60
(1030000000.473546) can0 2D7#100060D800000008
(1030000000.473548) can0 3C1#7B551FBB2FF5A92E
(1030000000.473549) can0 19C#106A2010820028E0
(1030000000.474536) can0 0D0#42770460CB022700
(1030000000.474538) can0 033#0006C8000E01B7D0
(1030000000.474539) can0 274#00F228F4907C8E1B
(1030000000.474544) can0 0C0#6000000000000000
(1030000000.475514) can0 162#000804E3EA11F4CE
(1030000000.475516) can0 0A7#0010FAA4D12E00A0
(1030000000.475517) can0 66C#0000000018000000
(1030000000.475517) can0 498#87FFBFFCC9808A48
(1030000000.476583) can0 3E4#00D4000085000000
(1030000000.476585) can0 00E#2052960208097686
(1030000000.476586) can0 65C#4008F2B6000F0000
(1030000000.476587) can0 4FD#11430A4E5B0D4A88
(1030000000.477587) can0 577#000008000000014E
(1030000000.477589) can0 230#FC000002EC000600
(1030000000.477590) can0 107#0000000000000000
(1030000000.478607) can0 FFF#0000000000000000
(1030000000.478608) can0 6E0#01D701D501E101E1
(1030000000.480067) can0 354#200B400000024C80
(1030000000.481066) can0 5E1#893E000B0A013080
(1030000000.481067) can0 28B#0000000000000000
(1030000000.481068) can0 0D0#4A770460C9022800
(1030000000.481069) can0 033#0006C0000E41B7D0
(1030000000.482086) can0 0A7#0010F9A4D12E00A0
(1030000000.482087) can0 407#5001604022409220
(1030000000.482089) can0 125#9000411F403E5F60
(1030000000.484628) can0 FFF#0000000000000000
(1030000000.485753) can0 00E#205296020809767A
(1030000000.487943) can0 193#00080803E7C80000
(1030000000.489001) can0 20E#4E2003A1113F6FF7
(1030000000.489003) can0 522#DF7FD0007DA0001C
(1030000000.489004) can0 366#815DC8020147CE38
(1030000000.490025) can0 580#000000046207FF00
(1030000000.490027) can0 434#01E5A0A5D5E5B5B0
(1030000000.490028) can0 6E0#01D701D501E201E3
(1030000000.490029) can0 498#87FFBFFCC6808AC9
(1030000000.491006) can0 2E1#0000000000000004
(1030000000.491008) can0 354#200B400000023D80
(1030000000.491009) can0 5E1#893E000B0A013080
(1030000000.491011) can0 153#00000000000C000A
(1030000000.492036) can0 662#4EE0000040000000
(1030000000.492038) can0 19C#146A2010020028E0
(1030000000.492039) can0 0D0#52770460C6022A00
(1030000000.492040) can0 033#0006B8000E81B7C0
(1030000000.493055) can0 274#00F22AF2907C8E1B
(1030000000.493057) can0 69E#0440047D1FC015A2
(1030000000.493058) can0 125#9000411F40202160
(1030000000.493059) can0 0C0#6000000000000000
(1030000000.493060) can0 2C1#01F2CFC7C89E5BB0
(1030000000.494023) can0 162#000804D3EA11F4CE
(1030000000.494024) can0 0A7#0010F924D12E00A0
(1030000000.494025) can0 230#FB000002EC000800
(1030000000.495739) can0 00E#2052960208097680
(1030000000.497301) can0 107#0000000000000000
(1030000000.498309) can0 FFF#0000000000000000
(1030000000.498311) can0 0BA#06A8524410000338
(1030000000.498312) can0 6E0#01DC01D601E301E4
(1030000000.498313) can0 3C1#7B551FBB6EF6692E
(1030000000.499930) can0 354#200B400000023D80
(1030000000.500979) can0 5E1#893E000B0A013480
(1030000000.500980) can0 28B#0000000000000000
(1030000000.500981) can0 0A7#0010FB24D12E00A0
(1030000000.500982) can0 295#0000000000001840
(1030000000.501965) can0 0D0#5A770460C5022A00
(1030000000.501967) can0 033#0006B0000EC1B7C0
(1030000000.501968) can0 03D#0000090000000000
(1030000000.503000) can0 125#9000411F40200360
(1030000000.504768) can0 FFF#0000000000000000
(1030000000.505717) can0 00E#205296020809768C
(1030000000.508008) can0 193#00080803E7C80000
(1030000000.509020) can0 20E#4E2003A1123F4FF7
(1030000000.509021) can0 522#DF7FD0007D28001C
(1030000000.509022) can0 366#815DC8020147CE38
(1030000000.510043) can0 580#000000046287FEF0
(1030000000.510045) can0 434#020820A5E605E5E0
(1030000000.510046) can0 6E0#01D901D901E301E4
(1030000000.510047) can0 498#87FFBFFCC2808B8A
(1030000000.511043) can0 2E1#0000000000000004
(1030000000.511045) can0 354#200B400000023600
(1030000000.511046) can0 5E1#893DE00B0A013080
(1030000000.511047) can0 153#00000000000C000A
(1030000000.512043) can0 662#4EE0000040000000
(1030000000.512045) can0 19C#1868200FC20028E0
(1030000000.512046) can0 0D0#62770460C1022D00
(1030000000.512047) can0 033#0006B0000F01A7C0
(1030000000.513061) can0 274#00F22CF0907C8E1B
(1030000000.513063) can0 69E#0440047D1FC015A2
(1030000000.513064) can0 0C0#6000000000000000
(1030000000.513065) can0 125#9000411F403FE560
(1030000000.513066) can0 162#000804D3EA11F4CE
(1030000000.514078) can0 0A7#0010FA24C12E00A0
(1030000000.514080) can0 55C#101B000041823000
(1030000000.514081) can0 464#0002400000901955
(1030000000.514082) can0 230#FA000002EC000A00
(1030000000.515701) can0 00E#2052960208097686
(1030000000.517291) can0 107#0000000000000000
(1030000000.518306) can0 FFF#0000000000000000
(1030000000.518308) can0 32D#00000420AC010020
(1030000000.518309) can0 6E0#01D901D901E401E4
(1030000000.518310) can0 1AA#90BEBD44A163E640
(1030000000.519309) can0 4FD#11430A4E590D4A88
(1030000000.520326) can0 354#200B400000023600
(1030000000.520327) can0 5E1#893DE00B0A013080
(1030000000.521323) can0 28B#0000000000000000
(1030000000.521324) can0 0A7#0010F924D12E00A0
(1030000000.521325) can0 0D0#6A770460C0022D00
(1030000000.521326) can0 033#0006B0000F4197C0
(1030000000.522310) can0 1CA#3FF1FF8000000C28
(1030000000.522312) can0 577#000008000000014E
(1030000000.522313) can0 125#9000411F403FC760
(1030000000.523303) can0 3C1#7B551FBB2EB6E92E
(1030000000.524708) can0 FFF#0000000000000000
(1030000000.525767) can0 00E#2052960208097686
(1030000000.527972) can0 193#00080803E7C80000
(1030000000.528979) can0 20E#4E2003A1133F4FF7
(1030000000.528980) can0 522#DF7FD0007CB0001C
(1030000000.528981) can0 26E#0106408289120A04
(1030000000.529999) can0 366#815DC8020147CE38
(1030000000.530001) can0 585#0040000000020018
(1030000000.530002) can0 580#000000045B07FEF0
(1030000000.530003) can0 434#022820A616360600
(1030000000.531016) can0 2E1#0000000000000004
(1030000000.531018) can0 354#200B400000022700
(1030000000.531019) can0 5E1#893DC00B0A013080
(1030000000.531020) can0 153#00000000000C000A
(1030000000.531996) can0 295#0000000000001840
(1030000000.531998) can0 662#4EE0000040000000
(1030000000.531999) can0 19C#1C6A200F020028E0
(1030000000.532000) can0 0D0#72770460BF022D00
(1030000000.533048) can0 033#0006A8000F8197C0
(1030000000.533049) can0 69E#0440047D1FC015A2
(1030000000.533050) can0 274#00F22EEE907C8E1B
(1030000000.533051) can0 125#9000411F403FA960
(1030000000.534033) can0 6E0#01D901D701E501E5
(1030000000.534035) can0 0C0#6000000000000000
(1030000000.534036) can0 162#000804C3EA11F4CE
(1030000000.534037) can0 0A7#0010FAA4D12E00A0
(1030000000.534038) can0 2A3#0000008422803C10
(1030000000.535058) can0 498#87FFBFFCC1808B8B
(1030000000.536071) can0 230#F9000002EC000C00
(1030000000.536073) can0 00E#2052960208097686
(1030000000.537289) can0 107#0000000000000000
(1030000000.538308) can0 FFF#0000000000000000
(1030000000.538310) can0 0BA#06B8524410000338
(1030000000.538311) can0 6E0#01DF01DA01E501E5
(1030000000.539934) can0 354#200B800000021780
(1030000000.540995) can0 5E1#893DC00B0A013080
(1030000000.540996) can0 28B#0000000000000000
(1030000000.540997) can0 FFF#0000000000000000
(1030000000.540998) can0 FFF#0000000000000000
(1030000000.541989) can0 0F4#9A0C010204B10240
(1030000000.541990) can0 0D0#7A770460BE022D00
(1030000000.541991) can0 033#0006A0000FC197C0
(1030000000.541992) can0 6FC#0000076852B97800
(1030000000.543014) can0 0A7#0010FA24D12E00A0
(1030000000.543015) can0 125#9000411F403F8B60
(1030000000.543016) can0 239#00000077800045C0
(1030000000.543017) can0 FFF#0000000000000000
(1030000000.544577) can0 FFF#0000000000000000
(1030000000.545765) can0 00E#2052960208097680
(1030000000.546767) can0 5B3#0400000000000400
(1030000000.546769) can0 0D7#0000020080000000
(1030000000.547929) can0 193#00080803E7C80000
(1030000000.548998) can0 3C1#7B551FBB2DF7A92E
(1030000000.549000) can0 20E#4E2003A1143F4FFF
(1030000000.549001) can0 522#DF7FD0007C38001C
(1030000000.549002) can0 366#815DC8020147CE38
(1030000000.550010) can0 580#000000045B87FEE0
(1030000000.550011) can0 434#024000A636461610
(1030000000.550012) can0 6E0#01DF01DA01E601E6
(1030000000.550013) can0 498#87FFBFFCBE808C0C
(1030000000.551040) can0 2E1#0000000000000004
(1030000000.551042) can0 354#200B800000021780
(1030000000.551043) can0 5E1#893DC00B0A012C80
(1030000000.551044) can0 153#00000000000C000A
(1030000000.552014) can0 662#4EE0000040000000
(1030000000.552016) can0 19C#008C200E420028E0
(1030000000.552017) can0 0D0#02770460CB022F00
(1030000000.552018) can0 033#000720000C0187C0
(1030000000.553053) can0 274#00F220FC907C8E1B
(1030000000.553054) can0 69E#0440047D1FC015A2
(1030000000.553055) can0 125#9000411F403F6D60
(1030000000.553056) can0 0C0#6000000000000000
(1030000000.553057) can0 162#000804C3EA11F4CE
(1030000000.554055) can0 0A7#0010F9A4D12E00A0
(1030000000.554057) can0 497#0000000000000000
(1030000000.554058) can0 230#F8000002EC000E00
(1030000000.555756) can0 00E#2052960208097680
(1030000000.556785) can0 2E2#18080D4040000118
(1030000000.556786) can0 345#050202C23C774081
(1030000000.556787) can0 430#0041448C688010A0
(1030000000.556788) can0 130#0001600000000000
(1030000000.557774) can0 107#0000000000000000
(1030000000.557775) can0 FFF#0000000000000000
(1030000000.558783) can0 6E0#01E101DD01E601E7
(1030000000.558785) can0 03C#000004002B000000
(1030000000.558786) can0 207#040460482ADED518
(1030000000.558787) can0 4C9#01F915820D02F64B
(1030000000.559761) can0 1D6#020B808030240580
(1030000000.560762) can0 354#200B800000028080
(1030000000.560764) can0 5E1#893DC00B0A013080
(1030000000.560765) can0 28B#0000000000000000
(1030000000.560767) can0 295#0000000000001840
(1030000000.561794) can0 0D0#0A770460CA022F00
(1030000000.561795) can0 033#000718000C4187C0
(1030000000.561796) can0 0A7#0010FAA4D12E00A0
(1030000000.561797) can0 2D2#0000280000000000
(1030000000.562792) can0 125#9000411F403F4F60
(1030000000.563799) can0 2B4#14EA4A0000005800
(1030000000.564834) can0 FFF#0000000000000000
(1030000000.565854) can0 4CB#8000000000000000
(1030000000.565855) can0 280#18E0027000000000
(1030000000.565856) can0 00E#205296020809767A
(1030000000.567298) can0 32D#00000420AC010020
(1030000000.568367) can0 193#00080803E7C80000
(1030000000.568369) can0 20E#4E2003A1153F6FFF
(1030000000.569387) can0 4FD#11450A4E5D0DCA88
(1030000000.569389) can0 522#DF7FD0007BC0001C
(1030000000.569390) can0 366#815DC8020147CE38
(1030000000.569391) can0 580#000000045C07FED0
(1030000000.570381) can0 434#026000A646564640
(1030000000.570382) can0 6E0#01E101DF01E601E7
(1030000000.570383) can0 2E1#0000000000000004
(1030000000.570390) can0 354#200B800000027180
(1030000000.571406) can0 5E1#893DA00B0A013080
(1030000000.571407) can0 162#000804B3EA11F4CE
(1030000000.571408) can0 4E7#0000001403740000
(1030000000.571409) can0 153#00000000000C000A
(1030000000.572364) can0 FFF#0000000000000000
(1030000000.572366) can0 662#4EE0000040000000
(1030000000.572368) can0 684#4CD680194160101E
(1030000000.572369) can0 69E#0440047D1FC015A2
(1030000000.572370) can0 636#249C0000F001B000
(1030000000.573425) can0 125#9000411F403F3160
(1030000000.573427) can0 2D7#100060D800000008
(1030000000.573428) can0 3C1#7B551FBB2D78292E
(1030000000.573429) can0 19C#048A200E020028E0
(1030000000.574422) can0 0D0#12770460C9022F00
(1030000000.574424) can0 033#000710000C8187C0
(1030000000.574425) can0 274#00F222FA907C8E19
(1030000000.574425) can0 0C0#6000000000000000
(1030000000.575445) can0 0A7#0010FA24D12E00A0
(1030000000.575447) can0 66C#0000000018000000
(1030000000.575449) can0 498#87FFBFFCBB808C8D
(1030000000.575450) can0 3E4#00D4000085000000
(1030000000.576464) can0 65C#4008F2B6000F0000
(1030000000.576466) can0 577#000008000000014E
(1030000000.576467) can0 00E#2052960208097686
(1030000000.576468) can0 230#F7000002EC001000
(1030000000.577853) can0 107#0000000000000000
(1030000000.578773) can0 FFF#0000000000000000
(1030000000.578775) can0 6E0#01E101DF01E701E7
(1030000000.578777) can0 0BA#06B8520410000338
(1030000000.579927) can0 354#200B800000027180
(1030000000.580971) can0 5E1#893DA00B0A012880
(1030000000.580973) can0 28B#0000000000000000
(1030000000.580974) can0 0A7#0010F9A4D12E00A0
(1030000000.580975) can0 0D0#1A770460C6023100
(1030000000.581919) can0 033#000710000CC177C0
(1030000000.581921) can0 407#5001603022009220
(1030000000.582990) can0 125#9000411F403F1360
(1030000000.584614) can0 FFF#0000000000000000
(1030000000.585761) can0 00E#205296020809767A
(1030000000.587971) can0 193#00080803E7C80000
(1030000000.589003) can0 20E#4E2003A116BF6FFF
(1030000000.589005) can0 522#DF7FD0007B48001C
(1030000000.589006) can0 366#815DC8020147CE38
(1030000000.590027) can0 580#000000045487FED0
(1030000000.590029) can0 434#028A80A676865650
(1030000000.590030) can0 6E0#01E001E201E801E7
(1030000000.590031) can0 498#87FFBFFCBA808C8E
(1030000000.591047) can0 2E1#0000000000000004
(1030000000.591048) can0 354#200B800000026A00
(1030000000.591049) can0 5E1#893D800B0A012C80
(1030000000.591050) can0 153#00000000000C000A
(1030000000.592066) can0 295#0000000000001840
(1030000000.592067) can0 662#4EE0000040000000
(1030000000.592068) can0 19C#088A200D820028E0
(1030000000.592069) can0 0D0#22770460C5023100
(1030000000.593069) can0 033#000708000D0177C0
(1030000000.593071) can0 69E#0440047D1FC015A2
(1030000000.593072) can0 125#9000411F403EF560
(1030000000.593072) can0 274#00F224F8907C8E19
(1030000000.593073) can0 0C0#6000000000000000
(1030000000.594089) can0 162#000804B3EA11F4CE
(1030000000.594090) can0 0A7#0010FAA4D12E00A0
(1030000000.594091) can0 230#F6000002EC001200
(1030000000.595746) can0 00E#2052960208097686
(1030000000.597284) can0 107#0000000000000000
(1030000000.598292) can0 FFF#0000000000000000
(1030000000.598294) can0 6E0#01E401E001E801E7
(1030000000.598295) can0 3C1#7B551FBAAD38E92E
(1030000000.599297) can0 2C1#01F30FC7CA1E3BC6
(1030000000.600316) can0 354#200B800000026A00
(1030000000.600318) can0 5E1#893D800B0A012C80
(1030000000.601339) can0 28B#0000000000000000
(1030000000.601346) can0 0D0#2A770460C4023100
(1030000000.601347) can0 033#000700000D4177C0
(1030000000.601348) can0 0A7#0010FAA4D12E00A0
(1030000000.602337) can0 03D#0000090000000000
(1030000000.602339) can0 125#9000411F403ED760
(1030000000.604656) can0 FFF#0000000000000000
(1030000000.605752) can0 00E#2052960208097680
(1030000000.607908) can0 193#00080803E7C80000
(1030000000.608900) can0 20E#4E1FFFA1173F6FFF
(1030000000.608903) can0 522#DF7FD0007AD0001C
(1030000000.608904) can0 366#815DC8020147CE38
(1030000000.609903) can0 580#000000045507FEC0
(1030000000.609904) can0 434#02AA20A686A68670
(1030000000.609905) can0 6E0#01E401E501E901E8
(1030000000.609906) can0 498#87FFBFFCB8808CCF
(1030000000.610892) can0 2E1#0000000000000004
(1030000000.610893) can0 354#200B800000025B00
(1030000000.610894) can0 5E1#893D800B0A012880
(1030000000.610895) can0 153#00000000000C000A
(1030000000.611923) can0 662#4EE0000040000000
(1030000000.611925) can0 19C#0C88200D420028E0
(1030000000.611926) can0 0D0#32770460C2023200
(1030000000.611927) can0 033#0006F8000D8177D0
(1030000000.612984) can0 274#00F226F6907C8E19
(1030000000.612985) can0 69E#0440047D1FC015A2
(1030000000.612986) can0 0C0#6000000000000000
(1030000000.612987) can0 125#9000411F403EB960
(1030000000.612988) can0 162#000804A3EA11F4CE
(1030000000.613979) can0 0A7#0010F9A4D12E00A0
(1030000000.613980) can0 464#0002400000901856
(1030000000.613981) can0 230#F5000002EC001400
(1030000000.615720) can0 00E#205296020809766E
(1030000000.617309) can0 107#0000000000000000
(1030000000.618318) can0 FFF#0000000000000000
(1030000000.618319) can0 0BA#06B851C410000338
(1030000000.618320) can0 6E0#01E801E501E901E9
(1030000000.618321) can0 51B#0802874DC6D00001
(1030000000.619336) can0 32D#00000420AC010020
(1030000000.619338) can0 006#0800006400000000
(1030000000.619339) can0 4FD#11470A4E5F0DCA88
(1030000000.620335) can0 354#200B800000025380
(1030000000.620337) can0 5E1#893D800B0A012880
(1030000000.621312) can0 28B#0000000000000000
(1030000000.621314) can0 0A7#0010FA24D12E00A0
(1030000000.621315) can0 295#0000000000001840
(1030000000.621316) can0 0D0#3A770460C1023200
(1030000000.622379) can0 033#0006F0000DC177D0
(1030000000.622381) can0 1CA#3FF1FF8000000C28
(1030000000.622382) can0 577#000008000000014E
(1030000000.622383) can0 125#9000411F403E9B60
(1030000000.623376) can0 3C1#7B551FBA6CF9692E
(1030000000.624674) can0 FFF#0000000000000000
(1030000000.625753) can0 00E#2052960208097680
(1030000000.627954) can0 193#00080803E7C80000
(1030000000.628984) can0 20E#4E1FFFA117BF8FFF
(1030000000.628985) can0 522#DF7FD0007A58001C
(1030000000.628986) can0 585#0040000000020018
(1030000000.630004) can0 366#815DC8020147CE38
(1030000000.630005) can0 580#000000045D87FEA0
(1030000000.630006) can0 434#02CAA0A6B6B6A6A0
(1030000000.630007) can0 6E0#01E901E601E901E9
(1030000000.631029) can0 2E1#0000000000000004
(1030000000.631030) can0 354#200B800000025380
(1030000000.631031) can0 5E1#893D600B0A012880
(1030000000.631032) can0 153#00000000000C000A
(1030000000.632015) can0 662#4EE0000040000000
(1030000000.632016) can0 19C#1084200D420028E0
(1030000000.632017) can0 0D0#42770460C0023200
(1030000000.632018) can0 033#0006E8000E0177D0
(1030000000.633052) can0 274#00F228F4907C8E19
(1030000000.633054) can0 69E#0440047D1FC015A2
(1030000000.633055) can0 125#9000411F403E7D60
(1030000000.633056) can0 0C0#6000000000000000
(1030000000.633060) can0 162#00080493EA11F4CE
(1030000000.634071) can0 0A7#0010FA24D12E00A0
(1030000000.634072) can0 26E#0106408289120A04
(1030000000.634073) can0 2A3#0000008422803C10
(1030000000.634074) can0 498#87FFBFFCC6808D00
(1030000000.635070) can0 230#F4000002EC001600
(1030000000.636048) can0 00E#205296020809767A
(1030000000.637297) can0 107#0000000000000000
(1030000000.638298) can0 FFF#0000000000000000
(1030000000.638300) can0 6E0#01E901E801E901E9
(1030000000.638301) can0 025#0000028840401001
(1030000000.640024) can0 354#200B800000024480
(1030000000.641054) can0 5E1#893D400B0A012480
(1030000000.641055) can0 28B#0000000000000000
(1030000000.641056) can0 FFF#0000000000000000
(1030000000.641057) can0 FFF#0000000000000000
(1030000000.642044) can0 0F4#9A0C010204B10240
(1030000000.642045) can0 0D0#4A770460BE023300
(1030000000.642046) can0 033#0006E0000E4177D0
(1030000000.642047) can0 6FC#00000767D2B98000
(1030000000.643073) can0 125#9000411F403E5F60
(1030000000.643074) can0 0A7#0010F9A4D12E00A0
(1030000000.643075) can0 239#00000077200045C0
(1030000000.643076) can0 FFF#0000000000000000
(1030000000.644622) can0 FFF#0000000000000000
(1030000000.645763) can0 00E#2052960208097674
(1030000000.646759) can0 0D7#0000020080000000
(1030000000.647768) can0 5B3#0400000000000400
(1030000000.648801) can0 193#00080803E7C80000
(1030000000.648803) can0 3C1#7B551FBBAAFA292E
(1030000000.648804) can0 20E#4E2003A118BF8FFF
(1030000000.648805) can0 522#DF7FD00079E0001C
(1030000000.649798) can0 366#815DC8020147CE38
(1030000000.649800) can0 580#000000045607FEA0
(1030000000.649801) can0 434#02EAA0A6D6E6B6B0
(1030000000.649802) can0 6E0#01EC01E801EB01EA
(1030000000.650815) can0 498#87FFBFFCC4808D41
(1030000000.650817) can0 2E1#0000000000000004
(1030000000.650818) can0 354#200B800000023580
(1030000000.650819) can0 5E1#893D200B0A012480
(1030000000.651803) can0 153#00000000000C000A
(1030000000.651805) can0 295#0000000000001840
(1030000000.651806) can0 662#4EE0000040000000
(1030000000.651807) can0 19C#1480200D420028E0
(1030000000.651808) can0 0D0#52770460BC023400
(1030000000.652845) can0 033#0006D8000E8177D0
(1030000000.652846) can0 69E#0440047D1FC015A2
(1030000000.652847) can0 125#9000411F40202160
(1030000000.652848) can0 274#00F22AF2907C8E19
(1030000000.653866) can0 0C0#6000000000000000
(1030000000.653868) can0 162#00080493EA11F4CE
(1030000000.653869) can0 0A7#0010FA24D12E00A0
(1030000000.653870) can0 497#0000000000000000
(1030000000.654857) can0 230#F3000002EC001800
(1030000000.655869) can0 00E#2052960208097674
(1030000000.656901) can0 2E2#18080D4040000118
(1030000000.656902) can0 345#050202C23C774081
(1030000000.656903) can0 430#0041448C688010A0
(1030000000.656904) can0 130#0001600000000000
(1030000000.657924) can0 107#0000000000000000
(1030000000.657925) can0 FFF#0000000000000000
(1030000000.657926) can0 0BA#06B851C410000338
(1030000000.658922) can0 6E0#01F101EB01EB01EB
(1030000000.658923) can0 03C#000004002E000000
(1030000000.658924) can0 207#0404E0582ADED518
(1030000000.658925) can0 4C9#01F915820D02F64B
(1030000000.659912) can0 1D6#020F828030240580
(1030000000.659913) can0 354#200B800000023580
(1030000000.660965) can0 5E1#893D200B0A012480
(1030000000.660966) can0 28B#0000000000000000
(1030000000.660967) can0 0A7#0010FB24D12E00A0
(1030000000.660968) can0 0D0#5A770460BB023400
(1030000000.661964) can0 033#0006D0000EC177D0
(1030000000.661969) can0 2D2#0000300000000000
(1030000000.661970) can0 55C#101B000041823000
(1030000000.662986) can0 125#9000411F40200360
(1030000000.662987) can0 2B4#14EA4A0000005800
(1030000000.664672) can0 FFF#0000000000000000
(1030000000.665756) can0 00E#2052960208097674
(1030000000.667367) can0 32D#00000420AC010020
(1030000000.668382) can0 193#00080803E7C80000
(1030000000.669404) can0 20E#4E2003A119BF8FF7
(1030000000.669405) can0 4FD#11470A4E5F0DCA88
(1030000000.669406) can0 522#DF7FD0007968001C
(1030000000.669407) can0 366#815DC8020147CE38
(1030000000.669407) can0 580#000000045687FE90
(1030000000.670404) can0 434#030A80A6E6F6E6E0
(1030000000.670405) can0 6E0#01EE01EC01EC01EB
(1030000000.670406) can0 2E1#0000000000000004
(1030000000.670407) can0 354#200B800000022E00
(1030000000.671412) can0 5E1#893D200B0A012080
(1030000000.671413) can0 4E7#0000001403740000
(1030000000.671414) can0 153#00000000000C000A
(1030000000.671415) can0 FFF#0000000000000000
(1030000000.672440) can0 662#4EE0000040000000
(1030000000.672441) can0 684#4CD680194160101E
(1030000000.672442) can0 636#249C0000F001C000
(1030000000.672443) can0 69E#0440047D1FC015A2
(1030000000.673458) can0 2D7#100060D800000008
(1030000000.673460) can0 125#9000411F403FE560
(1030000000.673461) can0 19C#187C200D420028E0
(1030000000.673462) can0 3C1#7B551FBBAA7AA92E
(1030000000.674461) can0 0D0#62770460BA023400
(1030000000.674463) can0 033#0006C8000F0177D0
(1030000000.674464) can0 274#00F22CF0907C8E19
(1030000000.674465) can0 0C0#6000000000000000
(1030000000.674466) can0 162#00080483EA11F4CE
(1030000000.675463) can0 0A7#0010F9A4D12E00A0
(1030000000.675464) can0 66C#0000000018000000
(1030000000.675465) can0 498#87FFBFFCC2808D82
(1030000000.675466) can0 3E4#00D4000085000000
(1030000000.676479) can0 65C#4008F2B6000F0000
(1030000000.676480) can0 00E#2052960208097662
(1030000000.676481) can0 577#000008000000014E
(1030000000.676482) can0 FFF#0000000000000000
(1030000000.677481) can0 230#F2000002EC001A00
(1030000000.677482) can0 107#0000000000000000
(1030000000.678502) can0 FFF#0000000000000000
(1030000000.678503) can0 6E0#01EE01EC01EC01EC
(1030000000.680033) can0 354#200B800000022E00
(1030000000.681039) can0 5E1#893D200B0A012080
(1030000000.681040) can0 28B#0000000000000000
(1030000000.681041) can0 295#0000000000001840
(1030000000.681042) can0 0D0#6A770460B8023500
(1030000000.682039) can0 033#0006C0000F4177D0
(1030000000.682041) can0 0A7#0010FA24D12E00A0
(1030000000.682042) can0 407#5001602022409220
(1030000000.682042) can0 075#0F32000FAE1EE000
(1030000000.683038) can0 125#9000411F403FC760
(1030000000.684524) can0 FFF#0000000000000000
(1030000000.685718) can0 00E#205296020809767A
(1030000000.687946) can0 193#00080803E7C80000
(1030000000.688949) can0 20E#4E2003A11B3FAFFF
(1030000000.688951) can0 522#DF7FD00078F0001C
(1030000000.688952) can0 366#815DC8020147CE38
(1030000000.689987) can0 580#000000044F07FE90
(1030000000.689989) can0 434#032A00A71726F6F0
(1030000000.689990) can0 6E0#01F001EE01EC01ED
(1030000000.689991) can0 498#87FFBFFCC0808DC3
(1030000000.690980) can0 2E1#0000000000000004
(1030000000.690981) can0 354#200B800000021F00
(1030000000.690982) can0 5E1#893D000B0A012080
(1030000000.690983) can0 153#00000000000C000A
(1030000000.691963) can0 662#4EE0000040000000
(1030000000.691964) can0 19C#1C78200D420028E0
(1030000000.691976) can0 0D0#72770460B6023600
(1030000000.691981) can0 033#0006B8000F8177D0
(1030000000.692986) can0 274#00F22EEE907C8E19
(1030000000.692998) can0 69E#0440047D1FC015A2
(1030000000.692999) can0 125#9000411F403FA960
(1030000000.693000) can0 0C0#6000000000000000
(1030000000.693001) can0 162#00080473EA11F4CE
(1030000000.693980) can0 0A7#0010FB24D12E00A0
(1030000000.693993) can0 03A#00000000001D0800
(1030000000.693994) can0 230#F1000002EC001C00
(1030000000.695654) can0 00E#205296020809766E
(1030000000.697288) can0 107#0000000000000000
(1030000000.698279) can0 FFF#0000000000000000
(1030000000.698280) can0 0BA#06B8518410000338
(1030000000.698281) can0 3C1#7B551FBAAABB692E
(1030000000.698282) can0 6E0#01F401F201EC01ED
(1030000000.699871) can0 354#200B800000021780
(1030000000.700919) can0 5E1#893D000B0A011C80
(1030000000.700921) can0 28B#0000000000000000
(1030000000.700934) can0 0A7#0010F924D12E00A0
(1030000000.700935) can0 0D0#7A770460B5023600
(1030000000.701911) can0 033#0006B0000FC177D0
(1030000000.701912) can0 03D#0000098000000000
(1030000000.702926) can0 125#9000411F403F8B60
(1030000000.702927) can0 2C1#01F3CFC7C81E23DA
(1030000000.704666) can0 FFF#0000000000000000
(1030000000.705689) can0 00E#2052960208097668
(1030000000.707884) can0 193#00080803E7C80000
(1030000000.709004) can0 20E#4E1FFFA11BBFAFFF
(1030000000.709006) can0 522#DF7FD0007878001C
(1030000000.709007) can0 366#815DC8020147CE38
(1030000000.710001) can0 580#000000044787FE90
(1030000000.710003) can0 434#034AA0A727471710
(1030000000.710004) can0 6E0#01F401F201ED01EC
(1030000000.710005) can0 498#87FFBFFCBE808E04
(1030000000.711018) can0 2E1#0000000000000004
(1030000000.711019) can0 354#200B800000021780
(1030000000.711020) can0 5E1#893D000B0A011C80
(1030000000.711021) can0 153#00000000000C000A
(1030000000.712018) can0 295#0000000000001840
(1030000000.712020) can0 662#4EE0000040000000
(1030000000.712021) can0 19C#0094200D420028E0
(1030000000.712022) can0 0D0#02770460C3023700
(1030000000.713037) can0 033#000728000C0177D0
(1030000000.713039) can0 274#00F220FC907C8E19
(1030000000.713040) can0 0C0#6000000000000000
(1030000000.713041) can0 162#00080473EA11F4CE
(1030000000.713042) can0 0A7#0010F9A4D12E00A0
(1030000000.714060) can0 464#0002400000901757
(1030000000.714061) can0 2AB#A4D0C9D7E2D7CAFF
(1030000000.714062) can0 69E#0440047D1FC015A2
(1030000000.714063) can0 125#9000411F403F6D60
(1030000000.715059) can0 6D7#41044F017007223C
(1030000000.715061) can0 230#F0000002EC001E00
(1030000000.715062) can0 12C#7906E0000001FDD0
(1030000000.716079) can0 00E#2052960208097674
(1030000000.717336) can0 107#0000000000000000
(1030000000.718316) can0 FFF#0000000000000000
(1030000000.718317) can0 1C4#0000020000C00000
(1030000000.718318) can0 6E0#01F501F301EE01EC
(1030000000.718319) can0 2A4#4E1E011C040898D0
(1030000000.719378) can0 FFF#0000000000000000
(1030000000.719380) can0 32D#00000420AC010020
(1030000000.719381) can0 4FD#114A0A4E630E4A88
(1030000000.719382) can0 576#7FF800003FFC1FC0
(1030000000.720357) can0 354#200B800000028080
(1030000000.720359) can0 5E1#893D000B0A011C80
(1030000000.721387) can0 28B#0000000000000000
(1030000000.721388) can0 0D0#0A770460C2023700
(1030000000.721389) can0 033#000720000C4177D0
(1030000000.721390) can0 0A7#0010FAA4D12E00A0
(1030000000.722408) can0 1CA#3FF1FF8000000C28
(1030000000.722409) can0 577#000008000000014C
(1030000000.722410) can0 125#9000411F403F4F60
(1030000000.723405) can0 3C1#7B551FBAAA3BE92E
(1030000000.724618) can0 FFF#0000000000000000
(1030000000.725742) can0 00E#2052960208097674
(1030000000.727945) can0 193#00080803E7C80000
(1030000000.728968) can0 20E#4E1FFFA11D3F8FF7
(1030000000.728970) can0 522#DF7FD0007F80001C
(1030000000.728971) can0 585#0040000000020018
(1030000000.729988) can0 366#815DC8020147CE38
(1030000000.729990) can0 580#00000004B807FE90
(1030000000.729991) can0 434#036AA0A747574740
(1030000000.729992) can0 26E#0106408289120A04
(1030000000.730983) can0 2E1#0000000000000004
(1030000000.730985) can0 354#200B800000027180
(1030000000.730986) can0 5E1#893D000B0A011880
(1030000000.730987) can0 153#00000000000C000A
(1030000000.731989) can0 662#4EE0000040000000
(1030000000.731990) can0 19C#0490200D420028E0
(1030000000.731991) can0 0D0#12770460C1023700
(1030000000.731992) can0 033#000718000C8177D0
(1030000000.733008) can0 274#00F222FA907C8E19
(1030000000.733010) can0 69E#0440047D1FC015A2
(1030000000.733011) can0 6E0#01F801F401EE01EC
(1030000000.733012) can0 125#9000411F403F3160
(1030000000.734027) can0 0C0#6000000000000000
(1030000000.734028) can0 162#00080463EA11F4CE
(1030000000.734029) can0 0A7#0010F9A4D12E00A0
(1030000000.734030) can0 2A3#0000008422803C10
(1030000000.734032) can0 498#87FFBFFCBD808E05
(1030000000.735028) can0 230#FF000002EC000000
(1030000000.736028) can0 00E#205296020809765A
(1030000000.737325) can0 107#0000000000000000
(1030000000.738338) can0 FFF#0000000000000000
(1030000000.738340) can0 0BA#06B8518410000338
(1030000000.738341) can0 6E0#01F801F501EE01ED
(1030000000.739955) can0 354#200B800000027180
(1030000000.740989) can0 5E1#893D000B0A011880
(1030000000.740990) can0 28B#0000000000000000
(1030000000.740991) can0 6FC#0000076712B98000
(1030000000.740992) can0 295#0000000000001840
(1030000000.741987) can0 FFF#0000000000000000
(1030000000.741988) can0 FFF#0000000000000000
(1030000000.741989) can0 0F4#9A0C010204B10240
(1030000000.741990) can0 0D0#1A770460C0023700
(1030000000.742966) can0 033#000710000CC177D0
(1030000000.742968) can0 125#9000411F403F1360
(1030000000.742969) can0 0A7#0010F9A4D12E00A0
(1030000000.742970) can0 239#00000076800045C0
(1030000000.743987) can0 FFF#0000000000000000
(1030000000.745029) can0 FFF#0000000000000000
(1030000000.746042) can0 00E#2052960208097674
(1030000000.747069) can0 5B3#0400000000000400
(1030000000.747070) can0 0D7#0000020080000000
(1030000000.748095) can0 3C1#7B551FBAA97CA92E
(1030000000.749093) can0 193#00080803E7C80000
(1030000000.749096) can0 20E#4E2003A11E3FAFFF
(1030000000.749097) can0 522#DF7FD0007F08001C
(1030000000.749098) can0 366#815DC8020147CE38
(1030000000.750087) can0 580#00000004B887FE80
(1030000000.750089) can0 434#038000A777875750
(1030000000.750090) can0 6E0#01FB01F501EE01EE
(1030000000.750091) can0 498#87FFBFFCBB808E46
(1030000000.751046) can0 2E1#0000000000000004
(1030000000.751049) can0 354#200B800000026A00
(1030000000.751050) can0 5E1#893D000B0A011880
(1030000000.751052) can0 153#00000000000C000A
(1030000000.751053) can0 662#4EE0000040000000
(1030000000.752093) can0 19C#088C200D420028E0
(1030000000.752095) can0 0D0#22770460BE023800
(1030000000.752096) can0 033#000708000D0177D0
(1030000000.752097) can0 274#00F224F8907C8E19
(1030000000.753130) can0 69E#0440047D1FC015A2
(1030000000.753132) can0 125#9000411F403EF560
(1030000000.753133) can0 0C0#6000000000000000
(1030000000.753139) can0 162#00080463EA11F4CE
(1030000000.754143) can0 0A7#0010FB24D12E00A0
(1030000000.754145) can0 497#0000000000000000
(1030000000.754146) can0 230#FE000002EC000200
(1030000000.755723) can0 00E#2052960208097668
(1030000000.756716) can0 2E2#18080D4040000118
(1030000000.756719) can0 345#050202C23C774081
(1030000000.756720) can0 430#0041448C688010A0
(1030000000.756721) can0 130#0001600000000000
(1030000000.757779) can0 107#0000000000000000
(1030000000.757781) can0 FFF#0000000000000000
(1030000000.758774) can0 6E0#01FC01F701EE01EE
(1030000000.758776) can0 03C#000004002F000000
(1030000000.758777) can0 207#040460482ADED518
(1030000000.758778) can0 4C9#01F915820D02F64B
(1030000000.759775) can0 1D6#060B808030240580
(1030000000.760797) can0 354#200B800000026A00
(1030000000.760799) can0 5E1#893D000B0A011080
(1030000000.760800) can0 28B#0000000000000000
(1030000000.760800) can0 0D0#2A770460BD023800
(1030000000.761817) can0 033#000700000D4177D0
(1030000000.761819) can0 0A7#0010F9A4D12E00A0
(1030000000.761820) can0 2D2#0000380000000000
(1030000000.761821) can0 277#1E018000000000F0
(1030000000.762834) can0 125#9000411F403ED760
(1030000000.763811) can0 2B4#14EA4A0000005800
(1030000000.764860) can0 FFF#0000000000000000
(1030000000.764862) can0 4CB#8000000000000000
(1030000000.765842) can0 280#18E0027000000000
(1030000000.765844) can0 00E#205296020809765A
(1030000000.767386) can0 32D#00000420AC010020
(1030000000.768399) can0 193#00080803E7C80000
(1030000000.768400) can0 20E#4E1FFFA11FBFAFFF
(1030000000.769420) can0 4FD#11460A4E5D0DCA88
(1030000000.769421) can0 522#DF7FD0007E90001C
(1030000000.769422) can0 366#819DC8020147CE38
(1030000000.769423) can0 580#00000004B107FE80
(1030000000.770417) can0 434#03A2A0A787A78780
(1030000000.770418) can0 6E0#01FF01FC01F001EF
(1030000000.770419) can0 2E1#0000000000000004
(1030000000.770421) can0 354#200B800000025B00
(1030000000.770422) can0 5E1#893CE00B0A011480
(1030000000.771431) can0 162#00080453EA11F4CE
(1030000000.771433) can0 4E7#0000001403740000
(1030000000.771434) can0 153#00000000000C000A
(1030000000.771435) can0 FFF#0000000000000000
(1030000000.772435) can0 295#0000000000001840
(1030000000.772436) can0 662#4EE0000040000000
(1030000000.772437) can0 69E#0440047D1FC015A2
(1030000000.772438) can0 684#4CD680194160101E
(1030000000.773462) can0 125#9000411F403EB960
(1030000000.773463) can0 636#249C0000F001C000
(1030000000.773464) can0 3C1#7B551FBAA8FD292E
(1030000000.773465) can0 2D7#100060D800000008
(1030000000.774462) can0 19C#0C88200D420028E0
(1030000000.774463) can0 0D0#32770460BC023800
(1030000000.774464) can0 033#0006F8000D8177D0
(1030000000.774465) can0 274#00F226F6907C8E19
(1030000000.775496) can0 0C0#6000000000000000
(1030000000.775498) can0 0A7#0010F924D12E00A0
(1030000000.775499) can0 66C#0000000018000000
(1030000000.775500) can0 498#87FFBFFCB8808EC7
(1030000000.775501) can0 3E4#00D4000085000000
(1030000000.776503) can0 65C#4008F2B6000F0000
(1030000000.776504) can0 00E#2052960208097674
(1030000000.776505) can0 577#000008000000014C
(1030000000.776506) can0 3A2#000000000C01E000
(1030000000.777547) can0 230#FD000002EC000400
(1030000000.777550) can0 107#0000000000000000
(1030000000.778565) can0 FFF#0000000000000000
(1030000000.778566) can0 0BA#06B8514410000338
(1030000000.778568) can0 6E0#01FF01FC01F101EF
(1030000000.778569) can0 0F1#3E101CC00359CC00
(1030000000.779893) can0 354#200BC00000024B80
(1030000000.780942) can0 5E1#893CE00B0A011480
(1030000000.780944) can0 28B#0000000000000000
(1030000000.780946) can0 0A7#0010FB24D12E00A0
(1030000000.780947) can0 0D0#3A770460B9023A00
(1030000000.781958) can0 033#0006F0000DC177D0
(1030000000.781960) can0 407#5001601022809220
(1030000000.782956) can0 125#9000411F403E9B60
(1030000000.784585) can0 FFF#0000000000000000
(1030000000.785732) can0 00E#2052960208097668
(1030000000.787901) can0 193#00080803E7C80000
(1030000000.788951) can0 20E#4E2003A120BF8FFF
(1030000000.788953) can0 522#DF7FD0007E18001C
(1030000000.788954) can0 366#819DC8020147CE38
(1030000000.789985) can0 580#00000004B187FE70
(1030000000.789986) can0 434#03CAA0A7B7B7A7A0
(1030000000.789987) can0 6E0#020001FC01F101F0
(1030000000.789988) can0 498#87FFBFFCB6808F08
(1030000000.790979) can0 2E1#0000000000000004
(1030000000.790981) can0 354#200BC00000024B80
(1030000000.790982) can0 5E1#893CE00B0A011080
(1030000000.790983) can0 153#00000000000C000A
(1030000000.792004) can0 662#4EE0000040000000
(1030000000.792005) can0 19C#1084200D420028E0
(1030000000.792006) can0 0D0#42770460B7023B00
(1030000000.792008) can0 033#0006E8000E0177D0
(1030000000.793021) can0 274#00F228F4907C8E19
(1030000000.793022) can0 69E#0440047D1FC01582
(1030000000.793023) can0 125#9000411F403E7D60
(1030000000.793024) can0 0C0#6000000000000000
(1030000000.793025) can0 162#00080443EA11F4CE
(1030000000.794019) can0 0A7#0010F9A4D12E00A0
(1030000000.794020) can0 230#FC000002EC000600
(1030000000.795656) can0 00E#2052960208097662
(1030000000.797278) can0 107#0000000000000000
(1030000000.798232) can0 FFF#0000000000000000
(1030000000.798236) can0 3C1#7B551FBA28BDE92E
(1030000000.798238) can0 6E0#01FD01FC01F101F0
(1030000000.799992) can0 354#200BC00000023C80
(1030000000.801022) can0 5E1#893CE00B0A011080
(1030000000.801024) can0 28B#0000000000000000
(1030000000.801025) can0 295#0000000000001840
(1030000000.801026) can0 0D0#4A770460B6023B00
(1030000000.801957) can0 033#0006E0000E4177D0
(1030000000.801959) can0 0A7#0010F924D12E00A0
(1030000000.801960) can0 03D#0000098000000000
(1030000000.802967) can0 125#9000411F403E5F60
(1030000000.804733) can0 FFF#0000000000000000
(1030000000.805747) can0 00E#205296020809766E
(1030000000.807872) can0 2C1#01F2AFC7C99E19F0
(1030000000.808893) can0 193#00080803E7C80000
(1030000000.808895) can0 20E#4E1FFFA121BF4FFF
(1030000000.808896) can0 522#DF7FD0007DA0001C
(1030000000.809898) can0 366#815DC8020147CE38
(1030000000.809899) can0 580#00000004AA07FE70
(1030000000.809900) can0 434#03E220A7C7E7C7B0
(1030000000.809901) can0 6E0#01FD01FE01F201F0
(1030000000.809902) can0 498#87FFBFFCB4808F49
(1030000000.810918) can0 2E1#0000000000000004
(1030000000.810919) can0 354#200BC00000022D80
(1030000000.810920) can0 5E1#893CC00B0A011080
(1030000000.810921) can0 153#00000000000C000A
(1030000000.811895) can0 662#4EE0000040000000
(1030000000.811897) can0 19C#1480200D420028E0
(1030000000.811898) can0 0D0#52770460B4023C00
(1030000000.811899) can0 033#0006D8000E8177D0
(1030000000.812935) can0 274#00F22AF2907C8E15
(1030000000.812936) can0 69E#0440047D1FC01582
(1030000000.812937) can0 0C0#6000000000000000
(1030000000.812938) can0 125#9000411F40202160
(1030000000.813959) can0 162#00080443EA11F4CE
(1030000000.813960) can0 0A7#0010FB24D12E00A0
(1030000000.813961) can0 55C#101B000041823000
(1030000000.813968) can0 464#0002400000901658
(1030000000.814950) can0 230#FB000002EC000800
(1030000000.815959) can0 00E#2052960208097668
(1030000000.817205) can0 107#0000000000000000
(1030000000.818224) can0 FFF#0000000000000000
(1030000000.818226) can0 0BA#06B8510410000338
(1030000000.818227) can0 6E0#01FF01FE01F401F2
(1030000000.818228) can0 297#1100002000025110
(1030000000.819285) can0 51B#281A3209B28180C1
(1030000000.819287) can0 32D#00000420AC010020
(1030000000.819288) can0 4FD#114A0A4E630E4A88
(1030000000.819289) can0 419#0A9B464D045FC26F
(1030000000.820229) can0 354#200BC00000022D80
(1030000000.820231) can0 5E1#893CC00B0A010C80
(1030000000.821269) can0 28B#0000000000000000
(1030000000.821271) can0 0A7#0010FA24D12E00A0
(1030000000.821272) can0 0D0#5A770460B3023C00
(1030000000.821273) can0 033#0006D0000EC177D0
(1030000000.822327) can0 1CA#3FF1FF8000000C28
(1030000000.822329) can0 577#000008000000014C
(1030000000.822330) can0 125#9000411F40200360
(1030000000.823325) can0 3C1#7B551FBAE77E692E
(1030000000.824559) can0 FFF#0000000000000000
(1030000000.825726) can0 00E#2052960208097662
(1030000000.827931) can0 193#00080803E7C80000
(1030000000.828873) can0 20E#4E2003A1223F6FFF
(1030000000.828874) can0 522#DF7FD0007D28001C
(1030000000.828875) can0 585#0040000000020018
(1030000000.829944) can0 366#815DC8020147CE38
(1030000000.829946) can0 580#00000004A287FE70
(1030000000.829947) can0 2B7#0020284000008040
(1030000000.829949) can0 434#040A20A7E7F7E7E0
(1030000000.830946) can0 2E1#0000000000000004
(1030000000.830947) can0 354#200BC00000022600
(1030000000.830949) can0 5E1#893CC00B0A010C80
(1030000000.830950) can0 153#00000000000C000A
(1030000000.831928) can0 295#0000000000001840
(1030000000.831929) can0 662#4EE0000040000000
(1030000000.831930) can0 19C#187C200D420028E0
(1030000000.831931) can0 0D0#62770460B2023C00
(1030000000.832986) can0 033#0006C8000F0177D0
(1030000000.832987) can0 69E#0440047D1FC01582
(1030000000.832988) can0 274#00F22CF0907C8E15
(1030000000.832990) can0 125#9000411F403FE560
(1030000000.832991) can0 6E0#020301FF01F401F2
(1030000000.834005) can0 0C0#6000000000000000
(1030000000.834006) can0 162#00080433EA11F4CE
(1030000000.834007) can0 0A7#0010F924D12E00A0
(1030000000.834008) can0 26E#0106408289120A04
(1030000000.835004) can0 2A3#0000008422803C10
(1030000000.835005) can0 498#87FFBFFCB1808FCA
(1030000000.835006) can0 230#FA000002EC000A00
(1030000000.836007) can0 00E#2052960208097668
(1030000000.837217) can0 107#0000000000000000
(1030000000.838212) can0 FFF#0000000000000000
(1030000000.838213) can0 6E0#020001FF01F501F3
(1030000000.840028) can0 354#200BC00000022600
(1030000000.841036) can0 5E1#893CC00B0A010C80
(1030000000.841038) can0 28B#0000000000000000
(1030000000.841039) can0 0D0#6A770460AF023E00
(1030000000.841040) can0 033#0006C0000F4177D0
(1030000000.842035) can0 FFF#0000000000000000
(1030000000.842036) can0 FFF#0000000000000000
(1030000000.842038) can0 0F4#9A0C010204B10240
(1030000000.842039) can0 6FC#0000076692B98800
(1030000000.843076) can0 125#9000411F403FC760
(1030000000.843078) can0 0A7#0010FAA4D12E00A0
(1030000000.843079) can0 239#00000075A00045C0
(1030000000.843080) can0 FFF#0000000000000000
(1030000000.844664) can0 FFF#0000000000000000
(1030000000.845680) can0 00E#2052960208097668
(1030000000.846733) can0 5B3#0400000000000400
(1030000000.846735) can0 0D7#0000020080000000
(1030000000.847855) can0 3C1#7B551FBB267F292E
(1030000000.848866) can0 193#00080803E7C80000
(1030000000.848867) can0 20E#4E2003A1233F6FFF
(1030000000.848868) can0 522#DF7FD0007CB0001C
(1030000000.849889) can0 366#819DC8020147CE38
(1030000000.849890) can0 580#00000004A307FE60
(1030000000.849891) can0 434#0422A0A81827F7F0
(1030000000.849892) can0 6E0#020001FF01F501F5
(1030000000.849893) can0 498#87FFBFFCAF80900B
(1030000000.850888) can0 2E1#0000000000000004
(1030000000.850889) can0 354#200BC00000021700
(1030000000.850890) can0 5E1#893CC00B0A010880
(1030000000.850891) can0 153#00000000000C000A
(1030000000.851914) can0 662#4EE0000040000000
(1030000000.851916) can0 19C#1C78200D420028E0
(1030000000.851917) can0 0D0#72770460AD023F00
(1030000000.851918) can0 033#0006B8000F8177D0
(1030000000.852911) can0 274#00F22EEE907C8E15
(1030000000.852912) can0 69E#0440047D1FC01582
(1030000000.852914) can0 125#9000411F403FA960
(1030000000.852915) can0 0C0#6000000000000000
(1030000000.853924) can0 162#00080433EA11F4CE
(1030000000.853926) can0 0A7#0010F9A4D12E00A0
(1030000000.853927) can0 497#0000000000000000
(1030000000.853928) can0 230#F9000002EC000C00
(1030000000.855669) can0 00E#205296020809765A
(1030000000.856703) can0 2E2#18080D4040000118
(1030000000.856705) can0 345#050202C23C774081
(1030000000.856706) can0 430#0041448C688010A0
(1030000000.856707) can0 130#0001600000000000
(1030000000.857739) can0 107#0000000000000000
(1030000000.857741) can0 FFF#0000000000000000
(1030000000.858763) can0 0BA#06B8510410000338
(1030000000.858764) can0 6E0#020101FF01F501F5
(1030000000.858765) can0 03C#000004002F000000
(1030000000.858766) can0 207#040460482ADED518
(1030000000.858767) can0 4C9#01F8D5820D02F64B
(1030000000.859765) can0 1D6#020F828030240580
(1030000000.860787) can0 354#200BC00000020F80
(1030000000.860789) can0 5E1#893CC00B0A010880
(1030000000.860790) can0 28B#0000000000000000
(1030000000.860791) can0 0A7#0010F924D12E00A0
(1030000000.861806) can0 295#0000000000001840
(1030000000.861807) can0 0D0#7A770460AC023F00
(1030000000.861808) can0 033#0006B0000FC177D0
(1030000000.861809) can0 2D2#0000400000000000
(1030000000.862799) can0 125#9000411F403F8B60
(1030000000.863821) can0 2B4#14EA4A0000005800
(1030000000.864824) can0 FFF#0000000000000000
(1030000000.865847) can0 00E#205296020809766E
(1030000000.867373) can0 32D#00000420AC010020
(1030000000.868384) can0 193#00080803E7C80000
(1030000000.868386) can0 20E#4E2003A123BF8FF7
(1030000000.869427) can0 4FD#114D0A4E670ECA88
(1030000000.869428) can0 522#DF7FD0007C38001C
(1030000000.869429) can0 366#815DC8020147CE38
(1030000000.869430) can0 580#00000004A387FE50
(1030000000.870418) can0 434#0442A0A828482820
(1030000000.870419) can0 6E0#0205020101F601F5
(1030000000.870420) can0 498#87FFBFFCAC80908C
(1030000000.870421) can0 2E1#0000000000000004
(1030000000.870422) can0 354#200BC00000020F80
(1030000000.871448) can0 5E1#893CA00B0A010880
(1030000000.871450) can0 4E7#0000001403740000
(1030000000.871451) can0 153#00000000000C000A
(1030000000.871452) can0 FFF#0000000000000000
(1030000000.872469) can0 662#4EE0000040000000
(1030000000.872470) can0 684#4CD680194160101E
(1030000000.872471) can0 636#249C0000F001D000
(1030000000.872472) can0 69E#0440047D1FC01582
(1030000000.873474) can0 125#9000411F403F6D60
(1030000000.873476) can0 2D7#100060D800000008
(1030000000.873477) can0 3C1#7B551FBBA57FA92E
(1030000000.873484) can0 19C#0094200D420028E0
(1030000000.874488) can0 0D0#02770460B9024100
(1030000000.874490) can0 033#000728000C0177D0
(1030000000.874491) can0 274#00F220FC907C8E15
(1030000000.874492) can0 0C0#6000000000000000
(1030000000.874493) can0 162#00080423EA11F4CE
(1030000000.875506) can0 0A7#0010FB24D12E00A0
(1030000000.875508) can0 66C#0000000018000000
(1030000000.875509) can0 3E4#00D4000085000000
(1030000000.875510) can0 65C#4008F2B6000F0000
(1030000000.876531) can0 577#000008000000014C
(1030000000.876532) can0 00E#2052960208097668
(1030000000.876533) can0 230#F8000002EC000E00
(1030000000.877551) can0 107#0000000000000000
(1030000000.877553) can0 FFF#0000000000000000
(1030000000.878554) can0 6E0#0205020101F601F5
(1030000000.880006) can0 354#200BC00000027880
(1030000000.881030) can0 5E1#893CA00B0A010480
(1030000000.881032) can0 28B#0000000000000000
(1030000000.881033) can0 0D0#0A770460B8024100
(1030000000.881033) can0 033#000720000C4177D0
(1030000000.882053) can0 0A7#0010F9A4D12E00A0
(1030000000.882054) can0 407#5001601022809220
(1030000000.883048) can0 125#9000411F403F4F60
(1030000000.884644) can0 FFF#0000000000000000
(1030000000.885676) can0 00E#2052960208097654
(1030000000.887942) can0 193#00080803E7C80000
(1030000000.888945) can0 20E#4E2003A1243F8FF7
(1030000000.888946) can0 522#DF7FD0007BC0001C
(1030000000.888947) can0 366#815DC8020147CE38
(1030000000.889948) can0 580#000000049C07FE50
(1030000000.889950) can0 434#046800A858684840
(1030000000.889952) can0 6E0#0205020101F801F7
(1030000000.889953) can0 498#87FFBFFCAA8090CD
(1030000000.890959) can0 2E1#0000000000000004
(1030000000.890961) can0 354#200BC00000026980
(1030000000.890962) can0 5E1#893C800B0A010480
(1030000000.890963) can0 153#00000000000C000A
(1030000000.891988) can0 295#0000000000001840
(1030000000.891990) can0 662#4EE0000040000000
(1030000000.891991) can0 19C#0490200D420028E0
(1030000000.891992) can0 0D0#12770460B6024200
(1030000000.892985) can0 033#000718000C8177D0
(1030000000.892986) can0 69E#0440047D1FC01582
(1030000000.892987) can0 125#9000411F403F3160
(1030000000.892988) can0 274#00F222FA907C8E15
(1030000000.892989) can0 0C0#6000000000000000
(1030000000.894007) can0 162#00080423EA11F4CE
(1030000000.894009) can0 0A7#0010F924D12E00A0
(1030000000.894010) can0 230#F7000002EC001000
(1030000000.895721) can0 00E#2052960208097662
(1030000000.897327) can0 107#0000000000000000
(1030000000.898321) can0 FFF#0000000000000000
(1030000000.898322) can0 0BA#06A84F4410000338
(1030000000.898323) can0 3C1#7B551FBB2500692E
(1030000000.898324) can0 6E0#0205020201F801F7
(1030000000.899931) can0 354#200BC00000026980
(1030000000.900911) can0 5E1#893C800B0A010480
(1030000000.900912) can0 28B#0000000000000000
(1030000000.900913) can0 0A7#0010FB24D12E00A0
(1030000000.900914) can0 0D0#1A770460B5024200
(1030000000.901944) can0 033#000710000CC177D0
(1030000000.901945) can0 03D#0000098000000000
(1030000000.902925) can0 125#9000411F403F1360
(1030000000.904590) can0 FFF#0000000000000000
(1030000000.905737) can0 00E#2052960208097668
(1030000000.907879) can0 193#00080803E7C80000
(1030000000.908923) can0 20E#4E2003A1253F4FF7
(1030000000.908925) can0 522#DF7FD0007B48001C
(1030000000.908926) can0 366#815DC8020147CE38
(1030000000.909943) can0 580#000000049C87FE40
(1030000000.909944) can0 434#000000A868886860
(1030000000.909945) can0 6E0#0203020101FA01F8
(1030000000.909951) can0 498#87FFBFFCA780914E
(1030000000.910936) can0 2E1#0000000000000004
