(1000000000.000000) can0 20E#4E2003A0C63F8FFF
(1000000000.000002) can0 522#DF7FD0007F08001C
(1000000000.000003) can0 366#80DDC8020147CE38
(1000000000.001000) can0 580#00000003F0880000
(1000000000.001001) can0 0D0#427504646C018700
(1000000000.001002) can0 033#0007A0000E0007D0
(1000000000.001003) can0 434#0105A0AA1EB028C0
(1000000000.001004) can0 6E0#015E015D01560156
(1000000000.002018) can0 498#87FFBFFC69806288
(1000000000.002019) can0 230#FE000002E4000200
(1000000000.004125) can0 2E1#0000000000000004
(1000000000.005142) can0 354#2007C0000002A600
(1000000000.005143) can0 5E1#893FE00B0A00DC80
(1000000000.005144) can0 00E#2052560208097602
(1000000000.005145) can0 162#00080383EA11F4CE
(1000000000.006164) can0 0A7#0010F9A4C12D20A0
(1000000000.006165) can0 2A3#0000008412803C10
(1000000000.006166) can0 69E#04400482200015A2
(1000000000.007163) can0 125#9000415F437E2560
(1000000000.008662) can0 6E0#015D015D01560159
(1000000000.010167) can0 153#00000000000C0002
(1000000000.011223) can0 295#0000000000001840
(1000000000.011235) can0 662#4EA0000040000000
(1000000000.011236) can0 107#0000000000000000
(1000000000.011237) can0 FFF#0000000000000000
(1000000000.012219) can0 19C#1286200CC20028A0
(1000000000.012220) can0 0D0#4A75046469018900
(1000000000.012221) can0 033#000798000E4007D0
(1000000000.012222) can0 274#00F229F3507C8E43
(1000000000.013241) can0 0C0#6000000000000000
(1000000000.013242) can0 0BA#06C8090410000488
(1000000000.013243) can0 273#0000000800000000
(1000000000.013243) can0 1C4#017002002807BE02
(1000000000.014240) can0 2A4#36DC001C040898D0
(1000000000.014241) can0 FFF#0000000000000000
(1000000000.014242) can0 371#0106000000000880
(1000000000.014243) can0 67D#0018600208080226
(1000000000.015262) can0 354#2007C0000002A600
(1000000000.015263) can0 5E1#893FE00B0A00D880
(1000000000.015264) can0 00E#20525602080975F6
(1000000000.015265) can0 28B#0000000000000000
(1000000000.016261) can0 6FC#0000075FB2B8D800
(1000000000.016262) can0 0A7#0010FBA4C12D20A0
(1000000000.016263) can0 239#00000073C00043A0
(1000000000.016264) can0 125#9000415F437E0760
(1000000000.016265) can0 FFF#0000000000000000
(1000000000.017306) can0 51B#2842A9CA3A918941
(1000000000.017307) can0 FFF#0000000000000000
(1000000000.017308) can0 32D#00000420AC010020
(1000000000.017309) can0 0CC#434101B238AFA21E
(1000000000.018312) can0 2B4#14E9740000005800
(1000000000.018313) can0 FFF#0000000000000000
(1000000000.018328) can0 FFF#0000000000000000
(1000000000.018329) can0 FFF#0000000000000000
(1000000000.019327) can0 5B3#0400000000000400
(1000000000.019328) can0 3C1#7B551FBC1DC6A92E
(1000000000.019329) can0 03C#000004002F000000
(1000000000.019330) can0 193#00080803E8880000
(1000000000.020334) can0 20E#4E2007A0C6BF8FFF
(1000000000.020335) can0 207#040460482ADED518
(1000000000.020336) can0 522#DF7FD0007E90001C
(1000000000.020351) can0 366#80DDC8020147CE38
(1000000000.021351) can0 0D0#5275046468018900
(1000000000.021353) can0 033#000790000E8007D0
(1000000000.021368) can0 580#00000003E9080000
(1000000000.021369) can0 434#012620AA2ED038D0
(1000000000.021370) can0 6E0#015D015B01590159
(1000000000.022372) can0 0D7#0000020080000000
(1000000000.022387) can0 498#87FFBFFC65806349
(1000000000.022388) can0 4C9#01F8D5820D02F64B
(1000000000.022389) can0 1D6#020F828030240580
(1000000000.023326) can0 577#000008000000014E
(1000000000.023327) can0 533#ED7FCF7EFFF1EF7F
(1000000000.023328) can0 230#FD000002E4000400
(1000000000.024351) can0 2E1#0000000000000004
(1000000000.024352) can0 354#2008000000028F00
(1000000000.025350) can0 5E1#893FE00B0A00D480
(1000000000.025351) can0 00E#20525602080975F6
(1000000000.025352) can0 162#00080383EA11F4CE
(1000000000.025353) can0 0A7#0010FAA4C12D40A0
(1000000000.026370) can0 497#0000000000000000
(1000000000.026371) can0 FFF#0000000000000000
(1000000000.026372) can0 FFF#0000000000000000
(1000000000.026373) can0 0F4#9A0C010204B10240
(1000000000.027365) can0 69E#04400482200015A2
(1000000000.027366) can0 125#9000415F437DE960
(1000000000.028644) can0 6E0#015D015B0159015B
(1000000000.030185) can0 153#00000000000C0002
(1000000000.031220) can0 662#4EA0000040000000
(1000000000.031221) can0 19C#1682200CC20028A0
(1000000000.031222) can0 0D0#5A75046464018C00
(1000000000.031223) can0 107#0000000000000000
(1000000000.032225) can0 FFF#0000000000000000
(1000000000.032244) can0 033#000788000EC007D0
(1000000000.032245) can0 274#00F22BF1507C8E43
(1000000000.032246) can0 0C0#6000000000000000
(1000000000.033259) can0 26E#0106408288EA0A04
(1000000000.034265) can0 2AB#A4D0C9D7E2D7CAFF
(1000000000.034266) can0 354#200800000002F800
(1000000000.035288) can0 5E1#893FE00B0A00D480
(1000000000.035290) can0 28B#0000000000000000
(1000000000.035291) can0 00E#20525602080975FC
(1000000000.035293) can0 0A7#0010F824C12D40A0
(1000000000.036263) can0 2D2#0000500000000000
(1000000000.036264) can0 55C#101B000041823000
(1000000000.036265) can0 6D7#4101CF008007223C
(1000000000.036266) can0 12C#7906E0000001FDD0
(1000000000.036267) can0 125#9000415F437DCB60
(1000000000.038077) can0 FFF#0000000000000000
(1000000000.039076) can0 4FD#113B0A4D4F0BCA88
(1000000000.039078) can0 193#00080803E8880000
(1000000000.040119) can0 20E#4E2003A0C7BFAFFF
(1000000000.040121) can0 522#DF7FD0007E18001C
(1000000000.040122) can0 366#80DDC8020147CE38
(1000000000.041121) can0 580#00000003E1880000
(1000000000.041122) can0 295#0000000000001840
(1000000000.041123) can0 0D0#6275046463018C00
(1000000000.041124) can0 033#000780000F0007D0
(1000000000.041125) can0 434#014680AA4EE058F0
(1000000000.042119) can0 6E0#015D015C015B015B
(1000000000.042120) can0 498#87FFBFFC6180640A
(1000000000.042121) can0 230#FC000002E4000600
(1000000000.043350) can0 3C1#7B551FBBDD47692E
(1000000000.044411) can0 FFF#0000000000000000
(1000000000.044413) can0 2E1#0000000000000004
(1000000000.044414) can0 354#200800000002F800
(1000000000.045433) can0 5E1#893FE00B0A00D880
(1000000000.045434) can0 00E#2052560208097602
(1000000000.045435) can0 162#00080383EA11F4CE
(1000000000.045436) can0 0A7#0010F8A4C12D40A0
(1000000000.046453) can0 69E#044004821FC01582
(1000000000.046454) can0 125#9000415F437DAD60
(1000000000.048683) can0 6E0#015F015C015B015D
(1000000000.050198) can0 153#00000000000C0002
(1000000000.051235) can0 662#4EA0000040000000
(1000000000.051236) can0 19C#1A80200C820028A0
(1000000000.051237) can0 0D0#6A7504645F018F00
(1000000000.051238) can0 107#0000000000000000
(1000000000.052257) can0 FFF#0000000000000000
(1000000000.052258) can0 033#000778000F4007D0
(1000000000.052259) can0 274#00F22DEF507C8E43
(1000000000.052260) can0 0C0#6000000000000000
(1000000000.053241) can0 0BA#06C8090410000488
(1000000000.054275) can0 354#200800000002F080
(1000000000.055263) can0 5E1#893FE00B0A00D880
(1000000000.055264) can0 28B#0000000000000000
(1000000000.055265) can0 00E#20525602080975FC
(1000000000.055266) can0 0A7#0010FBA4C12D30A0
(1000000000.056297) can0 407#50015FF01540BD60
(1000000000.056298) can0 125#9000415F437D8F60
(1000000000.058117) can0 FFF#0000000000000000
(1000000000.059150) can0 193#00080803E8880000
(1000000000.060193) can0 20E#4E2007A0C83FAFFF
(1000000000.060194) can0 522#DF7FD0007DA0001C
(1000000000.060195) can0 366#80DDC8020147CE38
(1000000000.060196) can0 580#00000003DA080000
(1000000000.061217) can0 0D0#727504645E018F00
(1000000000.061219) can0 033#000770000F8007D0
(1000000000.061220) can0 434#016860AA5F005900
(1000000000.061221) can0 6E0#015F015C015E015D
(1000000000.062200) can0 1E5#01460405A841A3E0
(1000000000.062215) can0 498#87FFBFFC5E80648B
(1000000000.062216) can0 32D#00000420AC010020
(1000000000.063232) can0 230#FB000002E4000800
(1000000000.064233) can0 2C1#01F3EFC7C99FB63E
(1000000000.064234) can0 2E1#0000000000000004
(1000000000.065255) can0 354#200800000002E180
(1000000000.065256) can0 5E1#893FE00B0A00D480
(1000000000.065257) can0 00E#20525602080975F0
(1000000000.065258) can0 162#00080383EA11F4CE
(1000000000.066255) can0 0A7#0010FBA4C12D50A0
(1000000000.066256) can0 69E#044004811FC01582
(1000000000.067256) can0 125#9000415F437D7160
(1000000000.068443) can0 3C1#7B551FBC9C07E92E
(1000000000.069465) can0 6E0#015B015B015E0160
(1000000000.070483) can0 4E7#0000001503670000
(1000000000.070484) can0 153#00000000000C0002
(1000000000.071505) can0 FFF#0000000000000000
(1000000000.071506) can0 295#0000000000001840
(1000000000.071507) can0 107#0000000000000000
(1000000000.071508) can0 FFF#0000000000000000
(1000000000.072505) can0 662#4EA0000040000000
(1000000000.072507) can0 684#54D677D94154901E
(1000000000.072508) can0 636#249C7980EF840000
(1000000000.072509) can0 2D7#100060D800000008
(1000000000.073526) can0 19C#1E7C200C820028A0
(1000000000.073527) can0 0D0#7A7504645B019100
(1000000000.073528) can0 033#000768000FC007D0
(1000000000.073529) can0 274#00F22FED507C8E41
(1000000000.074540) can0 0C0#6000000000000000
(1000000000.074541) can0 0F1#3E101CC00359CC00
(1000000000.074542) can0 3E4#00CC000085000000
(1000000000.074543) can0 354#200800000002E180
(1000000000.075549) can0 5E1#893FE00B0A00D080
(1000000000.075550) can0 28B#0000000000000000
(1000000000.075551) can0 00E#20525602080975F6
(1000000000.075552) can0 2E2#18080D4040000118
(1000000000.075552) can0 345#050202C23C774081
(1000000000.076568) can0 430#0032448BEA8011A0
(1000000000.076569) can0 125#9000415F437D5360
(1000000000.076570) can0 0A7#0010F924C12D50A0
(1000000000.076571) can0 130#0001500000000000
(1000000000.077569) can0 03D#0000048000000000
(1000000000.077570) can0 65C#4008E27530000000
(1000000000.077571) can0 577#000008000000014E
(1000000000.078587) can0 FFF#0000000000000000
(1000000000.079608) can0 193#00080803E8880000
(1000000000.079609) can0 20E#4E2007A0C93FAFFF
(1000000000.080607) can0 522#DF7FD0007D28001C
(1000000000.080608) can0 366#80DDC8020147CE38
(1000000000.080609) can0 580#00000003D2880000
(1000000000.080610) can0 0D0#027504646A019100
(1000000000.081629) can0 033#0007E0000C0007D0
(1000000000.081630) can0 434#0186C0AA7F106910
(1000000000.081631) can0 6E0#015B015B01610160
(1000000000.081632) can0 498#87FFBFFC5980658C
(1000000000.082658) can0 464#000240000090125C
(1000000000.082659) can0 230#FA000002E4000A00
(1000000000.082660) can0 66C#0000000020000000
(1000000000.084116) can0 2E1#0000000000000004
(1000000000.085134) can0 354#200800000002DA00
(1000000000.085135) can0 5E1#893FE00B0A00D480
(1000000000.085136) can0 00E#20525602080975EA
(1000000000.085137) can0 162#00080373EA11F4CE
(1000000000.086133) can0 0A7#0010F824C12D50A0
(1000000000.086134) can0 69E#0440048120001582
(1000000000.087153) can0 125#9000415F437D3560
(1000000000.088715) can0 6E0#015B015A01610162
(1000000000.089719) can0 4FD#11340A4C470A4A88
(1000000000.090700) can0 153#00000000000C0002
(1000000000.090701) can0 662#4EA0000040000000
(1000000000.090702) can0 19C#0298200C820028A0
(1000000000.091716) can0 107#0000000000000000
(1000000000.091717) can0 FFF#0000000000000000
(1000000000.091718) can0 0D0#0A75046465019500
(1000000000.091719) can0 033#0007D8000C4007D0
(1000000000.092748) can0 274#00F221FB507C8E41
(1000000000.092750) can0 0C0#6000000000000000
(1000000000.092751) can0 0BA#06C8094410000488
(1000000000.092756) can0 041#8022002001000000
(1000000000.093801) can0 3C1#7B551FBB9C48A92E
(1000000000.094812) can0 354#200800000002DA00
(1000000000.094813) can0 5E1#893FE00B0A00D880
(1000000000.094814) can0 28B#0000000000000000
(1000000000.095813) can0 00E#2052560208097602
(1000000000.095814) can0 585#0040000000020018
(1000000000.095815) can0 0A7#0010FAA4C12D50A0
(1000000000.095816) can0 1CA#3FF1FF8000000C28
(1000000000.096783) can0 125#9000415F437D1760
(1000000000.097902) can0 FFF#0000000000000000
(1000000000.098923) can0 193#00080803E8880000
(1000000000.099960) can0 20E#4E2003A0C9BFAFFF
(1000000000.099961) can0 522#DF7FD0007CB0001C
(1000000000.099962) can0 366#80DDC8020147CE38
(1000000000.099963) can0 580#00000003CB080000
(1000000000.100978) can0 295#0000000000001840
(1000000000.100979) can0 0D0#1275046464019500
(1000000000.100980) can0 033#0007D0000C8007D0
(1000000000.100981) can0 434#01A600AA8F208930
(1000000000.101950) can0 6E0#015B015A01630162
(1000000000.101951) can0 498#87FFBFFC5580664D
(1000000000.101952) can0 230#F9000002E4000C00
(1000000000.104072) can0 2E1#0000000000000004
(1000000000.105090) can0 354#200840000002C300
(1000000000.105091) can0 5E1#893FE00B0A00D880
(1000000000.105092) can0 00E#20525602080975F6
(1000000000.105093) can0 162#00080373EA11F4CE
(1000000000.106087) can0 0A7#0010FBA4C12D60A0
(1000000000.106088) can0 2A3#0000008412803C10
(1000000000.106089) can0 69E#044004811FC01582
(1000000000.107118) can0 125#9000415F437CF960
(1000000000.108652) can0 6E0#015B015A01630163
(1000000000.110155) can0 153#00000000000C0002
(1000000000.111152) can0 662#4EA0000040000000
(1000000000.111153) can0 19C#0694200C820028A0
(1000000000.111154) can0 0D0#1A75046460019800
(1000000000.111155) can0 107#0000000000000000
(1000000000.112173) can0 FFF#0000000000000000
(1000000000.112174) can0 033#0007C8000CC007D0
(1000000000.112175) can0 274#00F223F9507C8E41
(1000000000.112176) can0 0C0#6000000000000000
(1000000000.113171) can0 297#1100002000025110
(1000000000.113172) can0 5AF#20C0000000200000
(1000000000.113173) can0 32D#00000420AC010020
(1000000000.114189) can0 354#200840000002B400
(1000000000.115213) can0 5E1#893FE00B0A00D080
(1000000000.115214) can0 28B#0000000000000000
(1000000000.115215) can0 00E#20525602080975F6
(1000000000.115216) can0 6FC#0000075FB2B8E000
(1000000000.116220) can0 0A7#0010FA24C12D60A0
(1000000000.116222) can0 239#00000072E00043A0
(1000000000.116223) can0 FFF#0000000000000000
(1000000000.116224) can0 125#9000415F437CDB60
(1000000000.117231) can0 2B4#14E9740000005800
(1000000000.118230) can0 5B3#0400000000000400
(1000000000.118231) can0 FFF#0000000000000000
(1000000000.119305) can0 3C1#7B551FBADC89292E
(1000000000.119306) can0 03C#000004002D000000
(1000000000.119307) can0 207#040460482ADED518
(1000000000.119308) can0 193#00080803E8880000
(1000000000.120318) can0 20E#4E2003A0C9BF8FFF
(1000000000.120319) can0 4C9#01F8D5820D03F64B
(1000000000.120320) can0 522#DF7FD0007C38001C
(1000000000.120321) can0 366#80DDC8020147CE38
(1000000000.121299) can0 0D0#227504645F019800
(1000000000.121301) can0 033#0007C0000D0007D0
(1000000000.121302) can0 580#00000003C3880000
(1000000000.121302) can0 434#01C640AA9F409940
(1000000000.122336) can0 6E0#015C015A01640163
(1000000000.122337) can0 0D7#0000020080000000
(1000000000.122337) can0 498#87FFBFFC528066CE
(1000000000.122338) can0 1D6#028BC08034740590
(1000000000.123339) can0 577#000008000000014E
(1000000000.123340) can0 230#F8000002E4000E00
(1000000000.124395) can0 2E1#0000000000000004
(1000000000.124396) can0 354#200840000002B400
(1000000000.125377) can0 5E1#893FE00B0A00D480
(1000000000.125379) can0 00E#20525602080975F0
(1000000000.125380) can0 162#00080373EA11F4CE
(1000000000.125381) can0 0A7#0010F7A4C12D70A0
(1000000000.126381) can0 497#0000000000000000
(1000000000.126382) can0 FFF#0000000000000000
(1000000000.126383) can0 FFF#0000000000000000
(1000000000.127378) can0 0F4#9A0C010204B10240
(1000000000.127379) can0 69E#044004811FC01582
(1000000000.127380) can0 125#9000415F437CBD60
(1000000000.128663) can0 6E0#015C015A01640165
(1000000000.130153) can0 153#00000000000C0002
(1000000000.131215) can0 295#0000000000001840
(1000000000.131216) can0 662#4EA0000040000000
(1000000000.131217) can0 19C#0A94200C020028A0
(1000000000.131218) can0 107#0000000000000000
(1000000000.132186) can0 FFF#0000000000000000
(1000000000.132187) can0 0D0#2A7504645C019A00
(1000000000.132188) can0 033#0007B8000D4007D0
(1000000000.132189) can0 274#00F225F7507C8E41
(1000000000.133201) can0 0C0#6000000000000000
(1000000000.133202) can0 0BA#06C8094410000488
(1000000000.133203) can0 26E#0106408288EA0A04
(1000000000.134222) can0 354#200840000002AC80
(1000000000.135228) can0 5E1#893FE00B0A00D880
(1000000000.135229) can0 28B#0000000000000000
(1000000000.135230) can0 00E#2052560208097602
(1000000000.135231) can0 0A7#0010F9A4C12D60A0
(1000000000.136243) can0 2D2#0000080000000000
(1000000000.136244) can0 125#9000415F437C9F60
(1000000000.137908) can0 FFF#0000000000000000
(1000000000.138910) can0 4CB#8000000000000000
(1000000000.138911) can0 280#18E0027000000000
(1000000000.138912) can0 4FD#11330A4C450A4A88
(1000000000.138913) can0 193#00080803E8880000
(1000000000.139912) can0 20E#4E2003A0CA3F8FFF
(1000000000.139913) can0 522#DF7FD0007BC0001C
(1000000000.139914) can0 366#80DDC8020147CE38
(1000000000.140933) can0 580#00000003BC080000
(1000000000.140934) can0 0D0#327504645B019A00
(1000000000.140935) can0 033#0007B0000D8007D0
(1000000000.140936) can0 434#01E5A0AABF50B960
(1000000000.140937) can0 6E0#015A015A01670165
(1000000000.141950) can0 498#87FFBFFC4F80674F
(1000000000.141951) can0 230#F7000002EC001000
(1000000000.143287) can0 3C1#7B551FBADBC9E92E
(1000000000.144325) can0 2E1#0000000000000004
(1000000000.144326) can0 354#2008400000029D80
(1000000000.145347) can0 5E1#893FE00B0A00D880
(1000000000.145348) can0 00E#2052560208097602
(1000000000.145349) can0 162#00080373EA11F4CE
(1000000000.145350) can0 0A7#0010FC24C12D60A0
(1000000000.146344) can0 FFF#0000000000000000
(1000000000.146345) can0 69E#044004811FC01582
(1000000000.146346) can0 125#9000415F437E6160
(1000000000.148678) can0 6E0#015A015A01670167
(1000000000.150162) can0 153#00000000000C0002
(1000000000.151160) can0 662#4EA0000040000000
(1000000000.151161) can0 19C#0E90200C020028A0
(1000000000.151162) can0 107#0000000000000000
(1000000000.151163) can0 FFF#0000000000000000
(1000000000.152187) can0 0D0#3A75046458019C00
(1000000000.152188) can0 033#0007A8000DC007D0
(1000000000.152189) can0 274#00F227F5507C8E3D
(1000000000.152190) can0 0C0#6000000000000000
(1000000000.154078) can0 354#2008400000029D80
(1000000000.155096) can0 5E1#893FE00B0A00D480
(1000000000.155097) can0 28B#0000000000000000
(1000000000.155098) can0 0A7#0010FAA4C12D70A0
(1000000000.155099) can0 00E#2052560208097608
(1000000000.156125) can0 407#50015FF01500BD60
(1000000000.156126) can0 075#0F32000FAE1EE000
(1000000000.156127) can0 125#9000415F437E4360
(1000000000.158021) can0 FFF#0000000000000000
(1000000000.159040) can0 193#00080803E8880000
(1000000000.160060) can0 20E#4E2003A0CABF8FF7
(1000000000.160061) can0 522#DF7FD0007B48001C
(1000000000.160062) can0 366#80DDC8020147CE38
(1000000000.161062) can0 580#00000003B4880000
(1000000000.161063) can0 295#0000000000001840
(1000000000.161064) can0 0D0#4275046457019C00
(1000000000.161065) can0 033#0007A0000E0007D0
(1000000000.161066) can0 434#020820AACF70C970
(1000000000.162082) can0 6E0#015D015A01680167
(1000000000.162083) can0 498#87FFBFFC5C8067C0
(1000000000.162084) can0 32D#00000420AC010020
(1000000000.163101) can0 230#F6000002EC001200
(1000000000.164102) can0 2E1#0000000000000004
(1000000000.165123) can0 354#2008400000029600
(1000000000.165124) can0 5E1#893FE00B0A00D080
(1000000000.165125) can0 00E#205256020809760E
(1000000000.165126) can0 162#00080373EA11F4CE
(1000000000.166123) can0 0A7#0010F824C12D80A0
(1000000000.166124) can0 03A#00000000001D0800
(1000000000.166125) can0 69E#044004801FC01562
(1000000000.167143) can0 125#9000415F437E2560
(1000000000.168374) can0 3C1#7B551FBB5ACA692E
(1000000000.169373) can0 2C1#01F34FC7C81FB252
(1000000000.169374) can0 6E0#015D015901680169
(1000000000.170392) can0 4E7#0000001503670000
(1000000000.170393) can0 153#00000000000C0002
(1000000000.171415) can0 FFF#0000000000000000
(1000000000.171416) can0 107#0000000000000000
(1000000000.171417) can0 FFF#0000000000000000
(1000000000.171418) can0 662#4EA0000040000000
(1000000000.172414) can0 684#54D677D94154901E
(1000000000.172415) can0 636#249C7980EF840000
(1000000000.172416) can0 2D7#100060D800000008
(1000000000.172417) can0 19C#128C200C020028A0
(1000000000.173435) can0 0D0#4A75046454019E00
(1000000000.173436) can0 033#000798000E4007D0
(1000000000.173437) can0 274#00F229F3507C8E3D
(1000000000.173438) can0 0C0#6000000000000000
(1000000000.174455) can0 0BA#06C8098410000488
(1000000000.174456) can0 3E4#00CC000085000000
(1000000000.174457) can0 65C#4008E27530000000
(1000000000.174458) can0 354#2008400000029600
(1000000000.175477) can0 5E1#893FE00B0A00D880
(1000000000.175478) can0 28B#0000000000000000
(1000000000.175479) can0 00E#2052560208097602
(1000000000.175480) can0 2E2#18080D4040000118
(1000000000.175481) can0 345#050202C23C774081
(1000000000.176496) can0 430#0032448BEA8011A0
(1000000000.176497) can0 125#9000415F437E0760
(1000000000.176498) can0 0A7#0010F8A4C12D70A0
(1000000000.176499) can0 130#0001500000000000
(1000000000.177518) can0 03D#0000048000000000
(1000000000.177519) can0 577#000008000000014E
(1000000000.177520) can0 4EE#A0000D08F04C4008
(1000000000.178516) can0 FFF#0000000000000000
(1000000000.179538) can0 193#00080803E8880000
(1000000000.179539) can0 20E#4E2003A0CB3F6FF7
(1000000000.180559) can0 522#DF7FD0007AD0001C
(1000000000.180560) can0 366#80DDC8020147CE38
(1000000000.180561) can0 580#00000003AD080000
(1000000000.180562) can0 0D0#5275046453019E00
(1000000000.180563) can0 033#000790000E8007D0
(1000000000.181559) can0 434#022820AAEF80D990
(1000000000.181560) can0 6E0#015D015901690169
(1000000000.181561) can0 498#87FFBFFC5A806801
(1000000000.181562) can0 464#000240000090115D
(1000000000.182579) can0 230#F5000002EC001400
(1000000000.182581) can0 66C#0000000018000000
(1000000000.184083) can0 2E1#0000000000000004
(1000000000.185101) can0 354#2008400000028700
(1000000000.185102) can0 5E1#893FE00B0A00D880
(1000000000.185103) can0 00E#2052560208097602
(1000000000.185104) can0 162#00080363EA11F4CE
(1000000000.186099) can0 0A7#0010FBA4C12D70A0
(1000000000.186100) can0 55C#101B000041823000
(1000000000.186101) can0 69D#808DCFB04FC1FCB1
(1000000000.186102) can0 69E#044004801FC01582
(1000000000.187119) can0 125#9000415F437DE960
(1000000000.188660) can0 4FD#11390A4C4D0B4A88
(1000000000.189680) can0 6E0#015D015A0169016A
(1000000000.190682) can0 153#00000000000C0002
(1000000000.190683) can0 295#0000000000001840
(1000000000.190684) can0 662#4EA0000040000000
(1000000000.191688) can0 19C#1688200C020028A0
(1000000000.191689) can0 107#0000000000000000
(1000000000.191690) can0 FFF#0000000000000000
(1000000000.191691) can0 0D0#5A75046451019F00
(1000000000.192703) can0 033#000788000EC007D0
(1000000000.192704) can0 274#00F22BF1507C8E3D
(1000000000.192705) can0 0C0#6000000000000000
(1000000000.192706) can0 419#0A9B464D045FC2CF
(1000000000.193723) can0 3C1#7B551FBBD98B292E
(1000000000.194723) can0 354#200840000002F000
(1000000000.194724) can0 5E1#893FE00B0A00D480
(1000000000.194725) can0 28B#0000000000000000
(1000000000.195743) can0 00E#20525602080975F6
(1000000000.195744) can0 585#0040000000020018
(1000000000.195745) can0 0A7#0010FBA4C12D80A0
(1000000000.195746) can0 1CA#3FF1FF8000000C28
(1000000000.196763) can0 5E8#000002040039B000
(1000000000.196764) can0 125#9000415F437DCB60
(1000000000.196765) can0 FFF#0000000000000000
(1000000000.198162) can0 FFF#0000000000000000
(1000000000.199173) can0 193#00080803E8880000
(1000000000.199174) can0 20E#4E2003A0CBBF4FFF
(1000000000.200201) can0 522#DF7FD0007A58001C
(1000000000.200202) can0 366#80DDC8020147CE38
(1000000000.200203) can0 580#00000003A5880000
(1000000000.200204) can0 434#024000AAFFA0F9A0
(1000000000.201201) can0 0D0#6275046450019F00
(1000000000.201202) can0 033#000780000F0007D0
(1000000000.201203) can0 6E0#015B015A016A016A
(1000000000.201204) can0 498#87FFBFFC58806842
(1000000000.202221) can0 230#F4000002EC001600
(1000000000.204076) can0 2E1#0000000000000004
(1000000000.205095) can0 354#200840000002F000
(1000000000.205096) can0 5E1#893FE00B0A00D080
(1000000000.205097) can0 00E#20525602080975F0
(1000000000.205098) can0 162#00080363EA11F4CE
(1000000000.206117) can0 0A7#0010F8A4C12D80A0
(1000000000.206118) can0 2A3#0000008412803C10
(1000000000.206119) can0 69E#044004801FC01582
(1000000000.207115) can0 125#9000415F437DAD60
(1000000000.208655) can0 6E0#015B015B016A016A
(1000000000.210160) can0 153#00000000000C0002
(1000000000.211178) can0 662#4EA0000040000000
(1000000000.211179) can0 19C#1A84200C020028A0
(1000000000.211180) can0 107#0000000000000000
(1000000000.211181) can0 FFF#0000000000000000
(1000000000.212200) can0 0D0#6A7504644E01A000
(1000000000.212201) can0 033#000778000F4007D0
(1000000000.212202) can0 274#00F22DEF507C8E3D
(1000000000.212203) can0 0C0#6000000000000000
(1000000000.213198) can0 0BA#06C8098410000488
(1000000000.213199) can0 51B#28B181B189C7F8C1
(1000000000.213200) can0 32D#00000420AC010020
(1000000000.214220) can0 354#200840000002E880
(1000000000.215241) can0 5E1#893FE00B0A00D880
(1000000000.215242) can0 28B#0000000000000000
(1000000000.215243) can0 00E#20525602080975F6
(1000000000.215244) can0 6FC#0000075FB2B8E800
(1000000000.216241) can0 0A7#0010F8A4C12D80A0
(1000000000.216242) can0 239#00000071C0004380
(1000000000.216243) can0 FFF#0000000000000000
(1000000000.216244) can0 125#9000415F437D8F60
(1000000000.217261) can0 2B4#14E9740000005800
(1000000000.218261) can0 5B3#0400000000000400
(1000000000.218262) can0 FFF#0000000000000000
(1000000000.219291) can0 3C1#7B551FBBD90BA92E
(1000000000.219292) can0 03C#000004002C000000
(1000000000.219293) can0 207#040460482ADED518
(1000000000.219294) can0 193#00080803E8880000
(1000000000.220281) can0 20E#4E2003A0CBBF6FFF
(1000000000.220282) can0 4C9#01F915820D02F64B
(1000000000.220283) can0 522#DF7FD00079E0001C
(1000000000.220284) can0 366#80DDC8020147CE38
(1000000000.221302) can0 295#0000000000001840
(1000000000.221303) can0 0D0#727504644D01A000
(1000000000.221304) can0 033#000770000F8007D0
(1000000000.221305) can0 580#000000039E080000
(1000000000.222324) can0 434#026000AB1FB109B0
(1000000000.222325) can0 6E0#015D015B016A016A
(1000000000.222326) can0 0D7#0000020080000000
(1000000000.222327) can0 498#87FFBFFC56806883
(1000000000.222328) can0 1D6#020F828030240580
(1000000000.223296) can0 577#000008000000014E
(1000000000.223297) can0 230#F3000002EC001800
(1000000000.224322) can0 2E1#0000000000000004
(1000000000.224323) can0 354#200840000002D980
(1000000000.225344) can0 5E1#893FE00B0A00D880
(1000000000.225345) can0 00E#20525602080975FC
(1000000000.225346) can0 162#00080363EA11F4CE
(1000000000.225347) can0 0A7#0010FB24C12D70A0
(1000000000.226363) can0 497#0000000000000000
(1000000000.226364) can0 69E#044004801FC01582
(1000000000.226365) can0 FFF#0000000000000000
(1000000000.227366) can0 FFF#0000000000000000
(1000000000.227367) can0 0F4#9A0C010204B10240
(1000000000.227368) can0 125#9000415F437D7160
(1000000000.228657) can0 6E0#015D015B016A016B
(1000000000.230157) can0 153#00000000000C0002
(1000000000.231154) can0 662#4EA0000040000000
(1000000000.231155) can0 19C#1E80200C020028A0
(1000000000.231156) can0 0D0#7A7504644B01A100
(1000000000.231157) can0 033#000768000FC007D0
(1000000000.232175) can0 274#00F22FED507C8E3D
(1000000000.232176) can0 107#0000000000000000
(1000000000.232177) can0 FFF#0000000000000000
(1000000000.232178) can0 0C0#6000000000000000
(1000000000.233195) can0 26E#0106408288EA0A04
(1000000000.234195) can0 354#200840000002D980
(1000000000.235216) can0 5E1#893FE00B0A00D880
(1000000000.235217) can0 28B#0000000000000000
(1000000000.235218) can0 0A7#0010FBA4C12D80A0
(1000000000.235219) can0 00E#20525602080975F0
(1000000000.236215) can0 2D2#0000100000000000
(1000000000.236216) can0 125#9000415F437D5360
(1000000000.237860) can0 FFF#0000000000000000
(1000000000.238880) can0 4FD#11370A4D490ACA88
(1000000000.239883) can0 193#00080803E8880000
(1000000000.239884) can0 20E#4E2003A0CC3FAFFF
(1000000000.239885) can0 522#DF7FD0007968001C
(1000000000.239886) can0 366#80DDC8020147CE38
(1000000000.240906) can0 580#0000000396880000
(1000000000.240907) can0 0D0#027504645A01A100
(1000000000.240908) can0 033#0007E0000C0007D0
(1000000000.240909) can0 434#028AA0AB2FC129D0
(1000000000.240910) can0 6E0#015E015B016B016B
(1000000000.241923) can0 2B7#0020284000008040
(1000000000.241924) can0 498#87FFBFFC548068C4
(1000000000.241925) can0 230#F2000002EC001A00
(1000000000.243286) can0 3C1#7B551FBB988C692E
(1000000000.244318) can0 2E1#0000000000000004
(1000000000.245319) can0 354#200880000002CA00
(1000000000.245320) can0 5E1#893FE00B0A00D480
(1000000000.245321) can0 00E#20525602080975F6
(1000000000.245322) can0 162#00080363EA11F4CE
(1000000000.245323) can0 0A7#0010F9A4C12D80A0
(1000000000.246339) can0 69E#044004801FC015A2
(1000000000.246340) can0 125#9000415F437D3560
(1000000000.248649) can0 6E0#015E015E016C016B
(1000000000.250133) can0 153#00000000000C0002
(1000000000.251128) can0 295#0000000000001840
(1000000000.251129) can0 662#4EA0000040000000
(1000000000.251130) can0 107#0000000000000000
(1000000000.251131) can0 FFF#0000000000000000
(1000000000.252173) can0 19C#029C200C020028A0
(1000000000.252174) can0 0D0#0A7504645801A200
(1000000000.252175) can0 033#0007D8000C4007D0
(1000000000.252176) can0 274#00F221FB507C8E3D
(1000000000.253171) can0 0C0#6000000000000000
(1000000000.253172) can0 0BA#06C8098410000488
(1000000000.254191) can0 354#200880000002CA00
(1000000000.255214) can0 5E1#893FE00B0A00D480
(1000000000.255215) can0 28B#0000000000000000
(1000000000.255216) can0 00E#20525602080975F6
(1000000000.255217) can0 0A7#0010F8A4C12D80A0
(1000000000.256213) can0 407#50015FF014C0BD60
(1000000000.256214) can0 125#9000415F437D1760
(1000000000.258130) can0 FFF#0000000000000000
(1000000000.259128) can0 193#00080803E8880000
(1000000000.259129) can0 20E#4E2003A0CCBF8FFF
(1000000000.260173) can0 522#DF7FD00078F0001C
(1000000000.260174) can0 366#80DDC8020147CE38
(1000000000.260175) can0 580#000000038F080000
(1000000000.260189) can0 434#02AAA0AB3FE139E0
(1000000000.261193) can0 0D0#127504645701A200
(1000000000.261194) can0 033#0007D0000C8007D0
(1000000000.261195) can0 6E0#015F015E016C016B
(1000000000.261196) can0 30A#202D3001D2E80A00
(1000000000.262213) can0 1C4#017002002841BA02
(1000000000.262215) can0 2A4#4E1E011C040898D0
(1000000000.262216) can0 498#87FFBFFC52806905
(1000000000.262217) can0 32D#00000420AC010020
(1000000000.263233) can0 230#F1000002EC001C00
(1000000000.264233) can0 2E1#0000000000000004
(1000000000.265255) can0 354#200840000002C300
(1000000000.265256) can0 5E1#893FE00B0A00D880
(1000000000.265271) can0 00E#2052560208097602
(1000000000.265272) can0 162#00080363EA11F4CE
(1000000000.266275) can0 0A7#0010FB24C12D70A0
(1000000000.266276) can0 69E#044004801FC015A2
(1000000000.267251) can0 125#9000415F437CF960
(1000000000.268358) can0 3C1#7B551FBB188CE92E
(1000000000.269378) can0 6E0#015F015F016C016B
(1000000000.270420) can0 4E7#0000001503670000
(1000000000.270421) can0 153#00000000000C0002
(1000000000.271420) can0 FFF#0000000000000000
(1000000000.271421) can0 107#0000000000000000
(1000000000.271422) can0 FFF#0000000000000000
(1000000000.271423) can0 662#4EA0000040000000
(1000000000.272441) can0 684#54D677D94154901E
(1000000000.272442) can0 636#249C7980EF841000
(1000000000.272443) can0 2D7#100060D800000008
(1000000000.272443) can0 19C#069A200BC20028A0
(1000000000.273462) can0 0D0#1A7504645501A300
(1000000000.273463) can0 033#0007C8000CC007D0
(1000000000.273464) can0 274#00F223F9507C8E3B
(1000000000.273465) can0 0C0#6000000000000000
(1000000000.274481) can0 2C1#01F32FC7C99F9868
(1000000000.274497) can0 3E4#00CC000085000000
(1000000000.274498) can0 65C#4008E27530000000
(1000000000.274499) can0 354#200840000002B400
(1000000000.275483) can0 5E1#893FE00B0A00D480
(1000000000.275485) can0 28B#0000000000000000
(1000000000.275486) can0 00E#20525602080975F6
(1000000000.275503) can0 2E2#18080D4040000118
(1000000000.275504) can0 345#050202C23C774081
(1000000000.276483) can0 430#0032448BEA8011A0
(1000000000.276498) can0 125#9000415F437CDB60
(1000000000.276499) can0 0A7#0010FBA4C12D80A0
(1000000000.276500) can0 130#0001500000000000
(1000000000.277515) can0 03D#0000048000000000
(1000000000.277516) can0 577#000008000000014E
(1000000000.278501) can0 FFF#0000000000000000
(1000000000.279538) can0 193#00080803E8880000
(1000000000.279539) can0 20E#4E2003A0CD3F6FFF
(1000000000.279540) can0 522#DF7FD0007878001C
(1000000000.280558) can0 366#80DDC8020147CE38
(1000000000.280559) can0 580#0000000387880000
(1000000000.280560) can0 295#0000000000001840
(1000000000.280561) can0 0D0#227504645401A300
(1000000000.281578) can0 033#0007C0000D0007D0
(1000000000.281579) can0 434#02CAA0AB5FF15A00
(1000000000.281580) can0 6E0#0161015F016C016B
(1000000000.281581) can0 498#87FFBFFC51806906
(1000000000.282579) can0 464#000240000090105E
(1000000000.282580) can0 230#F0000002EC001E00
(1000000000.282581) can0 66C#0000000018000000
(1000000000.284088) can0 2E1#0000000000000004
(1000000000.285106) can0 354#200840000002B400
(1000000000.285107) can0 5E1#893FE00B0A00D480
(1000000000.285123) can0 00E#20525602080975F6
(1000000000.285124) can0 162#00080353EA11F4CE
(1000000000.286105) can0 0A7#0010F9A4C12D80A0
(1000000000.286121) can0 69E#044004801FC01582
(1000000000.287126) can0 125#9000415F437CBD60
(1000000000.288662) can0 4FD#11310A4D4109CA88
(1000000000.289665) can0 6E0#0161015F016C016C
(1000000000.290687) can0 153#00000000000C0002
(1000000000.290688) can0 662#4EA0000040000000
(1000000000.290689) can0 19C#0A94200C020028A0
(1000000000.291662) can0 107#0000000000000000
(1000000000.291663) can0 FFF#0000000000000000
(1000000000.291664) can0 0D0#2A7504645301A300
(1000000000.291665) can0 033#0007B8000D4007D0
(1000000000.292708) can0 274#00F225F7507C8E3D
(1000000000.292709) can0 0C0#6000000000000000
(1000000000.292710) can0 0BA#06C8090410000488
(1000000000.293708) can0 3C1#7B551FBB578DA92E
(1000000000.294729) can0 354#200840000002AC80
(1000000000.294730) can0 5E1#893FE00B0A00D480
(1000000000.294731) can0 585#0040000000020018
(1000000000.295750) can0 00E#20525602080975FC
(1000000000.295752) can0 28B#0000000000000000
(1000000000.295753) can0 0A7#0010F824C12D80A0
(1000000000.295754) can0 1CA#3FF1FF8000000C28
(1000000000.296771) can0 125#9000415F437C9F60
(1000000000.298064) can0 FFF#0000000000000000
(1000000000.299082) can0 193#00080803E8880000
(1000000000.300124) can0 20E#4E2003A0CDBF6FFF
(1000000000.300125) can0 522#DF7FD0007F80001C
(1000000000.300126) can0 366#80DDC8020147CE38
(1000000000.300127) can0 580#00000003F8080000
(1000000000.301125) can0 0D0#327504645201A300
(1000000000.301126) can0 033#0007B0000D8007D0
(1000000000.301127) can0 434#02EAA0AB60116A10
(1000000000.301128) can0 6E0#0163015F016C016C
(1000000000.302145) can0 498#87FFBFFC4F806947
(1000000000.302147) can0 230#FF000002EC000000
(1000000000.304083) can0 2E1#0000000000000004
(1000000000.305067) can0 354#2008400000029D80
(1000000000.305068) can0 5E1#893FE00B0A00D880
(1000000000.305069) can0 00E#205256020809760E
(1000000000.305070) can0 162#00080353EA11F4CE
(1000000000.306103) can0 0A7#0010FAA4C12D70A0
(1000000000.306104) can0 2A3#0000008412803C10
(1000000000.306105) can0 69E#044004801FC01582
(1000000000.307123) can0 125#9000415F437E6160
(1000000000.308663) can0 6E0#01630163016B016C
(1000000000.310167) can0 153#00000000000C0002
(1000000000.311183) can0 295#0000000000001840
(1000000000.311184) can0 662#4EA0000040000000
(1000000000.311185) can0 107#0000000000000000
(1000000000.311186) can0 FFF#0000000000000000
(1000000000.312185) can0 19C#0E90200C020028A0
(1000000000.312186) can0 0D0#3A7504645001A400
(1000000000.312187) can0 033#0007A8000DC007D0
(1000000000.312188) can0 274#00F227F5507C8E3D
(1000000000.313205) can0 0C0#6000000000000000
(1000000000.313206) can0 32D#00000420AC010020
(1000000000.314226) can0 354#2008400000029D80
(1000000000.315226) can0 5E1#893FE00B0A00D880
(1000000000.315228) can0 28B#0000000000000000
(1000000000.315229) can0 00E#20525602080975F6
(1000000000.315230) can0 6FC#0000075FB2B8F000
(1000000000.316216) can0 0A7#0010FC24C12D70A0
(1000000000.316217) can0 239#00000070C00043A0
(1000000000.316218) can0 FFF#0000000000000000
(1000000000.316219) can0 125#9000415F437E4360
(1000000000.317267) can0 2B4#14E9740000005800
(1000000000.318266) can0 5B3#0400000000000400
(1000000000.318267) can0 FFF#0000000000000000
(1000000000.319289) can0 3C1#7B551FBAD78E292E
(1000000000.319291) can0 03C#000004002B000000
(1000000000.319292) can0 207#040460482ADED518
(1000000000.319293) can0 193#00080803E8880000
(1000000000.320306) can0 20E#4E2003A0CE3F6FF7
(1000000000.320307) can0 522#DF7FD0007F08001C
(1000000000.320308) can0 366#80DDC8020147CE38
(1000000000.320309) can0 580#00000003F0880000
(1000000000.320310) can0 0D0#427504644F01A400
(1000000000.321329) can0 033#0007A0000E0007D0
(1000000000.321331) can0 434#030A80AB80217A30
(1000000000.321332) can0 6E0#01650163016B016C
(1000000000.321333) can0 0D7#0000020080000000
(1000000000.322330) can0 498#87FFBFFC4F806908
(1000000000.322331) can0 4C9#01F8D5820D02F64B
(1000000000.322332) can0 1D6#020B808030240580
(1000000000.322333) can0 577#000008000000014C
(1000000000.323312) can0 230#FE000002EC000200
(1000000000.324370) can0 2E1#0000000000000004
(1000000000.324372) can0 354#2008800000028E00
(1000000000.325341) can0 5E1#893FE00B0A00D480
(1000000000.325342) can0 00E#20525602080975F0
(1000000000.325343) can0 162#00080353EA11F4CE
(1000000000.325343) can0 0A7#0010FAA4C12D80A0
(1000000000.326392) can0 497#0000000000000000
(1000000000.326393) can0 69E#0440047F1FC01582
(1000000000.326394) can0 125#9000415F437E2560
(1000000000.327367) can0 FFF#0000000000000000
(1000000000.327368) can0 FFF#0000000000000000
(1000000000.327369) can0 0F4#9A0C010204B10240
(1000000000.328643) can0 6E0#01650163016B016B
(1000000000.330160) can0 153#00000000000C0002
(1000000000.331182) can0 662#4EA0000040000000
(1000000000.331183) can0 19C#128C200C020028A0
(1000000000.331184) can0 0D0#4A7504644F01A300
(1000000000.331185) can0 107#0000000000000000
(1000000000.332182) can0 FFF#0000000000000000
(1000000000.332184) can0 033#000798000E4007D0
(1000000000.332185) can0 274#00F229F3507C8E3D
(1000000000.332185) can0 0C0#6000000000000000
(1000000000.333202) can0 0BA#06C809C410000488
(1000000000.334202) can0 26E#0106408288EA0A04
(1000000000.334204) can0 354#2008800000028E00
(1000000000.335224) can0 5E1#893FE00B0A00D480
(1000000000.335225) can0 28B#0000000000000000
(1000000000.335226) can0 00E#20525602080975F0
(1000000000.335227) can0 0A7#0010F824C12D80A0
(1000000000.336245) can0 2D2#0000180000000000
(1000000000.336246) can0 55C#101B000041823000
(1000000000.336250) can0 125#9000415F437E0760
(1000000000.337930) can0 FFF#0000000000000000
(1000000000.338931) can0 4CB#8000000000000000
(1000000000.338933) can0 280#18E0027000000000
(1000000000.338934) can0 4FD#11320A4D450A4A88
(1000000000.338935) can0 193#00080803E8880000
(1000000000.339973) can0 20E#4E2003A0CEBF6FF7
(1000000000.339975) can0 522#DF7FD0007E90001C
(1000000000.339976) can0 366#80DDC8020147CE38
(1000000000.339977) can0 580#00000003E9080000
(1000000000.340994) can0 295#0000000000001840
(1000000000.340995) can0 0D0#527504644E01A300
(1000000000.340996) can0 033#000790000E8007D0
(1000000000.340997) can0 434#032A00AB90419A40
(1000000000.342015) can0 6E0#01670163016B016B
(1000000000.342016) can0 498#87FFBFFC4E806909
(1000000000.342017) can0 230#FD000002EC000400
(1000000000.343266) can0 3C1#7B551FBB960EE92E
(1000000000.344285) can0 2E1#0000000000000004
(1000000000.345306) can0 354#2008400000028700
(1000000000.345308) can0 5E1#893FE00B0A00D880
(1000000000.345309) can0 00E#2052560208097602
(1000000000.345310) can0 162#00080353EA11F4CE
(1000000000.345311) can0 0A7#0010FA24C12D70A0
(1000000000.346303) can0 69E#0440047F1FC01582
(1000000000.346304) can0 125#9000415F437DE960
(1000000000.348657) can0 6E0#01670166016A016B
(1000000000.350162) can0 153#00000000000C0002
(1000000000.351180) can0 662#4EA0000040000000
(1000000000.351181) can0 19C#168A200BC20028A0
(1000000000.351182) can0 0D0#5A7504644D01A300
(1000000000.351183) can0 107#0000000000000000
(1000000000.352177) can0 FFF#0000000000000000
(1000000000.352179) can0 033#000788000EC007D0
(1000000000.352180) can0 274#00F22BF1507C8E3D
(1000000000.352181) can0 0C0#6000000000000000
(1000000000.354075) can0 354#200840000002F000
(1000000000.355096) can0 5E1#893FE00B0A00D880
(1000000000.355097) can0 28B#0000000000000000
(1000000000.355098) can0 0A7#0010FBA4C12D70A0
(1000000000.355099) can0 00E#20525602080975F6
(1000000000.356116) can0 407#50015FF014C0BD60
(1000000000.356117) can0 125#9000415F437DCB60
(1000000000.358096) can0 FFF#0000000000000000
(1000000000.359116) can0 193#00080803E8880000
(1000000000.359117) can0 20E#4E2003A0CF3F8FFF
(1000000000.360138) can0 522#DF7FD0007E18001C
(1000000000.360139) can0 366#80DDC8020147CE38
(1000000000.360140) can0 580#00000003E1880000
(1000000000.360141) can0 434#034AA0ABB051AA50
(1000000000.361160) can0 0D0#627504644C01A300
(1000000000.361162) can0 033#000780000F0007D0
(1000000000.361163) can0 6E0#01690166016A016B
(1000000000.361164) can0 498#87FFBFFC4E8068CA
(1000000000.362177) can0 32D#00000420AC010020
(1000000000.363198) can0 230#FC000002EC000600
(1000000000.364217) can0 2E1#0000000000000004
(1000000000.365220) can0 354#200840000002F000
(1000000000.365221) can0 5E1#893FE00B0A00D480
(1000000000.365222) can0 00E#20525602080975EA
(1000000000.365223) can0 162#00080353EA11F4CE
(1000000000.366240) can0 0A7#0010FAA4C12D80A0
(1000000000.366241) can0 69E#0440047F1FC01582
(1000000000.367236) can0 125#9000415F437DAD60
(1000000000.368323) can0 3C1#7B551FBBD54F692E
(1000000000.369343) can0 6E0#01690169016A016B
(1000000000.370343) can0 4E7#0000001503670000
(1000000000.371351) can0 153#00000000000C0002
(1000000000.371353) can0 FFF#0000000000000000
(1000000000.371354) can0 295#0000000000001840
(1000000000.371355) can0 107#0000000000000000
(1000000000.371356) can0 FFF#0000000000000000
(1000000000.372388) can0 662#4EA0000040000000
(1000000000.372393) can0 684#54D677D94154901E
(1000000000.372394) can0 636#249C7980EF842000
(1000000000.372395) can0 2D7#100060D800000008
(1000000000.373406) can0 19C#1A84200C020028A0
(1000000000.373408) can0 0D0#6A7504644C01A200
(1000000000.373409) can0 033#000778000F4007D0
(1000000000.373410) can0 274#00F22DEF507C8E3B
(1000000000.374427) can0 0C0#6000000000000000
(1000000000.374428) can0 0BA#06C809C410000488
(1000000000.374429) can0 3E4#00D0000085000000
(1000000000.374430) can0 354#200840000002E880
(1000000000.375437) can0 5E1#893FE00B0A00D080
(1000000000.375438) can0 28B#0000000000000000
(1000000000.375439) can0 00E#20525602080975F0
(1000000000.375440) can0 2E2#18080D4040000118
(1000000000.375441) can0 345#050202C23C774081
(1000000000.376489) can0 430#0032448BEA8011A0
(1000000000.376490) can0 125#9000415F437D8F60
(1000000000.376491) can0 0A7#0010F8A4C12D80A0
(1000000000.376492) can0 130#0001500000000000
(1000000000.377488) can0 03D#0000048000000000
(1000000000.377490) can0 65C#4008E27530000000
(1000000000.377491) can0 577#000008000000014C
(1000000000.378519) can0 FFF#0000000000000000
(1000000000.378521) can0 2C1#01F44FC7CB1F6C7C
(1000000000.379509) can0 193#00080803E8880000
(1000000000.379510) can0 20E#4E2003A0CF3FAFFF
(1000000000.379511) can0 522#DF7FD0007DA0001C
(1000000000.380542) can0 366#80DDC8020147CE38
(1000000000.380543) can0 580#00000003DA080000
(1000000000.380544) can0 434#036AA0ABC071CA70
(1000000000.380545) can0 0D0#727504644B01A200
(1000000000.381530) can0 033#000770000F8007D0
(1000000000.381532) can0 6E0#016B0169016A016B
(1000000000.381533) can0 498#87FFBFFC4D8068CB
(1000000000.381534) can0 464#0002400000900F5F
(1000000000.382547) can0 230#FB000002EC000800
(1000000000.382548) can0 66C#0000000018000000
(1000000000.384074) can0 2E1#0000000000000004
(1000000000.385092) can0 354#200840000002D980
(1000000000.385094) can0 5E1#893FE00B0A00D480
(1000000000.385095) can0 00E#20525602080975F0
(1000000000.385095) can0 162#00080343EA11F4CE
(1000000000.386112) can0 0A7#0010F9A4C12D70A0
(1000000000.386113) can0 69E#0440047F1FC01582
(1000000000.387112) can0 125#9000415F437D7160
(1000000000.388649) can0 4FD#11270A4D3507CA88
(1000000000.389651) can0 6E0#016B016A016A016A
(1000000000.390653) can0 153#00000000000C0002
(1000000000.390654) can0 662#4EA0000040000000
(1000000000.390655) can0 19C#1E80200C020028A0
(1000000000.391674) can0 0D0#7A7504644A01A200
(1000000000.391675) can0 107#0000000000000000
(1000000000.391676) can0 FFF#0000000000000000
(1000000000.391677) can0 033#000768000FC007D0
(1000000000.392673) can0 274#00F22FED507C8E3D
(1000000000.392674) can0 0C0#6000000000000000
(1000000000.393690) can0 3C1#7B551FBB5510292E
(1000000000.394715) can0 354#200840000002D980
(1000000000.394716) can0 5E1#893FE00B0A00D880
(1000000000.394717) can0 585#0040000000020018
(1000000000.395716) can0 00E#20525602080975EA
(1000000000.395717) can0 28B#0000000000000000
(1000000000.395718) can0 0A7#0010FB24C12D70A0
(1000000000.395718) can0 1CA#3FF1FF8000000C28
(1000000000.396735) can0 125#9000415F437D5360
(1000000000.397943) can0 FFF#0000000000000000
(1000000000.398943) can0 193#00080803E8880000
(1000000000.399993) can0 20E#4E2003A0D03FAFFF
(1000000000.399995) can0 522#DF7FD0007D28001C
(1000000000.399996) can0 366#80DDC8020147CE38
(1000000000.400965) can0 580#00000003D2880000
(1000000000.400966) can0 295#0000000000001840
(1000000000.400970) can0 0D0#027504645901A200
(1000000000.400971) can0 033#0007E0000C0007D0
(1000000000.400972) can0 434#0382A0ABD081DA80
(1000000000.401985) can0 6E0#016E016A016A016A
(1000000000.401986) can0 498#87FFBFFC4C8068CC
(1000000000.401987) can0 230#FA000002EC000A00
(1000000000.404073) can0 2E1#0000000000000004
(1000000000.405089) can0 354#200840000002D200
(1000000000.405090) can0 5E1#893FE00B0A00D480
(1000000000.405091) can0 00E#20525602080975DE
(1000000000.405092) can0 162#00080343EA11F4CE
(1000000000.406110) can0 0A7#0010FB24C12D70A0
(1000000000.406111) can0 2A3#0000008412803C10
(1000000000.406112) can0 69E#0440047F1FC01582
(1000000000.407108) can0 125#9000415F437D3560
(1000000000.408647) can0 6E0#016E016D016A016A
(1000000000.410173) can0 153#00000000000C0002
(1000000000.411191) can0 662#4EA0000040000000
(1000000000.411192) can0 19C#029C200C020028A0
(1000000000.411193) can0 0D0#0A7504645801A200
(1000000000.411193) can0 107#0000000000000000
(1000000000.412193) can0 FFF#0000000000000000
(1000000000.412194) can0 033#0007D8000C4007D0
(1000000000.412195) can0 274#00F221FB507C8E3D
(1000000000.412196) can0 0C0#6000000000000000
(1000000000.413213) can0 0BA#06C809C410000488
(1000000000.413214) can0 51B#2909183F01060801
(1000000000.413215) can0 32D#00000420AC010020
(1000000000.414233) can0 354#200840000002D200
(1000000000.415255) can0 5E1#893FE00B0A00D080
(1000000000.415256) can0 28B#0000000000000000
(1000000000.415257) can0 00E#20525602080975E4
(1000000000.415258) can0 6FC#0000075EF2B8F000
(1000000000.416257) can0 0A7#0010F924C12D70A0
(1000000000.416258) can0 239#0000006FE0004380
(1000000000.416259) can0 125#9000415F437D1760
(1000000000.416260) can0 FFF#0000000000000000
(1000000000.417275) can0 2B4#14E9740000005800
(1000000000.418273) can0 5B3#0400000000000400
(1000000000.418274) can0 FFF#0000000000000000
(1000000000.419314) can0 3C1#7B551FBB5490A92E
(1000000000.419315) can0 03C#000004002A000000
(1000000000.419316) can0 207#040460482ADED518
(1000000000.419317) can0 193#00080803E8880000
(1000000000.420317) can0 20E#4E2003A0D13FAFF7
(1000000000.420318) can0 4C9#01F915820D02F64B
(1000000000.420319) can0 522#DF7FD0007CB0001C
(1000000000.420320) can0 366#80DDC8020147CE38
(1000000000.420321) can0 0D0#127504645701A200
(1000000000.421316) can0 033#0007D0000C8007D0
(1000000000.421317) can0 580#00000003CB080000
(1000000000.421318) can0 434#03AAA0ABF091FAA0
(1000000000.421319) can0 6E0#016E016D016A016A
(1000000000.422337) can0 0D7#0000020080000000
(1000000000.422338) can0 498#87FFBFFC4C80688D
(1000000000.422339) can0 1D6#020F828030240580
(1000000000.422340) can0 577#000008000000014C
(1000000000.423338) can0 230#F9000002F4000C00
(1000000000.424356) can0 2E1#0000000000000004
(1000000000.424358) can0 354#200840000002C300
(1000000000.425376) can0 5E1#893FE00B0A00D480
(1000000000.425378) can0 00E#20525602080975EA
(1000000000.425379) can0 162#00080343EA11F4CE
(1000000000.425380) can0 0A7#0010F9A4C12D70A0
(1000000000.426378) can0 497#0000000000000000
(1000000000.426379) can0 69E#0440047F1FC01582
(1000000000.426380) can0 125#9000415F437CF960
(1000000000.427401) can0 FFF#0000000000000000
(1000000000.427402) can0 FFF#0000000000000000
(1000000000.427403) can0 0F4#9A0C010204B10240
(1000000000.428647) can0 6E0#0171016E016A016A
(1000000000.430150) can0 153#00000000000C0002
(1000000000.431148) can0 295#0000000000001840
(1000000000.431152) can0 662#4EA0000040000000
(1000000000.431153) can0 107#0000000000000000
(1000000000.431154) can0 FFF#0000000000000000
(1000000000.432168) can0 19C#0698200C020028A0
(1000000000.432169) can0 0D0#1A7504645701A100
(1000000000.432170) can0 033#0007C8000CC007D0
(1000000000.432171) can0 274#00F223F9507C8E3D
(1000000000.433188) can0 0C0#6000000000000000
(1000000000.434188) can0 26E#0106408288EA0A04
(1000000000.435231) can0 354#200840000002B400
(1000000000.435232) can0 5E1#893FE00B0A00D480
(1000000000.435233) can0 28B#0000000000000000
(1000000000.435234) can0 00E#20525602080975EA
(1000000000.435235) can0 0A7#0010FB24C12D70A0
(1000000000.436230) can0 2D2#0000200000000000
(1000000000.436231) can0 125#9000415F437CDB60
(1000000000.437938) can0 FFF#0000000000000000
(1000000000.438958) can0 4FD#11230A4D31074A88
(1000000000.438959) can0 193#00080803E8880000
(1000000000.439980) can0 20E#4E2003A0D1BFAFF7
(1000000000.439981) can0 522#DF7FD0007C38001C
(1000000000.439982) can0 366#80DDC8020147CE38
(1000000000.441002) can0 580#00000003C3880000
(1000000000.441003) can0 0D0#227504645601A100
(1000000000.441004) can0 033#0007C0000D0007D0
(1000000000.441005) can0 434#03CAA0AC20B20AB0
(1000000000.441006) can0 6E0#0171016E016A0169
(1000000000.442023) can0 498#87FFBFFC4C80684E
(1000000000.442024) can0 230#F8000002F4000E00
(1000000000.443207) can0 3C1#7B551FBAD451692E
(1000000000.444249) can0 2E1#0000000000000004
(1000000000.445272) can0 354#200840000002B400
(1000000000.445273) can0 5E1#893FE00B0A00D080
(1000000000.445274) can0 00E#20525602080975DE
(1000000000.445275) can0 162#00080343EA11F4CE
(1000000000.445276) can0 0A7#0010FB24C12D70A0
(1000000000.446290) can0 69E#0440047F1FC01582
(1000000000.446292) can0 125#9000415F437CBD60
(1000000000.448643) can0 6E0#01740170016A0169
(1000000000.450146) can0 153#00000000000C0002
(1000000000.451166) can0 662#4EA0000040000000
(1000000000.451167) can0 19C#0A94200C020028A0
(1000000000.451168) can0 0D0#2A7504645601A000
(1000000000.451168) can0 107#0000000000000000
(1000000000.452166) can0 FFF#0000000000000000
(1000000000.452167) can0 033#0007B8000D4007D0
(1000000000.452168) can0 274#00F225F7507C8E3D
(1000000000.452169) can0 0C0#6000000000000000
(1000000000.453185) can0 0BA#06C809C410000488
(1000000000.454206) can0 354#200840000002AC80
(1000000000.455207) can0 5E1#893FE00B0A00D080
(1000000000.455208) can0 28B#0000000000000000
(1000000000.455209) can0 00E#20525602080975DE
(1000000000.455210) can0 0A7#0010F8A4C12D70A0
(1000000000.456227) can0 407#50015FF014C0BD60
(1000000000.456228) can0 125#9000415F437C9F60
(1000000000.458081) can0 FFF#0000000000000000
(1000000000.459102) can0 193#00080803E8880000
(1000000000.459103) can0 20E#4E2003A0D1BF8FF7
(1000000000.460102) can0 522#DF7FD0007BC0001C
(1000000000.460104) can0 366#80DDC8020147CE38
(1000000000.460105) can0 580#00000003BC080000
(1000000000.461124) can0 295#0000000000001840
(1000000000.461125) can0 0D0#327504645501A000
(1000000000.461126) can0 033#0007B0000D8007D0
(1000000000.461127) can0 434#03EAA0AC30C21AD0
(1000000000.462146) can0 6E0#01740170016A0169
(1000000000.462147) can0 498#87FFBFFC4B80684F
(1000000000.462148) can0 32D#00000420AC010020
(1000000000.463142) can0 230#F7000002F4001000
(1000000000.464163) can0 2E1#0000000000000004
(1000000000.465183) can0 354#2008400000029D80
(1000000000.465184) can0 5E1#893FE00B0A00D480
(1000000000.465188) can0 00E#20525602080975E4
(1000000000.465189) can0 162#00080343EA11F4CE
(1000000000.466184) can0 0A7#0010F924C12D60A0
(1000000000.466185) can0 69E#044004801FC01582
(1000000000.467204) can0 125#9000415F437E6160
(1000000000.468288) can0 3C1#7B551FBB9311E92E
(1000000000.469287) can0 6E0#0174017201690169
(1000000000.470308) can0 4E7#0000001503670000
(1000000000.471309) can0 153#00000000000C0002
(1000000000.471311) can0 FFF#0000000000000000
(1000000000.471312) can0 107#0000000000000000
(1000000000.471313) can0 FFF#0000000000000000
(1000000000.472329) can0 662#4EA0000040000000
(1000000000.472330) can0 684#54D677D94154901E
(1000000000.472331) can0 636#249C7980EF842000
(1000000000.472332) can0 2D7#100060D800000008
(1000000000.472333) can0 19C#0E90200C020028A0
(1000000000.473330) can0 0D0#3A7504645401A000
(1000000000.473331) can0 033#0007A8000DC007D0
(1000000000.473332) can0 274#00F227F5507C8E3D
(1000000000.473333) can0 0C0#6000000000000000
(1000000000.474350) can0 3E4#00CC000085000000
(1000000000.474351) can0 65C#4008E27530000000
(1000000000.474352) can0 577#000008000000014C
(1000000000.474353) can0 354#2008400000029D80
(1000000000.475338) can0 5E1#893FE00B0A00D480
(1000000000.475340) can0 28B#0000000000000000
(1000000000.475341) can0 00E#20525602080975E4
(1000000000.475342) can0 2E2#18080D4040000118
(1000000000.476372) can0 345#050202C23C774081
(1000000000.476373) can0 430#0032448BEA8011A0
(1000000000.476374) can0 125#9000415F437E4360
(1000000000.476375) can0 0A7#0010FB24C12D60A0
(1000000000.477391) can0 130#0001500000000000
(1000000000.477392) can0 03D#0000048000000000
(1000000000.478390) can0 FFF#0000000000000000
(1000000000.479392) can0 193#00080803E8880000
(1000000000.479393) can0 20E#4E2003A0D23F6FFF
(1000000000.479394) can0 522#DF7FD0007B48001C
(1000000000.480411) can0 366#80DDC8020147CE38
(1000000000.480412) can0 580#00000003B4880000
(1000000000.480413) can0 434#040AA0AC50E23AE0
(1000000000.480414) can0 0D0#427504645301A000
(1000000000.481453) can0 033#0007A0000E0007D0
(1000000000.481454) can0 6E0#0174017201690169
(1000000000.481455) can0 498#87FFBFFC5A806840
(1000000000.482453) can0 464#0002400000901E50
(1000000000.482455) can0 230#F6000002F4001200
(1000000000.482456) can0 1AA#90BEBD44A163E640
(1000000000.482457) can0 66C#0000000018000000
(1000000000.483473) can0 2C1#01F2CFC7C99F7492
(1000000000.484473) can0 2E1#0000000000000004
(1000000000.484474) can0 354#2008400000029600
(1000000000.485516) can0 5E1#893FE00B0A00D080
(1000000000.485517) can0 00E#20525602080975EA
(1000000000.485518) can0 162#00080343EA11F4CE
(1000000000.485519) can0 0A7#0010FBA4C12D70A0
(1000000000.485520) can0 55C#101B000041823000
(1000000000.486512) can0 69E#044004801FC01582
(1000000000.486513) can0 125#9000415F437E2560
(1000000000.488578) can0 4FD#112D0A4D3D094A88
(1000000000.489597) can0 6E0#0176017301690169
(1000000000.490615) can0 153#00000000000C0002
(1000000000.490616) can0 295#0000000000001840
(1000000000.490617) can0 662#4EA0000040000000
(1000000000.491640) can0 107#0000000000000000
(1000000000.491641) can0 FFF#0000000000000000
(1000000000.491642) can0 19C#128C200C020028A0
(1000000000.491643) can0 0D0#4A7504645201A000
(1000000000.492639) can0 033#000798000E4007D0
(1000000000.492640) can0 274#00F229F3507C8E3D
(1000000000.492641) can0 0C0#6000000000000000
(1000000000.492642) can0 0BA#06C8088410000488
(1000000000.493659) can0 3C1#7B551FBB9252A92E
(1000000000.494659) can0 354#2008400000029600
(1000000000.494660) can0 5E1#893FE00B0A00CC80
(1000000000.494661) can0 585#0040000000020018
(1000000000.495681) can0 00E#20525602080975DE
(1000000000.495682) can0 28B#0000000000000000
(1000000000.495683) can0 0A7#0010F9A4C12D70A0
(1000000000.495684) can0 1CA#3FF1FF8000000C28
(1000000000.496679) can0 125#9000415F437E0760
(1000000000.498117) can0 FFF#0000000000000000
(1000000000.499103) can0 193#00080803E8880000
(1000000000.499105) can0 20E#4E2003A0D2BF4FFF
(1000000000.500138) can0 522#DF7FD0007AD0001C
(1000000000.500139) can0 366#80DDC8020147CE38
(1000000000.500140) can0 580#00000003AD080000
(1000000000.500141) can0 434#042AA0AC60F24AF0
(1000000000.501138) can0 0D0#527504645101A000
(1000000000.501140) can0 033#000790000E8007D0
(1000000000.501141) can0 6E0#0176017301690169
(1000000000.501142) can0 498#87FFBFFC59806841
(1000000000.502157) can0 230#F5000002F4001400
(1000000000.504075) can0 2E1#0000000000000004
(1000000000.505075) can0 354#2008400000028700
(1000000000.505076) can0 5E1#893FE00B0A00D080
(1000000000.505077) can0 00E#20525602080975EA
(1000000000.505078) can0 162#00080343EA11F4CE
(1000000000.506096) can0 0A7#0010F824C12D70A0
(1000000000.506097) can0 2A3#0000008412803C10
(1000000000.506098) can0 69E#044004801FC01582
(1000000000.506099) can0 125#9000415F437DE960
(1000000000.508617) can0 6E0#0178017401690169
(1000000000.510134) can0 153#00000000000C0002
(1000000000.511136) can0 662#4EA0000040000000
(1000000000.511138) can0 19C#1688200C020028A0
(1000000000.511139) can0 107#0000000000000000
(1000000000.511140) can0 FFF#0000000000000000
(1000000000.512158) can0 0D0#5A7504645001A000
(1000000000.512159) can0 033#000788000EC007D0
(1000000000.512160) can0 274#00F22BF1507C8E3D
(1000000000.512160) can0 0C0#6000000000000000
(1000000000.513179) can0 1C4#0000020000800000
(1000000000.513180) can0 2A4#2E8C021C040898D0
(1000000000.513181) can0 FFF#0000000000000000
(1000000000.513182) can0 32D#00000420AC010020
(1000000000.514198) can0 354#200840000002F000
(1000000000.515198) can0 5E1#893FE00B0A00D080
(1000000000.515199) can0 28B#0000000000000000
(1000000000.515200) can0 00E#20525602080975F0
(1000000000.515201) can0 6FC#0000075E92B8F000
(1000000000.516220) can0 0A7#0010FAA4C12D60A0
(1000000000.516221) can0 239#0000006EC0004380
(1000000000.516222) can0 FFF#0000000000000000
(1000000000.516223) can0 125#9000415F437DCB60
(1000000000.517239) can0 2B4#14E9740000005800
(1000000000.518240) can0 5B3#0400000000000400
(1000000000.518241) can0 FFF#0000000000000000
(1000000000.519241) can0 3C1#7B551FBA92D3292E
(1000000000.519242) can0 03C#000004002B000000
(1000000000.519243) can0 207#040460482ADED518
(1000000000.519243) can0 193#00080803E8880000
(1000000000.520264) can0 20E#4E2003A0D33F8FF7
(1000000000.520265) can0 4C9#01F8D5820D02F64B
(1000000000.520266) can0 522#DF7FD0007A58001C
(1000000000.520267) can0 366#80DDC8020147CE38
(1000000000.520268) can0 295#0000000000001840
(1000000000.521281) can0 0D0#627504644F01A000
(1000000000.521282) can0 033#000780000F0007D0
(1000000000.521283) can0 580#00000003A5880000
(1000000000.521284) can0 434#044AA0AC81127B10
(1000000000.522302) can0 6E0#0178017601690168
(1000000000.522303) can0 0D7#0000020080000000
(1000000000.522304) can0 498#87FFBFFC59806802
(1000000000.522305) can0 1D6#020B808030240580
(1000000000.523322) can0 577#000008000000014C
(1000000000.523324) can0 230#F4000002F4001600
(1000000000.524322) can0 2E1#0000000000000004
(1000000000.524323) can0 354#200840000002F000
(1000000000.525323) can0 5E1#893FE00B0A00D080
(1000000000.525324) can0 00E#20525602080975E4
(1000000000.525325) can0 162#00080343EA11F4CE
(1000000000.525326) can0 0A7#0010FBA4C12D70A0
(1000000000.526343) can0 497#0000000000000000
(1000000000.526344) can0 69E#044004801FC01582
(1000000000.526345) can0 125#9000415F437DAD60
(1000000000.527332) can0 FFF#0000000000000000
(1000000000.527334) can0 FFF#0000000000000000
(1000000000.527335) can0 0F4#9A0C010204B10240
(1000000000.528632) can0 6E0#01790176016A0168
(1000000000.530135) can0 153#00000000000C0002
(1000000000.531153) can0 662#4EA0000040000000
(1000000000.531154) can0 19C#1A84200C020028A0
(1000000000.531155) can0 107#0000000000000000
(1000000000.531156) can0 FFF#0000000000000000
(1000000000.532175) can0 0D0#6A7504644F019F00
(1000000000.532176) can0 033#000778000F4007D0
(1000000000.532177) can0 274#00F22DEF507C8E3D
(1000000000.532178) can0 0C0#6000000000000000
(1000000000.533196) can0 0BA#06B8084410000488
(1000000000.533197) can0 533#ED7FCF7EFFF2EF7F
(1000000000.534156) can0 354#200840000002E880
(1000000000.535217) can0 5E1#893FE00B0A00CC80
(1000000000.535218) can0 28B#0000000000000000
(1000000000.535219) can0 00E#20525602080975D8
(1000000000.535220) can0 0A7#0010FA24C12D70A0
(1000000000.536216) can0 2D2#0000280000000000
(1000000000.536218) can0 125#9000415F437D8F60
(1000000000.537362) can0 26E#0106408288EA0A04
(1000000000.538383) can0 FFF#0000000000000000
(1000000000.538384) can0 4CB#8000000000000000
(1000000000.538385) can0 280#18E0027000000000
(1000000000.539387) can0 4FD#11220A4D2F074A88
(1000000000.539388) can0 193#00080803E8880000
(1000000000.539389) can0 20E#4E2003A0D3BFAFF7
(1000000000.539390) can0 522#DF7FD00079E0001C
(1000000000.540404) can0 366#80DDC8020147CE38
(1000000000.540405) can0 580#000000039E080000
(1000000000.540406) can0 434#046800AC91229B20
(1000000000.540407) can0 0D0#727504644E019F00
(1000000000.541425) can0 033#000770000F8007D0
(1000000000.541426) can0 6E0#01790177016A0169
(1000000000.541427) can0 30A#202D3001D2EA0A00
(1000000000.541428) can0 025#00000288403C2001
(1000000000.542443) can0 498#87FFBFFC57806843
(1000000000.542444) can0 230#F3000002F4001800
(1000000000.543467) can0 3C1#7B551FBB5153E92E
(1000000000.544465) can0 2E1#0000000000000004
(1000000000.544466) can0 354#200840000002D980
(1000000000.545487) can0 5E1#893FE00B0A00CC80
(1000000000.545488) can0 00E#20525602080975DE
(1000000000.545489) can0 162#00080333EA11F4CE
(1000000000.545490) can0 0A7#0010F824C12D70A0
(1000000000.546507) can0 69E#044004801FC01582
(1000000000.546508) can0 125#9000415F437D7160
(1000000000.548612) can0 6E0#01770177016A0169
(1000000000.550128) can0 153#00000000000C0002
(1000000000.551151) can0 295#0000000000001840
(1000000000.551152) can0 662#4EA0000040000000
(1000000000.551153) can0 107#0000000000000000
(1000000000.551154) can0 FFF#0000000000000000
(1000000000.552151) can0 19C#1E80200C020028A0
(1000000000.552153) can0 0D0#7A7504644C01A000
(1000000000.552154) can0 033#000768000FC007D0
(1000000000.552155) can0 274#00F22FED507C8E3D
(1000000000.553172) can0 0C0#6000000000000000
(1000000000.554203) can0 354#200840000002D980
(1000000000.555264) can0 5E1#893FE00B0A00D080
(1000000000.555271) can0 28B#0000000000000000
(1000000000.555272) can0 0A7#0010FA24C12D60A0
(1000000000.555273) can0 00E#20525602080975E4
(1000000000.556283) can0 407#50015FF014C0BD60
(1000000000.556285) can0 125#9000415F437D5360
(1000000000.558044) can0 FFF#0000000000000000
(1000000000.559039) can0 193#00080803E8880000
(1000000000.560059) can0 20E#4E2003A0D3BF8FF7
(1000000000.560060) can0 522#DF7FD0007968001C
(1000000000.560061) can0 366#80DDC8020147CE38
(1000000000.560062) can0 580#0000000396880000
(1000000000.561077) can0 0D0#027504645B01A000
(1000000000.561079) can0 033#0007E0000C0007D0
(1000000000.561080) can0 434#000000ACA132AB40
(1000000000.561081) can0 6E0#01770177016A016A
(1000000000.562071) can0 498#87FFBFFC56806844
(1000000000.562072) can0 32D#00000420AC010020
(1000000000.563057) can0 230#F2000002F4001A00
(1000000000.564121) can0 2E1#0000000000000004
(1000000000.565116) can0 354#200840000002D200
(1000000000.565118) can0 5E1#893FE00B0A00D080
(1000000000.565119) can0 00E#20525602080975E4
(1000000000.565120) can0 162#00080333EA11F4CE
(1000000000.566141) can0 0A7#0010FBA4C12D70A0
(1000000000.566142) can0 2B4#14E9750000005800
(1000000000.566143) can0 69E#044004801FC01582
(1000000000.567160) can0 125#9000415F437D3560
(1000000000.568307) can0 3C1#7B551FBB1114692E
(1000000000.569327) can0 6E0#017A0177016A016A
(1000000000.570347) can0 4E7#0000001503670000
(1000000000.571329) can0 153#00000000000C0002
(1000000000.571331) can0 FFF#0000000000000000
(1000000000.571332) can0 107#0000000000000000
(1000000000.571333) can0 FFF#0000000000000000
(1000000000.572294) can0 662#4EA0000040000000
(1000000000.572295) can0 684#54D677D94154901E
(1000000000.572296) can0 636#249C7980EF843000
(1000000000.572297) can0 2D7#100060D800000008
(1000000000.572298) can0 19C#029C200C020028A0
(1000000000.573388) can0 0D0#0A7504645A01A000
(1000000000.573390) can0 033#0007D8000C4007D0
(1000000000.573391) can0 274#00F221FB507C8E3D
(1000000000.573392) can0 0C0#6000000000000000
(1000000000.574386) can0 0BA#06B808C410000488
(1000000000.574388) can0 0F1#3E101CC00359CC00
(1000000000.574389) can0 3E4#00CC000085000000
(1000000000.574390) can0 354#200840000002D200
(1000000000.575342) can0 5E1#893FE00B0A00C880
(1000000000.575343) can0 28B#0000000000000000
(1000000000.575344) can0 00E#20525602080975DE
(1000000000.575345) can0 2E2#18080D4040000118
(1000000000.576429) can0 345#050202C23C774081
(1000000000.576431) can0 430#0032448BEA8011A0
(1000000000.576432) can0 125#9000415F437D1760
(1000000000.576433) can0 0A7#0010FAA4C12D70A0
(1000000000.577429) can0 130#0001500000000000
(1000000000.577430) can0 03D#0000050000000000
(1000000000.577431) can0 65C#4008E27530000000
(1000000000.577432) can0 577#000008000000014C
(1000000000.578449) can0 FFF#0000000000000000
(1000000000.579403) can0 193#00080803E8880000
(1000000000.579405) can0 20E#4E2003A0D3BF8FFF
(1000000000.580427) can0 522#DF7FD00078F0001C
(1000000000.580428) can0 366#80DDC8020147CE38
(1000000000.580429) can0 580#000000038F080000
(1000000000.580430) can0 295#0000000000001840
(1000000000.581496) can0 0D0#127504645901A000
(1000000000.581497) can0 033#0007D0000C8007D0
(1000000000.581498) can0 434#002000ACC152BB50
(1000000000.581499) can0 6E0#017A0178016A016A
(1000000000.581500) can0 498#87FFBFFC54806885
(1000000000.582512) can0 464#0002400000901D51
(1000000000.582514) can0 230#F1000002F4001C00
(1000000000.582520) can0 006#0800006400000000
(1000000000.582521) can0 66C#0000000020000000
(1000000000.584111) can0 2E1#0000000000000004
(1000000000.585138) can0 354#200840000002C300
(1000000000.585139) can0 5E1#893FE00B0A00C880
(1000000000.585140) can0 00E#20525602080975DE
(1000000000.585141) can0 162#00080333EA11F4CE
(1000000000.586134) can0 0A7#0010F8A4C12D80A0
(1000000000.586135) can0 69E#044004801FC01582
(1000000000.586136) can0 125#9000415F437CF960
(1000000000.588274) can0 2C1#01F38FC7CA9F50A6
(1000000000.589303) can0 4FD#11210A4C2D06CA88
(1000000000.589304) can0 6E0#017D0178016B016A
(1000000000.590322) can0 153#00000000000C0002
(1000000000.591314) can0 662#4EA0000040000000
(1000000000.591315) can0 19C#0698200C020028A0
(1000000000.591316) can0 0D0#1A7504645701A100
(1000000000.591318) can0 107#0000000000000000
(1000000000.592343) can0 FFF#0000000000000000
(1000000000.592345) can0 033#0007C8000CC007D0
(1000000000.592346) can0 274#00F223F9507C8E3D
(1000000000.592347) can0 0C0#6000000000000000
(1000000000.593364) can0 3C1#7B551FBAD095292E
(1000000000.594366) can0 354#200840000002B400
(1000000000.594367) can0 5E1#893FE00B0A00CC80
(1000000000.595356) can0 585#0040000000020018
(1000000000.595357) can0 00E#20525602080975EA
(1000000000.595358) can0 28B#0000000000000000
(1000000000.595359) can0 0A7#0010F9A4C12D70A0
(1000000000.596386) can0 1CA#3FF1FF8000000C28
(1000000000.596387) can0 125#9000415F437CDB60
(1000000000.598153) can0 FFF#0000000000000000
(1000000000.599113) can0 193#00080803E8880000
(1000000000.599115) can0 20E#4E2003A0D4BF6FFF
(1000000000.600139) can0 522#DF7FD0007878001C
(1000000000.600140) can0 366#80DDC8020147CE38
(1000000000.600141) can0 580#0000000387880000
(1000000000.600142) can0 434#005680ACD162DB70
(1000000000.601114) can0 0D0#227504645601A100
(1000000000.601115) can0 033#0007C0000D0007D0
(1000000000.601116) can0 6E0#017D0178016B016B
(1000000000.601117) can0 498#87FFBFFC528068C6
(1000000000.602133) can0 230#F0000002F4001E00
(1000000000.604029) can0 2E1#0000000000000004
(1000000000.605038) can0 354#200840000002B400
(1000000000.605039) can0 5E1#893FE00B0A00CC80
(1000000000.605040) can0 00E#20525602080975D8
(1000000000.605041) can0 162#00080333EA11F4CE
(1000000000.606129) can0 0A7#0010FB24C12D70A0
(1000000000.606131) can0 2A3#0000008412803C10
(1000000000.606132) can0 69E#044004811FC01582
(1000000000.606133) can0 125#9000415F437CBD60
(1000000000.608681) can0 6E0#017A0178016D016B
(1000000000.610185) can0 153#00000000000C0002
(1000000000.611173) can0 295#0000000000001840
(1000000000.611174) can0 662#4EA0000040000000
(1000000000.611175) can0 19C#0A94200C020028A0
(1000000000.611176) can0 107#0000000000000000
(1000000000.612194) can0 FFF#0000000000000000
(1000000000.612196) can0 0D0#2A7504645401A200
(1000000000.612197) can0 033#0007B8000D4007D0
(1000000000.612198) can0 274#00F225F7507C8E3D
(1000000000.613192) can0 0C0#6000000000000000
(1000000000.613194) can0 0BA#06B8090410000488
(1000000000.613195) can0 297#1100002000025110
(1000000000.613196) can0 51B#280C410128000121
(1000000000.614204) can0 32D#00000420AC010020
(1000000000.614206) can0 354#200840000002AC80
(1000000000.615213) can0 5E1#893FE00B0A00C880
(1000000000.615215) can0 28B#0000000000000000
(1000000000.615216) can0 00E#20525602080975DE
(1000000000.615216) can0 6FC#0000075DD2B8F000
(1000000000.616233) can0 0A7#0010FAA4C12D80A0
(1000000000.616240) can0 239#0000006DA0004380
(1000000000.616241) can0 125#9000415F437C9F60
(1000000000.616242) can0 FFF#0000000000000000
(1000000000.617252) can0 2B4#14E9750000005800
(1000000000.618223) can0 5B3#0400000000000400
(1000000000.618224) can0 FFF#0000000000000000
(1000000000.619199) can0 3C1#7B551FBB4F95A92E
(1000000000.619201) can0 03C#000004002D000000
(1000000000.619202) can0 207#0404E0582ADED518
(1000000000.619203) can0 193#00080803E8880000
(1000000000.620262) can0 20E#4E2003A0D53F4FFF
(1000000000.620264) can0 522#DF7FD0007F80001C
(1000000000.620265) can0 366#80DDC8020147CE38
(1000000000.620266) can0 580#00000003F8080000
(1000000000.621296) can0 0D0#327504645301A200
(1000000000.621298) can0 033#0007B0000D8007D0
(1000000000.621300) can0 434#007780ACF182EB90
(1000000000.621301) can0 6E0#017C0178016D016C
(1000000000.622316) can0 0D7#0000020080000000
(1000000000.622318) can0 498#87FFBFFC4F806947
(1000000000.622319) can0 4C9#01F8D5820D02F64B
(1000000000.622320) can0 1D6#020F828030240580
(1000000000.622321) can0 577#000008000000014C
(1000000000.623320) can0 230#FF000002F4000000
(1000000000.624340) can0 2E1#0000000000000004
(1000000000.624341) can0 354#2008800000029580
(1000000000.625361) can0 5E1#893FE00B0A00C480
(1000000000.625362) can0 00E#20525602080975DE
(1000000000.625363) can0 162#00080333EA11F4CE
(1000000000.625364) can0 0A7#0010F824C12D80A0
(1000000000.626378) can0 497#0000000000000000
(1000000000.626380) can0 69E#0440048120001582
(1000000000.626381) can0 125#9000415F437E6160
(1000000000.627383) can0 FFF#0000000000000000
(1000000000.627384) can0 FFF#0000000000000000
(1000000000.628396) can0 0F4#9A0C010204B10240
(1000000000.629405) can0 6E0#017C0178016D016C
(1000000000.630425) can0 153#00000000000C0002
(1000000000.630426) can0 662#4EA0000040000000
(1000000000.631409) can0 19C#0E90200C020028A0
(1000000000.631410) can0 0D0#3A7504645001A400
(1000000000.631411) can0 107#0000000000000000
(1000000000.631412) can0 FFF#0000000000000000
(1000000000.632449) can0 033#0007A8000DC007D0
(1000000000.632451) can0 274#00F227F5507C8E3D
(1000000000.632452) can0 0C0#6000000000000000
(1000000000.634064) can0 354#2008800000029580
(1000000000.635056) can0 5E1#893FE00B0A00C880
(1000000000.635057) can0 28B#0000000000000000
(1000000000.635058) can0 00E#20525602080975DE
(1000000000.635059) can0 0A7#0010F9A4C12D80A0
(1000000000.636069) can0 2D2#0000300000000000
(1000000000.636071) can0 26E#0106408288EA0A04
(1000000000.636072) can0 55C#101B000041823000
(1000000000.636073) can0 125#9000415F437E4360
(1000000000.637890) can0 FFF#0000000000000000
(1000000000.638887) can0 4FD#11260A4C3307CA88
(1000000000.638888) can0 193#00080803E8880000
(1000000000.639921) can0 20E#4E2003A0D53F4FFF
(1000000000.639922) can0 522#DF7FD0007F08001C
(1000000000.639923) can0 366#80DDC8020147CE38
(1000000000.639924) can0 580#00000003F0880000
(1000000000.640938) can0 295#0000000000001840
(1000000000.640939) can0 0D0#427504644F01A400
(1000000000.640940) can0 033#0007A0000E0007D0
(1000000000.640941) can0 434#0088E0AD01930BB0
(1000000000.641984) can0 6E0#017C0179016D016E
(1000000000.641985) can0 498#87FFBFFC4D806988
(1000000000.641986) can0 230#FE000002F4000200
(1000000000.643160) can0 3C1#7B551FBB8E96692E
(1000000000.644214) can0 2E1#0000000000000004
(1000000000.645231) can0 354#2008800000028E00
(1000000000.645233) can0 5E1#893FE00B0A00C880
(1000000000.645238) can0 00E#20525602080975EA
(1000000000.645239) can0 162#00080333EA11F4CE
(1000000000.646261) can0 0A7#0010FBA4C12D80A0
(1000000000.646262) can0 FFF#0000000000000000
(1000000000.646263) can0 69E#0440048120001582
(1000000000.646264) can0 125#9000415F437E2560
(1000000000.648655) can0 6E0#017C0179016F016E
(1000000000.650178) can0 153#00000000000C0002
(1000000000.651179) can0 662#4EA0000040000000
(1000000000.651181) can0 19C#128E200BC20028A0
(1000000000.651182) can0 0D0#4A7504644D01A500
(1000000000.651183) can0 033#000798000E4007D0
(1000000000.652122) can0 274#00F229F3507C8E3D
(1000000000.652123) can0 107#0000000000000000
(1000000000.652124) can0 FFF#0000000000000000
(1000000000.652125) can0 0C0#6000000000000000
(1000000000.653198) can0 0BA#06B8090410000488
(1000000000.654219) can0 354#2008800000028E00
(1000000000.655214) can0 5E1#893FE00B0A00C480
(1000000000.655215) can0 28B#0000000000000000
(1000000000.655216) can0 00E#20525602080975DE
(1000000000.655217) can0 0A7#0010FAA4C12D90A0
(1000000000.656236) can0 407#50015FF014C0BD60
(1000000000.656238) can0 075#0F32000FAE1EE000
(1000000000.656239) can0 125#9000415F437E0760
(1000000000.657935) can0 FFF#0000000000000000
(1000000000.658951) can0 193#00080803E8880000
(1000000000.659989) can0 20E#4E2003A0D63F8FFF
(1000000000.659990) can0 522#DF7FD0007E90001C
(1000000000.659991) can0 366#80DDC8020147CE38
(1000000000.659992) can0 580#00000003E9080000
(1000000000.661005) can0 0D0#527504644C01A500
(1000000000.661006) can0 033#000790000E8007D0
(1000000000.661007) can0 434#00A8E0AD21B31BC0
(1000000000.661008) can0 6E0#017A0179016F0170
(1000000000.662010) can0 498#87FFBFFC4A806A09
(1000000000.662011) can0 32D#00000420AC010020
(1000000000.663026) can0 230#FD000002F4000400
(1000000000.664097) can0 2E1#0000000000000004
(1000000000.665104) can0 354#2008800000027F00
(1000000000.665106) can0 5E1#893FE00B0A00C080
(1000000000.665107) can0 00E#20525602080975E4
(1000000000.665108) can0 162#00080333EA11F4CE
(1000000000.666132) can0 0A7#0010F824C12D90A0
(1000000000.666133) can0 03A#00000000001D0800
(1000000000.666134) can0 69E#04400482200015A2
(1000000000.666135) can0 125#9000415F437DE960
(1000000000.668261) can0 3C1#7B551FBB8E16E92E
(1000000000.669279) can0 6E0#017A017901710170
(1000000000.670279) can0 4E7#0000001503670000
(1000000000.671295) can0 153#00000000000C0002
(1000000000.671296) can0 FFF#0000000000000000
(1000000000.671297) can0 295#0000000000001840
(1000000000.671298) can0 107#0000000000000000
(1000000000.672301) can0 FFF#0000000000000000
(1000000000.672302) can0 662#4EA0000040000000
(1000000000.672303) can0 684#54D677D94154901E
(1000000000.672304) can0 636#249C7980EF843000
(1000000000.673325) can0 2D7#100060D800000008
(1000000000.673326) can0 19C#168A200BC20028A0
(1000000000.673327) can0 0D0#5A7504644901A700
(1000000000.673328) can0 033#000788000EC007D0
(1000000000.673329) can0 274#00F22BF1507C8E3B
(1000000000.674336) can0 0C0#6000000000000000
(1000000000.674337) can0 3E4#00CC000085000000
(1000000000.674338) can0 65C#4008E27530000000
(1000000000.674339) can0 354#200880000002E800
(1000000000.675354) can0 5E1#893FE00B0A00C480
(1000000000.675356) can0 28B#0000000000000000
(1000000000.675357) can0 00E#20525602080975E4
(1000000000.675358) can0 2E2#18080D4040000118
(1000000000.676362) can0 345#050202C23C774081
(1000000000.676364) can0 430#0032448BEA8011A0
(1000000000.676370) can0 125#9000415F437DCB60
(1000000000.676371) can0 0A7#0010F924C12D90A0
(1000000000.677382) can0 130#0001500000000000
(1000000000.677384) can0 03D#0000050000000000
(1000000000.677385) can0 577#000008000000014C
(1000000000.678406) can0 FFF#0000000000000000
(1000000000.679353) can0 193#00080803E8880000
(1000000000.679356) can0 20E#4E2003A0D63FAFFF
(1000000000.680425) can0 522#DF7FD0007E18001C
(1000000000.680426) can0 366#80DDC8020147CE38
(1000000000.680427) can0 580#00000003E1880000
(1000000000.680428) can0 0D0#627504644801A700
(1000000000.681425) can0 033#000780000F0007D0
(1000000000.681427) can0 434#00C720AD31C33BE0
(1000000000.681428) can0 6E0#017A017901710172
(1000000000.681429) can0 498#87FFBFFC47806A8A
(1000000000.682459) can0 464#0002400000901C52
(1000000000.682461) can0 230#FC000002F4000600
(1000000000.682462) can0 576#7FF800003FFC1FC0
(1000000000.683426) can0 66C#0000000018000000
(1000000000.684481) can0 2E1#0000000000000004
(1000000000.684483) can0 354#200880000002E800
(1000000000.685497) can0 5E1#893FE00B0A00C480
(1000000000.685499) can0 00E#20525602080975E4
(1000000000.685500) can0 162#00080333EA11F4CE
(1000000000.685501) can0 0A7#0010FBA4C12D90A0
(1000000000.686497) can0 69E#04400482200015A2
(1000000000.686499) can0 125#9000415F437DAD60
(1000000000.688588) can0 4FD#112A0A4D3908CA88
(1000000000.689599) can0 6E0#017A017901730172
(1000000000.690623) can0 153#00000000000C0002
(1000000000.690625) can0 662#4EA0000040000000
(1000000000.691627) can0 19C#1A86200BC20028A0
(1000000000.691629) can0 0D0#6A7504644501A900
(1000000000.691630) can0 107#0000000000000000
(1000000000.691631) can0 FFF#0000000000000000
(1000000000.691632) can0 033#000778000F4007D0
(1000000000.692638) can0 274#00F22DEF507C8E3B
(1000000000.692639) can0 0C0#6000000000000000
(1000000000.692640) can0 0BA#06B8094410000488
(1000000000.693663) can0 3C1#7B551FBB4D97A92E
(1000000000.693665) can0 2C1#01F3CFC7CB1F34BC
(1000000000.694684) can0 354#200880000002E080
(1000000000.694686) can0 585#0040000000020018
(1000000000.694687) can0 5E1#893FE00B0A00C080
(1000000000.695669) can0 00E#20525602080975DE
(1000000000.695670) can0 28B#0000000000000000
(1000000000.695671) can0 0A7#0010FB24C12DA0A0
(1000000000.695672) can0 1CA#3FF1FF8000000C28
(1000000000.696703) can0 125#9000415F437D8F60
(1000000000.698108) can0 FFF#0000000000000000
(1000000000.699123) can0 193#00080803E8880000
(1000000000.699125) can0 20E#4E2003A0D6BF8FFF
(1000000000.700123) can0 522#DF7FD0007DA0001C
(1000000000.700125) can0 366#80DDC8020147CE38
(1000000000.700126) can0 580#00000003DA080000
(1000000000.700127) can0 434#00E700AD41F34BF0
(1000000000.701135) can0 295#0000000000001840
(1000000000.701137) can0 0D0#727504644401A900
(1000000000.701138) can0 033#000770000F8007D0
(1000000000.701139) can0 6E0#017A017801750172
(1000000000.702143) can0 498#87FFBFFC44806B0B
(1000000000.702145) can0 230#FB000002F4000800
(1000000000.704098) can0 2E1#0000000000000004
(1000000000.705099) can0 354#200880000002D180
(1000000000.705101) can0 5E1#893FE00B0A00C080
(1000000000.705102) can0 00E#20525602080975DE
(1000000000.705103) can0 162#00080333EA11F4CE
(1000000000.706119) can0 0A7#0010F8A4C12DB0A0
(1000000000.706121) can0 2A3#0000008410803C10
(1000000000.706122) can0 69E#04400482200015A2
(1000000000.706123) can0 125#9000415F437D7160
(1000000000.708647) can0 6E0#017A017701750172
(1000000000.710167) can0 153#00000000000C0002
(1000000000.711183) can0 662#4EA0000040000000
(1000000000.711185) can0 19C#1E82200BC20028A0
(1000000000.711186) can0 0D0#7A7504644101AB00
(1000000000.711187) can0 107#0000000000000000
(1000000000.712174) can0 FFF#0000000000000000
(1000000000.712175) can0 033#000768000FC007D0
(1000000000.712176) can0 274#00F22FED507C8E3B
(1000000000.712177) can0 0C0#6000000000000000
(1000000000.713197) can0 32D#00000420AC010020
(1000000000.714179) can0 354#200880000002D180
(1000000000.715225) can0 5E1#893FE00B0A00C480
(1000000000.715226) can0 28B#0000000000000000
(1000000000.715227) can0 00E#20525602080975EA
(1000000000.715228) can0 6FC#0000075E52B8F800
(1000000000.716242) can0 0A7#0010F8A4C12DA0A0
(1000000000.716244) can0 239#0000006CC0004360
(1000000000.716245) can0 FFF#0000000000000000
(1000000000.716246) can0 125#9000415F437D5360
(1000000000.717263) can0 2B4#14E9750000005800
(1000000000.718285) can0 5B3#0400000000000400
(1000000000.718287) can0 FFF#0000000000000000
(1000000000.719284) can0 3C1#7B551FBACD98292E
(1000000000.719285) can0 03C#000004002C000000
(1000000000.719286) can0 207#040460482ADED518
(1000000000.719287) can0 193#00080803E8880000
(1000000000.720305) can0 20E#4E2003A0D73FAFFF
(1000000000.720307) can0 522#DF7FD0007D28001C
(1000000000.720308) can0 366#80DDC8020147CE38
(1000000000.720309) can0 580#00000003D2880000
(1000000000.721320) can0 0D0#027504645001AB00
(1000000000.721322) can0 033#0007E0000C0007D0
(1000000000.721323) can0 434#0105A0AD62035C10
(1000000000.721324) can0 6E0#0179017701770175
(1000000000.721325) can0 0D7#0000020080000000
(1000000000.722350) can0 498#87FFBFFC41806B8C
(1000000000.722352) can0 4C9#01F8D5820D02F64B
(1000000000.722353) can0 1D6#060B808030240580
(1000000000.722354) can0 577#000008000000014C
(1000000000.723341) can0 230#FA000002F4000A00
(1000000000.724366) can0 2E1#0000000000000004
(1000000000.724367) can0 354#200880000002CA00
(1000000000.725393) can0 5E1#893FE00B0A00C480
(1000000000.725394) can0 00E#20525602080975EA
(1000000000.725395) can0 162#00080323EA11F4CE
(1000000000.725396) can0 0A7#0010FB24C12DA0A0
(1000000000.726388) can0 497#0000000000000000
(1000000000.726389) can0 69E#044004821FC01582
(1000000000.726390) can0 125#9000415F437D3560
(1000000000.727352) can0 FFF#0000000000000000
(1000000000.728428) can0 FFF#0000000000000000
(1000000000.728430) can0 0F4#9A0C010204B10240
(1000000000.729420) can0 6E0#0179017701770175
(1000000000.730471) can0 153#00000000000C0002
(1000000000.730472) can0 295#0000000000001840
(1000000000.731410) can0 662#4EA0000040000000
(1000000000.731412) can0 107#0000000000000000
(1000000000.731413) can0 FFF#0000000000000000
(1000000000.731414) can0 19C#029E200BC20028A0
(1000000000.732491) can0 0D0#0A7504644D01AD00
(1000000000.732492) can0 033#0007D8000C4007D0
(1000000000.732493) can0 274#00F221FB507C8E3B
(1000000000.732494) can0 0C0#6000000000000000
(1000000000.733488) can0 0BA#06B8094410000488
(1000000000.734492) can0 354#200880000002CA00
(1000000000.734493) can0 5E1#893FE00B0A00C480
(1000000000.735484) can0 28B#0000000000000000
(1000000000.735485) can0 00E#20525602080975DE
(1000000000.735486) can0 0A7#0010FB24C12DB0A0
(1000000000.735487) can0 2D2#0000380000000000
(1000000000.736526) can0 277#1E018000000000F0
(1000000000.736528) can0 125#9000415F437D1760
(1000000000.737552) can0 26E#0106408288EA0A04
(1000000000.738578) can0 FFF#0000000000000000
(1000000000.738580) can0 4CB#8000000000000000
(1000000000.738581) can0 4FD#11290A4D37084A88
(1000000000.739560) can0 280#18E0027000000000
(1000000000.739562) can0 193#00080803E8880000
(1000000000.739563) can0 20E#4E2003A0D7BFAFFF
(1000000000.739564) can0 522#DF7FD0007CB0001C
(1000000000.740591) can0 366#80DDC8020147CE38
(1000000000.740592) can0 580#00000003CB080000
(1000000000.740593) can0 0D0#127504644C01AD00
(1000000000.740594) can0 033#0007D0000C8007D0
(1000000000.741615) can0 434#012620AD72237C20
(1000000000.741616) can0 6E0#0179017701780177
(1000000000.741617) can0 498#87FFBFFC3E806C0D
(1000000000.742614) can0 230#F9000002F4000C00
(1000000000.743614) can0 3C1#7B551FBA8D18E92E
(1000000000.744650) can0 2E1#0000000000000004
(1000000000.744651) can0 354#2008C0000002B300
(1000000000.744652) can0 5E1#893FE00B0A00C080
(1000000000.745656) can0 00E#20525602080975DE
(1000000000.745657) can0 162#00080323EA11F4CE
(1000000000.745658) can0 0A7#0010F8A4C12DC0A0
(1000000000.745659) can0 3A2#000000000401E000
(1000000000.746673) can0 69E#0440048220001582
(1000000000.746675) can0 125#9000415F437CF960
(1000000000.748640) can0 6E0#0179017601780177
(1000000000.750159) can0 153#00000000000C0002
(1000000000.751133) can0 662#4EA0000040000000
(1000000000.751135) can0 19C#069A200BC20028A0
(1000000000.751136) can0 107#0000000000000000
(1000000000.751137) can0 FFF#0000000000000000
(1000000000.752175) can0 0D0#1A7504644901AF00
(1000000000.752177) can0 033#0007C8000CC007D0
(1000000000.752178) can0 274#00F223F9507C8E3B
(1000000000.752179) can0 0C0#6000000000000000
(1000000000.754072) can0 354#2008C0000002A400
(1000000000.755092) can0 5E1#893FE00B0A00C480
(1000000000.755094) can0 28B#0000000000000000
(1000000000.755095) can0 0A7#0010F8A4C12DB0A0
(1000000000.755096) can0 00E#20525602080975DE
(1000000000.756091) can0 407#50015FF014C0BD60
(1000000000.756092) can0 125#9000415F437CDB60
(1000000000.757893) can0 FFF#0000000000000000
(1000000000.758883) can0 193#00080803E8880000
(1000000000.759923) can0 20E#4E2003A0D83F8FFF
(1000000000.759925) can0 522#DF7FD0007C38001C
(1000000000.759926) can0 366#80DDC8020147CE38
(1000000000.760925) can0 580#00000003C3880000
(1000000000.760926) can0 295#0000000000001840
(1000000000.760927) can0 0D0#227504644801AF00
(1000000000.760928) can0 033#0007C0000D0007D0
(1000000000.760929) can0 434#014680AD92338C40
(1000000000.761937) can0 6E0#01780176017A0178
(1000000000.761939) can0 1C4#0000020000C00000
(1000000000.761940) can0 2A4#2020031C040898D0
(1000000000.761941) can0 67D#0018600208082226
(1000000000.762942) can0 498#87FFBFFC3B806C8E
(1000000000.762944) can0 32D#00000420AC010020
(1000000000.762945) can0 230#F8000002F4000E00
(1000000000.763964) can0 3B9#2004720000005C42
(1000000000.764906) can0 2E1#0000000000000004
(1000000000.764909) can0 354#2008C0000002A400
(1000000000.764910) can0 5E1#893FE00B0A00C480
(1000000000.764917) can0 00E#20525602080975EA
(1000000000.766013) can0 162#00080323EA11F4CE
(1000000000.766014) can0 0A7#0010FB24C12DB0A0
(1000000000.766015) can0 69E#0440048220001582
(1000000000.767011) can0 21D#0000000000010000
(1000000000.767012) can0 125#9000415F437CBD60
(1000000000.768213) can0 3C1#7B551FBB4BD9692E
(1000000000.769226) can0 6E0#01780175017A017A
(1000000000.770230) can0 4E7#0000001503670000
(1000000000.771257) can0 153#00000000000C0002
(1000000000.771265) can0 FFF#0000000000000000
(1000000000.771266) can0 107#0000000000000000
(1000000000.771267) can0 FFF#0000000000000000
(1000000000.772262) can0 662#4EA0000040000000
(1000000000.772263) can0 684#54D677D94154901E
(1000000000.772264) can0 636#249C7980EF844000
(1000000000.772265) can0 2D7#100060D800000008
(1000000000.773298) can0 19C#0A9A200B420028A0
(1000000000.773299) can0 0D0#2A7504644501B100
(1000000000.773300) can0 033#0007B8000D4007D0
(1000000000.773301) can0 274#00F225F7507C8E3B
(1000000000.773302) can0 0C0#6000000000000000
(1000000000.774315) can0 0BA#06B8094410000488
(1000000000.774317) can0 3E4#00CC000085000000
(1000000000.774318) can0 65C#4008E27530000000
(1000000000.774319) can0 354#2008C00000029C80
(1000000000.775347) can0 5E1#893FE00B0A00C080
(1000000000.775349) can0 28B#0000000000000000
(1000000000.775351) can0 00E#20525602080975E4
(1000000000.775352) can0 2E2#18080D4040000118
(1000000000.776332) can0 345#050202C23C774081
(1000000000.776334) can0 430#0032448BEA8011A0
(1000000000.776335) can0 125#9000415F437C9F60
(1000000000.776335) can0 0A7#0010FB24C12DC0A0
(1000000000.777374) can0 130#0001500000000000
(1000000000.777376) can0 03D#0000050000000000
(1000000000.777377) can0 577#000008000000014C
(1000000000.778359) can0 FFF#0000000000000000
(1000000000.779355) can0 193#00080803E8880000
(1000000000.779357) can0 20E#4E2003A0D8BF8FF7
(1000000000.779359) can0 522#DF7FD0007BC0001C
(1000000000.780378) can0 366#80DDC8020147CE38
(1000000000.780379) can0 580#00000003BC080000
(1000000000.780380) can0 434#016860ADA253AC50
(1000000000.780381) can0 0D0#327504644401B100
(1000000000.781399) can0 033#0007B0000D8007D0
(1000000000.781401) can0 6E0#01780175017B017A
(1000000000.781402) can0 498#87FFBFFC38806D0F
(1000000000.781403) can0 464#0002400000901B53
(1000000000.782387) can0 230#F7000002F4001000
(1000000000.782388) can0 419#0A9B464D045FC2CF
(1000000000.782389) can0 66C#0000000018000000
(1000000000.784073) can0 2E1#0000000000000004
(1000000000.785086) can0 354#2008C00000028D80
(1000000000.785089) can0 5E1#893FE00B0A00C080
(1000000000.785090) can0 00E#20525602080975DE
(1000000000.785091) can0 162#00080323EA11F4CE
(1000000000.786110) can0 0A7#0010F824C12DC0A0
(1000000000.786111) can0 55C#101B000041823000
(1000000000.786112) can0 69E#044004821FC01582
(1000000000.786113) can0 125#9000415F437E6160
(1000000000.788572) can0 4FD#11250A4C3307CA88
(1000000000.789549) can0 6E0#01770174017B017B
(1000000000.790591) can0 153#00000000000C0002
(1000000000.790592) can0 295#0000000000001840
(1000000000.791607) can0 662#4EA0000040000000
(1000000000.791608) can0 107#0000000000000000
(1000000000.791609) can0 FFF#0000000000000000
(1000000000.791610) can0 19C#0E96200B420028A0
(1000000000.791611) can0 0D0#3A7504644101B300
(1000000000.792608) can0 033#0007A8000DC007D0
(1000000000.792610) can0 274#00F227F5507C8E37
(1000000000.792611) can0 0C0#6000000000000000
(1000000000.793622) can0 3C1#7B551FBB8ADA292E
(1000000000.794653) can0 354#2008C00000028D80
(1000000000.794655) can0 5E1#893FE00B0A00C480
(1000000000.794656) can0 585#0040000000020018
(1000000000.795656) can0 00E#20525602080975F6
(1000000000.795658) can0 28B#0000000000000000
(1000000000.795659) can0 0A7#0010F924C12DC0A0
(1000000000.795660) can0 1CA#3FF1FF8000000C28
(1000000000.796668) can0 125#9000415F437E4360
(1000000000.798003) can0 FFF#0000000000000000
(1000000000.798968) can0 2C1#01F32FC7C99F30D0
(1000000000.798969) can0 193#00080803E8880000
(1000000000.798970) can0 20E#4E2003A0D8BF6FF7
(1000000000.800025) can0 522#DF7FD0007B48001C
(1000000000.800026) can0 366#80DDC8020147CE38
(1000000000.800027) can0 580#00000003B4880000
(1000000000.800028) can0 434#0186C0ADC263BC60
(1000000000.801025) can0 0D0#427504644001B300
(1000000000.801026) can0 033#0007A0000E0007D0
(1000000000.801027) can0 6E0#01770174017C017B
(1000000000.801028) can0 498#87FFBFFC45806D80
(1000000000.802005) can0 230#F6000002F4001200
(1000000000.804122) can0 2E1#0000000000000004
(1000000000.805111) can0 354#2008C00000028600
(1000000000.805113) can0 5E1#893FE00B0A00C480
(1000000000.805114) can0 00E#20525602080975EA
(1000000000.805115) can0 162#00080323EA11F4CE
(1000000000.806130) can0 0A7#0010FBA4C12DC0A0
(1000000000.806131) can0 2A3#0000008410803C10
(1000000000.806132) can0 69E#044004821FC01582
(1000000000.806133) can0 125#9000415F437E2560
(1000000000.808188) can0 5FD#BDDDFD807EFFEDDA
(1000000000.809204) can0 6E0#01740175017C017D
(1000000000.810210) can0 153#00000000000C0002
(1000000000.811231) can0 662#4EA0000040000000
(1000000000.811232) can0 19C#1292200B420028A0
(1000000000.811233) can0 107#0000000000000000
(1000000000.811234) can0 FFF#0000000000000000
(1000000000.812233) can0 0D0#4A7504643D01B500
(1000000000.812234) can0 033#000798000E4007D0
(1000000000.812235) can0 274#00F229F3507C8E37
(1000000000.812237) can0 0C0#6000000000000000
(1000000000.813244) can0 0BA#06B8094410000488
(1000000000.813246) can0 51B#0802874D07580001
(1000000000.813247) can0 32D#00000420AC010020
(1000000000.814236) can0 354#2008C00000028600
(1000000000.815295) can0 5E1#893FE00B0A00C080
(1000000000.815296) can0 28B#0000000000000000
(1000000000.815297) can0 00E#20525602080975DE
(1000000000.815298) can0 6FC#0000075E32B90000
(1000000000.816313) can0 0A7#0010FB24C12DD0A0
(1000000000.816314) can0 239#0000006BE0004360
(1000000000.816315) can0 125#9000415F437E0760
(1000000000.816316) can0 FFF#0000000000000000
(1000000000.817311) can0 2B4#14E9750000005800
(1000000000.818333) can0 5B3#0400000000000400
(1000000000.818335) can0 FFF#0000000000000000
(1000000000.818336) can0 3C1#7B551FBB4A9AA92E
(1000000000.819331) can0 0FD#0000010080100000
(1000000000.819333) can0 03C#000004002B000000
(1000000000.819334) can0 193#00080803E8880000
(1000000000.819335) can0 20E#4E2003A0D93F8FFF
(1000000000.820357) can0 FFF#0000000000000000
(1000000000.820359) can0 522#DF7FD0007AD0001C
(1000000000.820360) can0 366#80DDC8020147CE38
(1000000000.820360) can0 295#0000000000001840
(1000000000.821367) can0 0D0#527504643C01B500
(1000000000.821369) can0 033#000790000E8007D0
(1000000000.821370) can0 580#00000003AD080000
(1000000000.821371) can0 434#01A600ADD273DC80
(1000000000.822399) can0 6E0#01740175017F017D
(1000000000.822401) can0 0D7#0000020080000000
(1000000000.822402) can0 498#87FFBFFC42806E01
(1000000000.822402) can0 207#040460482ADED518
(1000000000.822403) can0 4C9#01F915820D02F64B
(1000000000.823328) can0 1D6#020F828030240580
(1000000000.823330) can0 1A4#00000002ECCC0000
(1000000000.823331) can0 577#000008000000014C
(1000000000.823332) can0 230#F5000002F4001400
(1000000000.824415) can0 2E1#0000000000000004
(1000000000.824416) can0 354#2008C00000027700
(1000000000.825437) can0 5E1#893FE00B0A00C080
(1000000000.825439) can0 00E#20525602080975DE
(1000000000.825445) can0 162#00080323EA11F4CE
(1000000000.825446) can0 0A7#0010F8A4C12DD0A0
(1000000000.826456) can0 497#0000000000000000
(1000000000.826457) can0 69E#044004811FC01582
(1000000000.826458) can0 125#9000415F437DE960
(1000000000.827431) can0 FFF#0000000000000000
(1000000000.828478) can0 FFF#0000000000000000
(1000000000.828479) can0 0F4#9A0C010204B10240
(1000000000.829490) can0 6E0#01750174017F017E
(1000000000.830500) can0 153#00000000000C0002
(1000000000.830502) can0 662#4EA0000040000000
(1000000000.831453) can0 19C#168E200B420028A0
(1000000000.831454) can0 107#0000000000000000
(1000000000.831455) can0 FFF#0000000000000000
(1000000000.831456) can0 0D0#5A7504643901B700
(1000000000.832502) can0 033#000788000EC007D0
(1000000000.832503) can0 274#00F22BF1507C8E37
(1000000000.832504) can0 0C0#6000000000000000
(1000000000.834093) can0 354#2008C0000002E000
(1000000000.835103) can0 5E1#893FE00B0A00C480
(1000000000.835104) can0 28B#0000000000000000
(1000000000.835105) can0 00E#20525602080975EA
(1000000000.835106) can0 0A7#0010F924C12DD0A0
(1000000000.836105) can0 2D2#0000400000000000
(1000000000.836107) can0 125#9000415F437DCB60
(1000000000.837120) can0 26E#0106408288EA0A04
(1000000000.838136) can0 FFF#0000000000000000
(1000000000.839146) can0 4FD#11250A4C3307CA88
(1000000000.839148) can0 193#00080803E8880000
(1000000000.839149) can0 20E#4E2003A0D93F8FF7
(1000000000.840164) can0 522#DF7FD0007A58001C
(1000000000.840165) can0 366#80DDC8020147CE38
(1000000000.840166) can0 580#00000003A5880000
(1000000000.840167) can0 434#01C640ADE293EC90
(1000000000.841163) can0 0D0#627504643801B700
(1000000000.841165) can0 033#000780000F0007D0
(1000000000.841166) can0 6E0#017501740180017E
(1000000000.841166) can0 498#87FFBFFC40806E42
(1000000000.842179) can0 230#F4000002F4001600
(1000000000.843203) can0 3C1#7B551FBB0A1B692E
(1000000000.844200) can0 2E1#0000000000000004
(1000000000.845226) can0 354#2008C0000002E000
(1000000000.845228) can0 5E1#893FE00B0A00C480
(1000000000.845230) can0 00E#20525602080975EA
(1000000000.845231) can0 162#00080323EA11F4CE
(1000000000.846225) can0 0A7#0010FB24C12DD0A0
(1000000000.846227) can0 69E#044004811FC01582
(1000000000.846228) can0 125#9000415F437DAD60
(1000000000.848649) can0 6E0#0177017201820180
(1000000000.850130) can0 153#00000000000C0002
(1000000000.851142) can0 295#0000000000001840
(1000000000.851144) can0 662#4EA0000040000000
(1000000000.851145) can0 19C#1A8A200B420028A0
(1000000000.851146) can0 107#0000000000000000
(1000000000.852062) can0 FFF#0000000000000000
(1000000000.852064) can0 655#E403FC0008000000
(1000000000.852065) can0 0D0#6A7504643601B800
(1000000000.852066) can0 033#000778000F4007D0
(1000000000.853161) can0 274#00F22DEF507C8E37
(1000000000.853162) can0 0C0#6000000000000000
(1000000000.853163) can0 0BA#06B8094410000488
(1000000000.854156) can0 354#200900000002D080
(1000000000.855179) can0 5E1#893FE00B0A00C080
(1000000000.855181) can0 28B#0000000000000000
(1000000000.855182) can0 00E#20525602080975D8
(1000000000.855183) can0 0A7#0010FB24C12DD0A0
(1000000000.856196) can0 407#50015FF014C0BD60
(1000000000.856197) can0 125#9000415F437D8F60
(1000000000.857962) can0 FFF#0000000000000000
(1000000000.858951) can0 193#00080803E8880000
(1000000000.859996) can0 20E#4E2003A0D9BF4FFF
(1000000000.859998) can0 522#DF7FD00079E0001C
(1000000000.860000) can0 366#80DDC8020147CE38
(1000000000.860006) can0 580#000000039E080000
(1000000000.860992) can0 0D0#727504643501B800
(1000000000.860994) can0 033#000770000F8007D0
(1000000000.860995) can0 434#01E5A0AE02A3FCB0
(1000000000.860996) can0 6E0#0177017201820180
(1000000000.862017) can0 498#87FFBFFC3C806F03
(1000000000.862019) can0 32D#00000420AC010020
(1000000000.863015) can0 230#F3000002F4001800
(1000000000.864096) can0 2E1#0000000000000004
(1000000000.865091) can0 354#200900000002C180
(1000000000.865093) can0 5E1#893FE00B0A00C080
(1000000000.865094) can0 00E#20525602080975DE
(1000000000.865095) can0 162#00080313EA11F4CE
(1000000000.866116) can0 0A7#0010F8A4C12DD0A0
(1000000000.866118) can0 69E#0440048120001582
(1000000000.866119) can0 125#9000415F437D7160
(1000000000.868183) can0 3C1#7B551FBB495BE92E
(1000000000.869163) can0 6E0#0176017201820181
(1000000000.870200) can0 4E7#0000001503670000
(1000000000.871226) can0 153#00000000000C0002
(1000000000.871227) can0 FFF#0000000000000000
(1000000000.871228) can0 662#4EA0000040000000
(1000000000.871229) can0 107#0000000000000000
(1000000000.872238) can0 FFF#0000000000000000
(1000000000.872240) can0 684#54D677D94154901E
(1000000000.872241) can0 636#249C7980EF845000
(1000000000.872241) can0 2D7#100060D800000008
(1000000000.873243) can0 19C#1E88200B020028A0
(1000000000.873245) can0 0D0#7A7504643101BB00
(1000000000.873246) can0 033#000768000FC007D0
(1000000000.873247) can0 274#00F22FED507C8E37
(1000000000.874257) can0 0C0#6000000000000000
(1000000000.874259) can0 3E4#00CC000085000000
(1000000000.874260) can0 65C#4008E27530000000
(1000000000.874261) can0 577#000008000000014C
(1000000000.874262) can0 354#200900000002C180
(1000000000.875260) can0 5E1#893FE00B0A00C080
(1000000000.875262) can0 28B#0000000000000000
(1000000000.875263) can0 00E#20525602080975EA
(1000000000.875264) can0 2E2#18080D4040000118
(1000000000.876282) can0 345#050202C23C774081
(1000000000.876283) can0 430#0032448BEA8011A0
(1000000000.876284) can0 125#9000415F437D5360
(1000000000.876285) can0 0A7#0010F924C12DD0A0
(1000000000.877283) can0 130#0001500000000000
(1000000000.877285) can0 03D#0000050000000000
(1000000000.878304) can0 FFF#0000000000000000
(1000000000.879328) can0 193#00080803E8880000
(1000000000.879329) can0 20E#4E2003A0DA3F6FFF
(1000000000.879330) can0 522#DF7FD0007968001C
(1000000000.880324) can0 366#80DDC8020147CE38
(1000000000.880325) can0 580#0000000396880000
(1000000000.880326) can0 434#020820AE12C41CC0
(1000000000.880327) can0 295#0000000000001840
(1000000000.881348) can0 0D0#027504644001BB00
(1000000000.881349) can0 033#0007E0000C0007D0
(1000000000.881350) can0 6E0#0176017201820181
(1000000000.881351) can0 498#87FFBFFC3A806F44
(1000000000.882360) can0 464#0002400000901A54
(1000000000.882363) can0 230#F2000002F4001A00
(1000000000.882364) can0 0F8#7EDFF4FD49FBA7B8
(1000000000.882365) can0 66C#0000000018000000
(1000000000.883352) can0 618#FB7DBEFFF777BFDD
(1000000000.884408) can0 2E1#0000000000000004
(1000000000.884409) can0 354#200900000002BA00
(1000000000.885406) can0 5E1#893FE00B0A00C480
(1000000000.885408) can0 00E#20525602080975EA
(1000000000.885409) can0 162#00080313EA11F4CE
(1000000000.885410) can0 0A7#0010FB24C12DD0A0
(1000000000.886426) can0 69E#044004811FC01582
(1000000000.886428) can0 125#9000415F437D3560
(1000000000.888540) can0 4FD#11260A4C3507CA88
(1000000000.889552) can0 6E0#0176017401820182
(1000000000.890572) can0 153#00000000000C0002
(1000000000.890574) can0 662#4EA0000040000000
(1000000000.891577) can0 19C#02A4200B020028A0
(1000000000.891578) can0 0D0#0A7504643E01BC00
(1000000000.891579) can0 107#0000000000000000
(1000000000.891580) can0 FFF#0000000000000000
(1000000000.892616) can0 033#0007D8000C4007D0
(1000000000.892618) can0 274#00F221FB507C8E35
(1000000000.892619) can0 0C0#6000000000000000
(1000000000.892620) can0 0BA#06B8094410000488
(1000000000.892621) can0 FFF#0000000000000000
(1000000000.893616) can0 3C1#7B551FBB489CA92E
(1000000000.894633) can0 585#0040000000020018
(1000000000.894635) can0 354#200900000002BA00
(1000000000.894636) can0 5E1#893FE00B0A00C080
(1000000000.895619) can0 00E#20525602080975E4
(1000000000.895622) can0 28B#0000000000000000
(1000000000.895623) can0 0A7#0010FB24C12DD0A0
(1000000000.895624) can0 1CA#3FF1FF8000000C28
(1000000000.896652) can0 125#9000415F437D1760
(1000000000.897927) can0 FFF#0000000000000000
(1000000000.898946) can0 193#00080803E8880000
(1000000000.899961) can0 20E#4E2003A0DABF6FFF
(1000000000.899963) can0 522#DF7FD00078F0001C
(1000000000.899964) can0 366#80DDC8020147CE38
(1000000000.900931) can0 580#000000038F080000
(1000000000.900933) can0 0D0#127504643D01BC00
(1000000000.900934) can0 033#0007D0000C8007D0
(1000000000.900935) can0 434#022820AE42D42CE0
(1000000000.900936) can0 6E0#0176017401820183
(1000000000.901973) can0 498#87FFBFFC38806F85
(1000000000.901974) can0 230#F1000002F4001C00
(1000000000.903080) can0 2C1#01F34FC7CB9F10E6
(1000000000.904111) can0 2E1#0000000000000004
(1000000000.905128) can0 354#200900000002AB00
(1000000000.905130) can0 5E1#893FE00B0A00C080
