(1170000000.000000) can0 69E#0440047E1FC01542
(1170000000.000983) can0 125#90002DDF20385D60
(1170000000.000984) can0 6E0#0000000000000000
(1170000000.000985) can0 107#0000000000000000
(1170000000.002008) can0 FFF#0000000000000000
(1170000000.002010) can0 0BA#06A811C410000862
(1170000000.002011) can0 273#0000000800000000
(1170000000.002012) can0 1C4#0000020001800000
(1170000000.003028) can0 2A4#36DC001C040898D0
(1170000000.003029) can0 FFF#0000000000000000
(1170000000.003030) can0 00E#2053160208097556
(1170000000.003031) can0 371#0106000000000880
(1170000000.003988) can0 67D#0018600208000220
(1170000000.003989) can0 51B#281A3209B28180C1
(1170000000.003990) can0 32D#00000420A8010020
(1170000000.003991) can0 0CC#43411FB238AF622E
(1170000000.005064) can0 FFF#0000000000000000
(1170000000.005066) can0 3C1#7B551FBB9113E92E
(1170000000.005067) can0 295#0000000000000040
(1170000000.006046) can0 0D0#0A710460FB000000
(1170000000.006047) can0 2E1#0000000000000004
(1170000000.006048) can0 354#1FFF400000041800
(1170000000.006049) can0 5E1#893FE00B0A000080
(1170000000.007041) can0 033#0007D8000C4007D0
(1170000000.007045) can0 162#00080003EA11F4CE
(1170000000.007046) can0 0A7#2010FA24F12B60A0
(1170000000.008042) can0 66C#0080100018000020
(1170000000.009935) can0 125#90002DDF20383F60
(1170000000.010956) can0 193#00080803E4980000
(1170000000.010957) can0 20E#4E2003A0003F4FFF
(1170000000.010958) can0 522#DF7FD1EF0C30F0DC
(1170000000.010959) can0 366#7FDDC8020147CE78
(1170000000.011956) can0 580#00000003CB080000
(1170000000.011957) can0 434#032AA0AADB1BDCE0
(1170000000.011958) can0 6E0#0000000000000000
(1170000000.011959) can0 498#84002000F180000B
(1170000000.013016) can0 230#18001EF29C000C00
(1170000000.013017) can0 00E#2053160208097556
(1170000000.014041) can0 4FD#11210A502D06CA08
(1170000000.015102) can0 FFF#0000000000000000
(1170000000.016116) can0 153#00000004000C0004
(1170000000.016118) can0 354#1FFF400000040900
(1170000000.016124) can0 5E1#893FE00B0A000080
(1170000000.016135) can0 662#4E20000040000000
(1170000000.017128) can0 28B#0000000000000000
(1170000000.017129) can0 19C#04FA200002002890
(1170000000.017130) can0 0D0#12710460FA000000
(1170000000.017131) can0 033#0007D0000C8007D0
(1170000000.018160) can0 274#00F202FD107C81DD
(1170000000.018161) can0 0C0#0000000000000000
(1170000000.018162) can0 0A7#2010FA24F12B60A0
(1170000000.018163) can0 03D#0000240000000000
(1170000000.020024) can0 69E#0440047D1FC01542
(1170000000.020946) can0 125#90002DDF203A0160
(1170000000.020947) can0 6E0#0000000000000000
(1170000000.020948) can0 107#0000000000000000
(1170000000.022042) can0 FFF#0000000000000000
(1170000000.022043) can0 30A#402C200197E41200
(1170000000.023011) can0 00E#2052D6020809755C
(1170000000.024050) can0 FFF#0000000000000000
(1170000000.024051) can0 FFF#0000000000000000
(1170000000.024052) can0 FFF#0000000000000000
(1170000000.025004) can0 0D0#1A710460F9000000
(1170000000.026040) can0 033#0007C8000CC007D0
(1170000000.026041) can0 2E1#0000000000000004
(1170000000.026042) can0 FFF#0000000000000000
(1170000000.026043) can0 FFF#0000000000000000
(1170000000.027004) can0 0F4#9A0C010204B10240
(1170000000.027005) can0 354#1FFF40000003FA00
(1170000000.027006) can0 5E1#893FE00B0A000080
(1170000000.027007) can0 162#00080003EA11F4CE
(1170000000.028050) can0 0A7#2010FA24F12B60A0
(1170000000.028051) can0 55C#101B000041823000
(1170000000.028052) can0 577#0000080000000144
(1170000000.029071) can0 3B9#2004720000005C42
(1170000000.030083) can0 3C1#7B551FBBD054692E
(1170000000.031104) can0 193#00080803E4980000
(1170000000.031105) can0 20E#4E2003A0003F4FFF
(1170000000.031106) can0 522#DF7FD1EF0BB8F0DC
(1170000000.031107) can0 21D#0000000000010000
(1170000000.032150) can0 125#90002DDF2039E360
(1170000000.032152) can0 366#7FDDC8020147CE78
(1170000000.032153) can0 580#00000003C3880000
(1170000000.032154) can0 434#034AA0AADB1BDCE0
(1170000000.033151) can0 6E0#0000000000000000
(1170000000.033152) can0 00E#2053160208097556
(1170000000.033153) can0 498#84002000F080000C
(1170000000.033154) can0 464#0002400000900E9F
(1170000000.034177) can0 230#17001EF29C000E00
(1170000000.035205) can0 03C#000004002A000000
(1170000000.035206) can0 207#0400204028DEE118
(1170000000.035207) can0 153#00000004000C0004
(1170000000.036228) can0 354#1FFF40000003FA00
(1170000000.036230) can0 5E1#893FE00B0A000080
(1170000000.036231) can0 295#0000000000000040
(1170000000.036232) can0 662#4E20000040000000
(1170000000.037166) can0 28B#0000000000000000
(1170000000.037168) can0 19C#08F6200002002890
(1170000000.037170) can0 0D0#22710460F8000000
(1170000000.037171) can0 033#0007C0000D0007D0
(1170000000.038166) can0 274#00F204FB107C81DD
(1170000000.038167) can0 0C0#0000000000000000
(1170000000.038168) can0 0A7#2010FA24F12B60A0
(1170000000.038169) can0 1CA#3FF9FF8000000C38
(1170000000.039209) can0 FFF#0000000000000000
(1170000000.039211) can0 4C9#01F915820D02F60B
(1170000000.039228) can0 1D6#020D828030240500
(1170000000.039229) can0 585#0040000000020018
(1170000000.040255) can0 69E#0440047D1FC01562
(1170000000.040257) can0 125#90002DDF2039C560
(1170000000.041271) can0 6E0#0000000000000000
(1170000000.041273) can0 107#0000000000000000
(1170000000.041274) can0 FFF#0000000000000000
(1170000000.042285) can0 0BA#06A811C410000862
(1170000000.043307) can0 00E#205316020809755C
(1170000000.044566) can0 2C1#01F34FC7CA9F54A6
(1170000000.045562) can0 0D7#0000020080000000
(1170000000.045563) can0 0D0#2A710460F7000000
(1170000000.045564) can0 2E1#0000000000000004
(1170000000.046526) can0 354#1FFF40000003F280
(1170000000.046528) can0 5E1#893FE00B0A000080
(1170000000.046529) can0 033#0007B8000D4007D0
(1170000000.046530) can0 162#00080003EA11F4CE
(1170000000.047601) can0 0A7#2010FA24F12B60A0
(1170000000.047603) can0 2A3#00000003FE802C00
(1170000000.049994) can0 125#90002DDF2039A760
(1170000000.051001) can0 193#00080803E4980000
(1170000000.051002) can0 20E#4E2003A0003F4FFF
(1170000000.051003) can0 522#DF7FD1EF0B40F0DC
(1170000000.051004) can0 366#7FDDC8020147CE78
(1170000000.051935) can0 1E5#01460405A841A3E0
(1170000000.051936) can0 580#00000003BC080000
(1170000000.051937) can0 434#036AA0AADB1BDCE0
(1170000000.051938) can0 6E0#0000000000000000
(1170000000.052966) can0 2B4#12CBF20000005800
(1170000000.052967) can0 498#84002000EF80000D
(1170000000.052968) can0 00E#2053160208097556
(1170000000.052969) can0 32D#00000420A8010020
(1170000000.053943) can0 230#16001EF29C001000
(1170000000.055048) can0 3C1#7B551FBC0F55292E
(1170000000.055050) can0 FFF#0000000000000000
(1170000000.056056) can0 153#00000004000C0004
(1170000000.056057) can0 354#1FFF40000003F280
(1170000000.056058) can0 5E1#893FE00B0A000080
(1170000000.056059) can0 662#4E20000040000000
(1170000000.057044) can0 28B#0000000000000000
(1170000000.057045) can0 19C#0CF2200002002890
(1170000000.057046) can0 0D0#32710460F6000000
(1170000000.057047) can0 033#0007B0000D8007D0
(1170000000.058105) can0 274#00F206F9107C81DD
(1170000000.058107) can0 0C0#0000000000000000
(1170000000.058108) can0 6FC#00000755B0B75820
(1170000000.058109) can0 0A7#2010FA24F12B60A0
(1170000000.059102) can0 239#0000007D000040A0
(1170000000.060125) can0 69E#0440047D1FC01542
(1170000000.061124) can0 125#90002DDF20398960
(1170000000.061126) can0 6E0#0000000000000000
(1170000000.061127) can0 107#0000000000000000
(1170000000.062126) can0 FFF#0000000000000000
(1170000000.062128) can0 0F1#42101D4003D9D400
(1170000000.063159) can0 00E#2053160208097556
(1170000000.063160) can0 2E2#18080D4040000118
(1170000000.063161) can0 345#050202C23C774081
(1170000000.064155) can0 430#003F448C588010A0
(1170000000.064156) can0 130#0001600000000000
(1170000000.064157) can0 4FD#11250A503307CA08
(1170000000.065172) can0 295#0000000000000040
(1170000000.066202) can0 0D0#3A710460F5000000
(1170000000.066203) can0 2E1#0000000000000004
(1170000000.066204) can0 354#1FFF40000003E380
(1170000000.066205) can0 5E1#893FE00B0A000080
(1170000000.067196) can0 033#0007A8000DC007D0
(1170000000.067198) can0 162#00080003EA11F4CE
(1170000000.067199) can0 0A7#2010FA24E12B60A0
(1170000000.067199) can0 497#0000000000000000
(1170000000.070026) can0 125#90002DDF20396B60
(1170000000.071031) can0 FFF#0000000000000000
(1170000000.071033) can0 193#00080803E4980000
(1170000000.071034) can0 20E#4E2003A0003F6FFF
(1170000000.071035) can0 522#DF7FD1EF0AC8F0DC
(1170000000.072031) can0 366#7FDDC8020147CE78
(1170000000.072033) can0 580#00000003B4880000
(1170000000.072034) can0 434#0382A0AADB1BDCE0
(1170000000.072035) can0 6E0#0000000000000000
(1170000000.073018) can0 498#84002000EE80000E
(1170000000.073019) can0 230#15001EF29C001200
(1170000000.073020) can0 00E#205316020809755C
(1170000000.075073) can0 4E7#00000013037D0000
(1170000000.076093) can0 153#00000004000C0004
(1170000000.076094) can0 354#1FFF40000003DC00
(1170000000.076095) can0 FFF#0000000000000000
(1170000000.076096) can0 5E1#893FE00B0A000080
(1170000000.077054) can0 662#4E20000040000000
(1170000000.077056) can0 684#58DC8019416DD01E
(1170000000.077057) can0 636#249C0000F08DA000
(1170000000.077057) can0 2D7#100060D800000008
(1170000000.078114) can0 28B#0000000000000000
(1170000000.078117) can0 19C#10EE200002002890
(1170000000.078118) can0 0D0#42710460F4000000
(1170000000.078119) can0 033#0007A0000E0007D0
(1170000000.079137) can0 274#00F208F7107C81DD
(1170000000.079138) can0 0C0#0000000000000000
(1170000000.079139) can0 0A7#2010FA24F12B60A0
(1170000000.079140) can0 2D2#0000500000000000
(1170000000.080137) can0 FFF#0000000000000000
(1170000000.080139) can0 3E4#00FC000005000000
(1170000000.080140) can0 3C1#7B551FBB4F55E92E
(1170000000.080140) can0 65C#400D527690000000
(1170000000.080141) can0 69E#0440047E1FC01542
(1170000000.081140) can0 125#90002DDF20394D60
(1170000000.081142) can0 6E0#0000000000000000
(1170000000.081143) can0 577#0000080000000144
(1170000000.081144) can0 107#0000000000000000
(1170000000.082159) can0 FFF#0000000000000000
(1170000000.082161) can0 0BA#06A811C410000866
(1170000000.082162) can0 041#8022002001000000
(1170000000.083177) can0 26E#0106408289460A04
(1170000000.083178) can0 00E#2053160208097550
(1170000000.084982) can0 0D0#4A710460F3000000
(1170000000.086019) can0 033#000798000E4007D0
(1170000000.086020) can0 2E1#0000000000000004
(1170000000.086021) can0 354#1FFF40000003DC00
(1170000000.086022) can0 5E1#893FE00B0A000080
(1170000000.087004) can0 162#00080003EA11F4CE
(1170000000.087005) can0 0A7#2010FA24E12B60A0
(1170000000.089823) can0 5B3#0400000000000400
(1170000000.090843) can0 125#90002DDF20392F60
(1170000000.090844) can0 193#00080803E4980000
(1170000000.090845) can0 20E#4E2003A0003F6FFF
(1170000000.090846) can0 522#DF7FD1EF0A50F0DC
(1170000000.091843) can0 366#7FDDC8020147CE78
(1170000000.091845) can0 580#00000003AD080000
(1170000000.091846) can0 434#03AAA0AADB1BDCE0
(1170000000.091847) can0 6E0#0000000000000000
(1170000000.092871) can0 498#84002000ED80000F
(1170000000.092873) can0 230#14001EF29C001400
(1170000000.092874) can0 00E#2053160208097550
(1170000000.093883) can0 2B4#12CBF20000005800
(1170000000.095053) can0 153#00000004000C0004
(1170000000.096078) can0 295#0000000000000040
(1170000000.096079) can0 354#1FFF40000003CD00
(1170000000.096080) can0 5E1#893FE00B0A000080
(1170000000.096081) can0 662#4E20000040000000
(1170000000.097074) can0 28B#0000000000000000
(1170000000.097076) can0 19C#14EA200002002890
(1170000000.097077) can0 0D0#52710460F2000000
(1170000000.097078) can0 033#000790000E8007D0
(1170000000.098123) can0 274#00F20AF5107C81DD
(1170000000.098125) can0 0C0#0000000000000000
(1170000000.098126) can0 0A7#2010FA24F12B60A0
(1170000000.098127) can0 407#4000DFF01C802A20
(1170000000.099120) can0 FFF#0000000000000000
(1170000000.100146) can0 69E#0440047E1FC01542
(1170000000.101071) can0 125#90002DDF20391160
(1170000000.101073) can0 6E0#0000000000000000
(1170000000.101074) can0 107#0000000000000000
(1170000000.102083) can0 FFF#0000000000000000
(1170000000.102084) can0 297#1100002000025110
(1170000000.102085) can0 5AF#2000000000206800
(1170000000.102086) can0 32D#00000420A8010020
(1170000000.103102) can0 00E#2053160208097556
(1170000000.104459) can0 3C1#7B551FBC4DD6692E
(1170000000.105474) can0 0D0#5A710460F1000000
(1170000000.105476) can0 033#000788000EC007D0
(1170000000.105477) can0 2E1#0000000000000004
(1170000000.106496) can0 354#1FFF40000003BE00
(1170000000.106497) can0 5E1#893FE00B0A000080
(1170000000.106498) can0 162#00080003EA11F4CE
(1170000000.106499) can0 0A7#2010FA24F12B60A0
(1170000000.107477) can0 66C#0080100018000020
(1170000000.109908) can0 125#90002DDF2038F360
(1170000000.110890) can0 193#00080803E4980000
(1170000000.110891) can0 20E#4E2007A0003F6FFF
(1170000000.110892) can0 522#DF7FD1EF09D8F0DC
(1170000000.110893) can0 366#7FDDC8020147CE78
(1170000000.111912) can0 580#00000003A5880000
(1170000000.111913) can0 434#03CAA0AADB1BDCE0
(1170000000.111914) can0 6E0#0000000000000000
(1170000000.111915) can0 498#84002000FC800000
(1170000000.112932) can0 230#13001EF29C001600
(1170000000.112933) can0 00E#2053160208097556
(1170000000.113951) can0 4FD#11180A5021054A08
(1170000000.115010) can0 FFF#0000000000000000
(1170000000.116016) can0 153#00000004000C0004
(1170000000.116017) can0 354#1FFF40000003BE00
(1170000000.116018) can0 5E1#893FE00B0A000080
(1170000000.116019) can0 662#4E20000040000000
(1170000000.117061) can0 28B#0000000000000000
(1170000000.117063) can0 19C#18E6200002002890
(1170000000.117064) can0 0D0#62710460F0000000
(1170000000.117065) can0 033#000780000F0007D0
(1170000000.118062) can0 274#00F20CF3107C81DD
(1170000000.118063) can0 0C0#0000000000000000
(1170000000.118064) can0 0A7#2010FA24E12B60A0
(1170000000.118065) can0 03D#0000240000000000
(1170000000.119972) can0 69E#0440047E1FC01542
(1170000000.120938) can0 125#90002DDF2038D560
(1170000000.120939) can0 6E0#0000000000000000
(1170000000.120939) can0 107#0000000000000000
(1170000000.121998) can0 FFF#0000000000000000
(1170000000.121999) can0 0BA#06A811C410000866
(1170000000.122998) can0 00E#2053160208097556
(1170000000.124005) can0 FFF#0000000000000000
(1170000000.125024) can0 295#0000000000000040
(1170000000.126027) can0 0D0#6A710460EF000000
(1170000000.126028) can0 2E1#0000000000000004
(1170000000.126029) can0 FFF#0000000000000000
(1170000000.126030) can0 FFF#0000000000000000
(1170000000.127026) can0 0F4#9A0C010204B10240
(1170000000.127027) can0 354#1FFF40000003B680
(1170000000.127028) can0 5E1#893FE00B0A000080
(1170000000.127029) can0 033#000778000F4007D0
(1170000000.128039) can0 162#00080003EA11F4CE
(1170000000.128040) can0 0A7#2010FA24F12B60A0
(1170000000.128041) can0 577#0000080000000144
(1170000000.129395) can0 3C1#7B551FBC4D56E92E
(1170000000.130440) can0 125#90002DDF2038B760
(1170000000.130441) can0 193#00080803E4980000
(1170000000.130442) can0 20E#4E2007A0003F6FFF
(1170000000.131460) can0 522#DF7FD1EF0960F0DC
(1170000000.131461) can0 366#7FDDC8020147CE78
(1170000000.131462) can0 580#000000039E080000
(1170000000.131463) can0 434#03EAA0AADB1BDCE0
(1170000000.132459) can0 6E0#0000000000000000
(1170000000.132460) can0 498#84002000FB800001
(1170000000.132461) can0 464#0002400000901D90
(1170000000.132462) can0 230#12001EF29C001800
(1170000000.133477) can0 00E#205316020809753E
(1170000000.134519) can0 03C#000004002A000000
(1170000000.135540) can0 207#0404604828DEF518
(1170000000.135541) can0 153#00000004000C0004
(1170000000.135542) can0 662#4E20000040000000
(1170000000.135543) can0 354#1FFF40000003B680
(1170000000.136539) can0 5E1#893FE00B0A000080
(1170000000.136541) can0 28B#0000000000000000
(1170000000.136542) can0 19C#1CE2200002002890
(1170000000.136543) can0 0D0#72710460EE000000
(1170000000.137562) can0 033#000770000F8007D0
(1170000000.137563) can0 274#00F20EF1107C81DD
(1170000000.137564) can0 0C0#0000000000000000
(1170000000.137565) can0 0A7#2010FA24F12B60A0
(1170000000.138563) can0 1CA#3FF9FF8000000C38
(1170000000.138564) can0 FFF#0000000000000000
(1170000000.138565) can0 4C9#01F915820D03F64B
(1170000000.138566) can0 1D6#028BC08034740590
(1170000000.139581) can0 585#0040000000020018
(1170000000.140579) can0 69E#0440047E1FC01542
(1170000000.140580) can0 125#90002DDF20389960
(1170000000.140581) can0 6E0#0000000000000000
(1170000000.141594) can0 107#0000000000000000
(1170000000.141595) can0 FFF#0000000000000000
(1170000000.142593) can0 00E#2053160208097556
(1170000000.144988) can0 0D7#0000020080000000
(1170000000.146012) can0 0D0#7A710460ED000000
(1170000000.146013) can0 2E1#0000000000000004
(1170000000.146014) can0 354#1FFF40000003A780
(1170000000.146015) can0 5E1#893FE00B0A000080
(1170000000.147013) can0 033#000768000FC007D0
(1170000000.147014) can0 162#00080003EA11F4CE
(1170000000.147015) can0 0A7#2010FA24F12B60A0
(1170000000.147016) can0 2A3#00000003FE802B80
(1170000000.149428) can0 2C1#01F3AFC7CA1F3CBA
(1170000000.150429) can0 125#90002DDF20387B60
(1170000000.150430) can0 193#00080803E4980000
(1170000000.150431) can0 20E#4E2007A0003F6FFF
(1170000000.151450) can0 522#DF7FD1EF08E8F0DC
(1170000000.151451) can0 366#7FDDC8020147CE78
(1170000000.151452) can0 32D#00000420A8010020
(1170000000.151453) can0 580#0000000396880000
(1170000000.152471) can0 434#040AA0AADB1BDCE0
(1170000000.152472) can0 6E0#0000000000000000
(1170000000.152472) can0 00E#205316020809755C
(1170000000.152473) can0 498#84002000FA800002
(1170000000.153495) can0 230#11001EF29C001A00
(1170000000.154512) can0 3C1#7B551FBC4C97A92E
(1170000000.155532) can0 FFF#0000000000000000
(1170000000.155533) can0 153#00000004000C0004
(1170000000.155534) can0 354#1FFF400000041800
(1170000000.155535) can0 5E1#893FE00B0A000080
(1170000000.156554) can0 295#0000000000000040
(1170000000.156555) can0 662#4E20000040000000
(1170000000.156556) can0 28B#0000000000000000
(1170000000.156557) can0 19C#00FE200002002890
(1170000000.157576) can0 0D0#02710460FC000000
(1170000000.157577) can0 033#0007E0000C0007D0
(1170000000.157578) can0 274#00F200FF107C81DD
(1170000000.157579) can0 0C0#0000000000000000
(1170000000.158574) can0 6FC#0000075570B75820
(1170000000.158575) can0 0A7#2010FA24E12B60A0
(1170000000.158576) can0 239#0000007D000040A0
(1170000000.159931) can0 69E#0440047E1FC01542
(1170000000.160948) can0 125#90002DDF20385D60
(1170000000.160949) can0 6E0#0000000000000000
(1170000000.161970) can0 107#0000000000000000
(1170000000.161971) can0 FFF#0000000000000000
(1170000000.161972) can0 0BA#06A811C410000866
(1170000000.162971) can0 00E#205316020809755C
(1170000000.162972) can0 2E2#18080D4040000118
(1170000000.162973) can0 345#050202C23C774081
(1170000000.163994) can0 430#003F448C588010A0
(1170000000.163995) can0 130#0001600000000000
(1170000000.163996) can0 4FD#11180A5021054A08
(1170000000.165011) can0 0D0#0A710460FB000000
(1170000000.166012) can0 033#0007D8000C4007D0
(1170000000.166013) can0 2E1#0000000000000004
(1170000000.166014) can0 354#1FFF400000041800
(1170000000.166015) can0 5E1#893FE00B0A000080
(1170000000.167032) can0 162#00080003EA11F4CE
(1170000000.167033) can0 0A7#2010FA24E12B60A0
(1170000000.167034) can0 497#0000000000000000
(1170000000.169910) can0 125#90002DDF20383F60
(1170000000.170929) can0 193#00080803E4980000
(1170000000.170930) can0 20E#4E2007A0003F8FFF
(1170000000.170931) can0 522#DF7FD1EF0870F0DC
(1170000000.170932) can0 366#7FDDC8020147CE78
(1170000000.171929) can0 580#000000038F080000
(1170000000.171930) can0 434#042AA0AADB1BDCE0
(1170000000.171931) can0 6E0#0000000000000000
(1170000000.171932) can0 498#84002000F9800003
(1170000000.172949) can0 230#10001EF29C001C00
(1170000000.172950) can0 00E#2053160208097550
(1170000000.174784) can0 FFF#0000000000000000
(1170000000.175804) can0 4E7#00000013037D0000
(1170000000.175805) can0 153#00000004000C0004
(1170000000.175806) can0 354#1FFF400000040900
(1170000000.175807) can0 FFF#0000000000000000
(1170000000.176826) can0 5E1#893FE00B0A000080
(1170000000.176827) can0 662#4E20000040000000
(1170000000.176828) can0 684#58DD8019416DD01E
(1170000000.176829) can0 636#249C0000F08DA000
(1170000000.177825) can0 2D7#100060D800000008
(1170000000.177826) can0 28B#0000000000000000
(1170000000.177827) can0 19C#04FA200002002890
(1170000000.177828) can0 0D0#12710460FA000000
(1170000000.178826) can0 033#0007D0000C8007D0
(1170000000.178827) can0 274#00F202FD107C81DD
(1170000000.178828) can0 0C0#0000000000000000
(1170000000.178829) can0 0A7#2010FA24E12B60A0
(1170000000.179846) can0 2D2#0000080000000000
(1170000000.179847) can0 55C#101B000041823000
(1170000000.179848) can0 3C1#7B551FBC4C18292E
(1170000000.179849) can0 3E4#00FC000005000000
(1170000000.180847) can0 65C#400D527690000000
(1170000000.180848) can0 69E#0440047E1FC01542
(1170000000.180849) can0 125#90002DDF203A0160
(1170000000.180850) can0 6E0#0000000000000000
(1170000000.181888) can0 107#0000000000000000
(1170000000.181889) can0 FFF#0000000000000000
(1170000000.181890) can0 577#0000080000000144
(1170000000.182907) can0 00E#205316020809755C
(1170000000.184573) can0 26E#0106408289460A04
(1170000000.185594) can0 295#0000000000000040
(1170000000.185595) can0 0D0#1A710460F9000000
(1170000000.185596) can0 2E1#0000000000000004
(1170000000.186606) can0 354#1FFF40000003FA00
(1170000000.186607) can0 5E1#893FE00B0A000080
(1170000000.186607) can0 162#00080003EA11F4CE
(1170000000.186608) can0 033#0007C8000CC007D0
(1170000000.187628) can0 0A7#2010FA24E12B60A0
(1170000000.187629) can0 FFF#0000000000000000
(1170000000.188645) can0 025#0000028840480601
(1170000000.189897) can0 125#90002DDF2039E360
(1170000000.190916) can0 193#00080803E4980000
(1170000000.190917) can0 20E#4E2007A0003F8FFF
(1170000000.190918) can0 522#DF7FD1EF07F8F0DC
(1170000000.190919) can0 366#7FDDC8020147CE78
(1170000000.191936) can0 580#0000000387880000
(1170000000.191937) can0 434#044AA0AADB1BDCE0
(1170000000.191938) can0 5B3#0400000000000400
(1170000000.191939) can0 6E0#0000000000000000
(1170000000.192956) can0 498#84002000F8800004
(1170000000.192957) can0 230#0F001EF29C001E00
(1170000000.192958) can0 00E#205316020809755C
(1170000000.192959) can0 2B4#12CBF20000005800
(1170000000.194978) can0 153#00000004000C0004
(1170000000.196000) can0 662#4E20000040000000
(1170000000.196001) can0 354#1FFF40000003FA00
(1170000000.196002) can0 5E1#893FE00B0A000080
(1170000000.196003) can0 28B#0000000000000000
(1170000000.197019) can0 19C#08F6200002002890
(1170000000.197020) can0 0D0#22710460F8000000
(1170000000.197021) can0 033#0007C0000D0007D0
(1170000000.197022) can0 274#00F204FB107C81DD
(1170000000.198020) can0 0C0#0000000000000000
(1170000000.198021) can0 0A7#2010FA24F12B60A0
(1170000000.198022) can0 407#4000DFF01C802A20
(1170000000.198023) can0 FFF#0000000000000000
(1170000000.199040) can0 075#0E58000FA81D3400
(1170000000.199041) can0 4CB#8000000000000000
(1170000000.199042) can0 280#18E0027000000000
(1170000000.200059) can0 69E#0440047E1FC01542
(1170000000.201061) can0 125#90002DDF2039C560
(1170000000.201062) can0 6E0#0000000000000000
(1170000000.202096) can0 107#0000000000000000
(1170000000.202097) can0 FFF#0000000000000000
(1170000000.202098) can0 0BA#06A811C410000866
(1170000000.203105) can0 51B#2842A9CA3A918941
(1170000000.203106) can0 32D#00000420A8010020
(1170000000.203107) can0 00E#2053160208097550
(1170000000.204437) can0 3C1#7B551FBBCBD8E92E
(1170000000.205478) can0 0D0#2A710460F7000000
(1170000000.205479) can0 033#0007B8000D4007D0
(1170000000.206501) can0 2E1#0000000000000004
(1170000000.206502) can0 354#1FFF40000003F280
(1170000000.206503) can0 5E1#893FE00B0A000080
(1170000000.206504) can0 162#00080003EA11F4CE
(1170000000.206505) can0 0A7#2010FA24F12B60A0
(1170000000.207498) can0 03A#00000000001AB800
(1170000000.207499) can0 66C#0080100018000020
(1170000000.207499) can0 618#FB7DBEFFF777BFDD
(1170000000.209912) can0 125#90002DDF2039A760
(1170000000.210915) can0 193#00080803E4980000
(1170000000.210916) can0 20E#4E2003A0003F6FFF
(1170000000.210917) can0 522#DF7FD1EF0F00F0DC
(1170000000.210918) can0 366#7FDDC8020147CE78
(1170000000.211936) can0 580#00000003F8080000
(1170000000.211937) can0 434#046800AADB1BDCE0
(1170000000.211938) can0 6E0#0000000000000000
(1170000000.212934) can0 498#84002000F7800005
(1170000000.212935) can0 230#1E001EF29C000000
(1170000000.212936) can0 00E#2053160208097550
(1170000000.213955) can0 4FD#11160A501F04CA08
(1170000000.214977) can0 FFF#0000000000000000
(1170000000.215977) can0 153#00000004000C0004
(1170000000.215978) can0 295#0000000000000040
(1170000000.215979) can0 354#1FFF40000003F280
(1170000000.215980) can0 5E1#893FE00B0A000080
(1170000000.216999) can0 662#4E20000040000000
(1170000000.217000) can0 28B#0000000000000000
(1170000000.217001) can0 19C#0CF2200002002890
(1170000000.217002) can0 0D0#32710460F6000000
(1170000000.217003) can0 033#0007B0000D8007D0
(1170000000.218018) can0 274#00F206F9107C81DD
(1170000000.218019) can0 0C0#0000000000000000
(1170000000.218020) can0 0A7#2010FA24F12B60A0
(1170000000.218021) can0 03D#0000240000000000
(1170000000.219038) can0 4EE#A0000D08F04C4008
(1170000000.220058) can0 69E#0440047E1FC01542
(1170000000.221060) can0 125#90002DDF20398960
(1170000000.221061) can0 6E0#0000000000000000
(1170000000.221062) can0 107#0000000000000000
(1170000000.222079) can0 FFF#0000000000000000
(1170000000.223101) can0 00E#2053160208097556
(1170000000.224101) can0 FFF#0000000000000000
(1170000000.225124) can0 0D0#3A710460F5000000
(1170000000.226122) can0 033#0007A8000DC007D0
(1170000000.226123) can0 2E1#0000000000000004
(1170000000.226124) can0 354#1FFF40000003E380
(1170000000.226125) can0 FFF#0000000000000000
(1170000000.227143) can0 FFF#0000000000000000
(1170000000.227144) can0 5E1#893FE00B0A000080
(1170000000.227145) can0 0F4#9A0C010204B10240
(1170000000.227146) can0 162#00080003EA11F4CE
(1170000000.228143) can0 0A7#2010FA24E12B60A0
(1170000000.228144) can0 577#0000080000000144
(1170000000.228145) can0 69D#808DCFB04FC1FCB1
(1170000000.229394) can0 3C1#7B551FBB4BD9692E
(1170000000.230435) can0 125#90002DDF20396B60
(1170000000.230436) can0 193#00080803E4980000
(1170000000.230437) can0 20E#4E2003A0003F8FFF
(1170000000.231435) can0 522#DF7FD1EF0E88F0DC
(1170000000.231436) can0 366#7FDDC8020147CE78
(1170000000.231437) can0 580#00000003F0880000
(1170000000.231438) can0 434#000000AADB1BDCE0
(1170000000.232455) can0 6E0#0000000000000000
(1170000000.232456) can0 498#84002000F6800006
(1170000000.232457) can0 464#0002400000901C91
(1170000000.232458) can0 230#1D001EF29C000200
(1170000000.233454) can0 00E#2053160208097550
(1170000000.234496) can0 03C#0000040029000000
(1170000000.235518) can0 207#0404E05828DEF518
(1170000000.235519) can0 FFF#0000000000000000
(1170000000.235520) can0 153#00000004000C0004
(1170000000.235521) can0 354#1FFF40000003DC00
(1170000000.236518) can0 5E1#893FE00B0A000080
(1170000000.236519) can0 662#4E20000040000000
(1170000000.236519) can0 28B#0000000000000000
(1170000000.236520) can0 19C#10EE200002002890
(1170000000.237539) can0 0D0#42710460F4000000
(1170000000.237540) can0 033#0007A0000E0007D0
(1170000000.237541) can0 274#00F208F7107C81DD
(1170000000.237542) can0 0C0#0000000000000000
(1170000000.238561) can0 0A7#2010FA24E12B60A0
(1170000000.238562) can0 1CA#3FF9FF8000000C38
(1170000000.238563) can0 4C9#01F915820D02F64B
(1170000000.238564) can0 1D6#020F828030240580
(1170000000.239560) can0 5E8#0007809C0139B010
(1170000000.239561) can0 585#0040000000020018
(1170000000.240580) can0 69E#0440047E1FC01542
(1170000000.240581) can0 125#90002DDF20394D60
(1170000000.240582) can0 6E0#0000000000000000
(1170000000.241602) can0 107#0000000000000000
(1170000000.241603) can0 FFF#0000000000000000
(1170000000.241604) can0 0BA#06A811C410000866
(1170000000.242602) can0 00E#2053160208097556
(1170000000.244977) can0 295#0000000000000040
(1170000000.246001) can0 0D0#4A710460F3000000
(1170000000.246002) can0 2E1#0000000000000004
(1170000000.246003) can0 354#1FFF40000003DC00
(1170000000.246004) can0 5E1#893FE00B0A000080
(1170000000.247019) can0 033#000798000E4007D0
(1170000000.247020) can0 162#00080003EA11F4CE
(1170000000.247021) can0 0A7#2010FA24F12B60A0
(1170000000.247022) can0 2A3#00000003FE802980
(1170000000.248016) can0 0D7#0000020080000000
(1170000000.249913) can0 125#90002DDF20392F60
(1170000000.250935) can0 193#00080803E4980000
(1170000000.250936) can0 20E#4E2003A0003F6FFF
(1170000000.250937) can0 522#DF7FD1EF0E10F0DC
(1170000000.250938) can0 30A#402C200197E41200
(1170000000.251956) can0 366#7FDDC8020147CE78
(1170000000.251957) can0 580#00000003E9080000
(1170000000.251958) can0 434#002000AADB1BDCE0
(1170000000.251959) can0 6E0#0000000000000000
(1170000000.252958) can0 1C4#0000020001C00000
(1170000000.252959) can0 2A4#4E1E011C040898D0
(1170000000.252960) can0 00E#2053160208097556
(1170000000.252961) can0 498#84002000F5800007
(1170000000.253976) can0 32D#00000420A8010020
(1170000000.253977) can0 230#1C001EF29C000400
(1170000000.254998) can0 3C1#7B551FBACB9A292E
(1170000000.254999) can0 2C1#01F3CFC7CA9F22D0
(1170000000.255000) can0 FFF#0000000000000000
(1170000000.256020) can0 153#00000004000C0004
(1170000000.256021) can0 354#1FFF40000003CD00
(1170000000.256022) can0 5E1#893FE00B0A000080
(1170000000.256025) can0 662#4E20000040000000
(1170000000.257018) can0 28B#0000000000000000
(1170000000.257019) can0 19C#14EA200002002890
(1170000000.257020) can0 0D0#52710460F2000000
(1170000000.257021) can0 033#000790000E8007D0
(1170000000.258040) can0 274#00F20AF5107C81DD
(1170000000.258041) can0 0C0#0000000000000000
(1170000000.258042) can0 6FC#00000754F0B75820
(1170000000.258043) can0 0A7#2010FA24F12B60A0
(1170000000.259059) can0 239#0000007D000040A0
(1170000000.260059) can0 69E#0440047E1FC01542
(1170000000.261081) can0 125#90002DDF20391160
(1170000000.261082) can0 6E0#0000000000000000
(1170000000.261097) can0 107#0000000000000000
(1170000000.262099) can0 FFF#0000000000000000
(1170000000.263102) can0 00E#2053160208097556
(1170000000.263103) can0 2E2#18080D4040000118
(1170000000.263118) can0 345#050202C23C774081
(1170000000.264123) can0 430#003F448C588010A0
(1170000000.264138) can0 130#0001600000000000
(1170000000.264139) can0 4FD#11220A502F074A08
(1170000000.265122) can0 0D0#5A710460F1000000
(1170000000.266145) can0 033#000788000EC007D0
(1170000000.266161) can0 2E1#0000000000000004
(1170000000.266162) can0 354#1FFF40000003BE00
(1170000000.266163) can0 5E1#893FE00B0A000080
(1170000000.267163) can0 162#00080003EA11F4CE
(1170000000.267164) can0 0A7#2010FA24F12B60A0
(1170000000.267179) can0 497#0000000000000000
(1170000000.269881) can0 125#90002DDF2038F360
(1170000000.270935) can0 193#00080803E4980000
(1170000000.270936) can0 20E#4E2003A0003F8FFF
(1170000000.270937) can0 522#DF7FD1EF0D98F0DC
(1170000000.270952) can0 366#7FDDC8020147CE78
(1170000000.271967) can0 580#00000003E1880000
(1170000000.271968) can0 434#005680AADB1BDCE0
(1170000000.271969) can0 6E0#0000000000000000
(1170000000.272924) can0 498#84002000F4800008
(1170000000.272925) can0 230#1B001EF29C000600
(1170000000.272926) can0 00E#205316020809755C
(1170000000.274991) can0 4E7#00000013037D0000
(1170000000.275959) can0 153#00000004000C0004
(1170000000.275960) can0 354#1FFF40000003BE00
(1170000000.275961) can0 FFF#0000000000000000
(1170000000.275962) can0 5E1#893FE00B0A000080
(1170000000.277000) can0 295#0000000000000040
(1170000000.277001) can0 662#4E20000040000000
(1170000000.277002) can0 684#58DD8019416DD01E
(1170000000.277002) can0 636#249C0000F08DA000
(1170000000.278020) can0 2D7#100060D800000008
(1170000000.278021) can0 28B#0000000000000000
(1170000000.278036) can0 19C#18E6200002002890
(1170000000.278037) can0 0D0#62710460F0000000
(1170000000.279033) can0 033#000780000F0007D0
(1170000000.279034) can0 274#00F20CF3107C81DD
(1170000000.279034) can0 0C0#0000000000000000
(1170000000.279035) can0 0A7#2010FA24F12B60A0
(1170000000.280019) can0 2D2#0000100000000000
(1170000000.280020) can0 FFF#0000000000000000
(1170000000.280021) can0 3C1#7B551FBACB1AA92E
(1170000000.280022) can0 3E4#00FC000005000000
(1170000000.281057) can0 65C#400D527690000000
(1170000000.281058) can0 69E#0440047E1FC01542
(1170000000.281059) can0 125#90002DDF2038D560
(1170000000.281060) can0 6E0#0000000000000000
(1170000000.281061) can0 107#0000000000000000
(1170000000.282102) can0 FFF#0000000000000000
(1170000000.282103) can0 0BA#06A811C410000866
(1170000000.282104) can0 577#0000080000000144
(1170000000.282105) can0 277#180CC810000001B8
(1170000000.283125) can0 00E#2053160208097556
(1170000000.284145) can0 26E#0106408289460A04
(1170000000.285142) can0 0D0#6A710460EF000000
(1170000000.286160) can0 033#000778000F4007D0
(1170000000.286162) can0 2E1#0000000000000004
(1170000000.286163) can0 354#1FFF40000003B680
(1170000000.286164) can0 5E1#893FE00B0A000080
(1170000000.287163) can0 162#00080003EA11F4CE
(1170000000.287165) can0 0A7#2010FA24F12B60A0
(1170000000.287166) can0 3A2#9A10001060018000
(1170000000.289579) can0 5B3#0400000000000400
(1170000000.290601) can0 125#90002DDF2038B760
(1170000000.290602) can0 193#00080803E4980000
(1170000000.290603) can0 20E#4E2003A0003F6FFF
(1170000000.291616) can0 522#DF7FD1EF0D20F0DC
(1170000000.291617) can0 366#7FDDC8020147CE78
(1170000000.291618) can0 580#00000003DA080000
(1170000000.291619) can0 434#007780AADB1BDCE0
(1170000000.292637) can0 2B4#12CBF20000005800
(1170000000.292638) can0 6E0#0000000000000000
(1170000000.292639) can0 498#84002000F3800009
(1170000000.292640) can0 230#1A001EF29C000800
(1170000000.292641) can0 00E#2053160208097550
(1170000000.294849) can0 FFF#0000000000000000
(1170000000.295866) can0 153#00000004000C0004
(1170000000.295867) can0 662#4E20000040000000
(1170000000.295868) can0 354#1FFF40000003B680
(1170000000.295869) can0 5E1#893FE00B0A000080
(1170000000.296882) can0 28B#0000000000000000
(1170000000.296883) can0 19C#1CE2200002002890
(1170000000.296884) can0 0D0#72710460EE000000
(1170000000.296885) can0 033#000770000F8007D0
(1170000000.297873) can0 274#00F20EF1107C81DD
(1170000000.297874) can0 0C0#0000000000000000
(1170000000.297890) can0 0A7#2010FA24F12B60A0
(1170000000.297891) can0 407#4000DFF01C802A20
(1170000000.299969) can0 69E#0440047E1FC01542
(1170000000.300936) can0 125#90002DDF20389960
(1170000000.300937) can0 6E0#0000000000000000
(1170000000.300938) can0 107#0000000000000000
(1170000000.301967) can0 FFF#0000000000000000
(1170000000.301969) can0 32D#00000420A8010020
(1170000000.302991) can0 00E#2053160208097550
(1170000000.304243) can0 1AA#90BEBD44A163E640
(1170000000.305261) can0 3C1#7B551FBB899B692E
(1170000000.305262) can0 295#0000000000000040
(1170000000.305263) can0 0D0#7A710460ED000000
(1170000000.306263) can0 2E1#0000000000000004
(1170000000.306264) can0 354#1FFF40000003A780
(1170000000.306265) can0 5E1#893FE00B0A000080
(1170000000.306265) can0 033#000768000FC007D0
(1170000000.307281) can0 162#00080003EA11F4CE
(1170000000.307282) can0 0A7#2010FA24F12B60A0
(1170000000.307283) can0 66C#0080100020000020
(1170000000.309948) can0 125#90002DDF20387B60
(1170000000.310972) can0 193#00080803E4980000
(1170000000.310973) can0 20E#4E2003A0003F4FFF
(1170000000.310974) can0 522#DF7FD1EF0CA8F0DC
(1170000000.310974) can0 366#7FDDC8020147CE78
(1170000000.311971) can0 580#00000003D2880000
(1170000000.311972) can0 434#0088E0AADB1BDCE0
(1170000000.311973) can0 6E0#0000000000000000
(1170000000.311974) can0 498#84002000F280000A
(1170000000.312968) can0 230#19001EF29C000A00
(1170000000.312969) can0 00E#2053160208097556
(1170000000.313991) can0 4FD#11230A5031074A08
(1170000000.315011) can0 FFF#0000000000000000
(1170000000.316013) can0 153#00000004000C0004
(1170000000.316014) can0 354#1FFF400000041800
(1170000000.316015) can0 5E1#893FE00B0A000080
(1170000000.316015) can0 662#4E20000040000000
(1170000000.317042) can0 28B#0000000000000000
(1170000000.317043) can0 19C#00FE200002002890
(1170000000.317044) can0 0D0#02710460FC000000
(1170000000.317045) can0 033#0007E0000C0007D0
(1170000000.317046) can0 274#00F200FF107C81DD
(1170000000.318060) can0 0C0#0000000000000000
(1170000000.318061) can0 0A7#2010FA24F12B60A0
(1170000000.318062) can0 03D#0000240000000000
(1170000000.319956) can0 69E#0440047E1FC01542
(1170000000.320955) can0 125#90002DDF20385D60
(1170000000.320957) can0 6E0#0000000000000000
(1170000000.320958) can0 107#0000000000000000
(1170000000.321976) can0 FFF#0000000000000000
(1170000000.321977) can0 0BA#069811C410000866
(1170000000.322997) can0 00E#2053160208097550
(1170000000.323996) can0 FFF#0000000000000000
(1170000000.325018) can0 0D0#0A710460FB000000
(1170000000.326039) can0 033#0007D8000C4007D0
(1170000000.326040) can0 2E1#0000000000000004
(1170000000.326041) can0 354#1FFF400000041800
(1170000000.326042) can0 5E1#893FE00B0A000080
(1170000000.327059) can0 FFF#0000000000000000
(1170000000.327061) can0 162#00080003EA11F4CE
(1170000000.327062) can0 FFF#0000000000000000
(1170000000.327063) can0 0F4#9A0C010204B10240
(1170000000.328059) can0 0A7#2010FA24F12B60A0
(1170000000.328060) can0 55C#101B000041823000
(1170000000.328061) can0 577#0000080000000144
(1170000000.329394) can0 3C1#7B551FBB495BE92E
(1170000000.330413) can0 125#90002DDF20383F60
(1170000000.330414) can0 193#00080803E4980000
(1170000000.331414) can0 20E#4E2003A0003F4FFF
(1170000000.331415) can0 522#DF7FD1EF0C30F0DC
(1170000000.331416) can0 366#7FDDC8020147CE78
(1170000000.331417) can0 580#00000003CB080000
(1170000000.331418) can0 434#00A8E0AADB1BDCE0
(1170000000.332433) can0 6E0#0000000000000000
(1170000000.332434) can0 498#84002000F180000B
(1170000000.332435) can0 464#0002400000901B92
(1170000000.333455) can0 00E#205316020809755C
(1170000000.333456) can0 230#18001EF29C000C00
(1170000000.334495) can0 03C#000004002A000000
(1170000000.335539) can0 207#0404604828DEF518
(1170000000.335540) can0 FFF#0000000000000000
(1170000000.335541) can0 153#00000004000C0004
(1170000000.335542) can0 354#1FFF400000040900
(1170000000.336537) can0 5E1#893FE00B0A000080
(1170000000.336538) can0 295#0000000000000040
(1170000000.336539) can0 662#4E20000040000000
(1170000000.336540) can0 28B#0000000000000000
(1170000000.337560) can0 19C#04FA200002002890
(1170000000.337561) can0 0D0#12710460FA000000
(1170000000.337562) can0 033#0007D0000C8007D0
(1170000000.337563) can0 274#00F202FD107C81DD
(1170000000.338580) can0 0C0#0000000000000000
(1170000000.338582) can0 0A7#2010FA24F12B60A0
(1170000000.338583) can0 1CA#3FF9FF8000000C38
(1170000000.338584) can0 4C9#01F915820D02F64B
(1170000000.339580) can0 1D6#020B808030240580
(1170000000.339581) can0 585#0040000000020018
(1170000000.340600) can0 69E#0440047E1FC01542
(1170000000.340601) can0 125#90002DDF203A0160
(1170000000.340602) can0 6E0#0000000000000000
(1170000000.341622) can0 107#0000000000000000
(1170000000.341623) can0 FFF#0000000000000000
(1170000000.342623) can0 00E#2053160208097556
(1170000000.345001) can0 0D0#1A710460F9000000
(1170000000.346018) can0 033#0007C8000CC007D0
(1170000000.346019) can0 2E1#0000000000000004
(1170000000.346020) can0 354#1FFF40000003FA00
(1170000000.346021) can0 5E1#893FE00B0A000080
(1170000000.347018) can0 162#00080003EA11F4CE
(1170000000.347019) can0 0A7#2010FA24F12B60A0
(1170000000.347020) can0 2A3#00000003FE802980
(1170000000.347021) can0 0D7#0000020080000000
(1170000000.349915) can0 125#90002DDF2039E360
(1170000000.350935) can0 193#00080803E4980000
(1170000000.350936) can0 20E#4E2007A0003F6FFF
(1170000000.350940) can0 522#DF7FD1EF0BB8F0DC
(1170000000.350941) can0 366#7FDDC8020147CE78
(1170000000.351935) can0 32D#00000420A8010020
(1170000000.351937) can0 580#00000003C3880000
(1170000000.351938) can0 434#00C720AADB1BDCE0
(1170000000.351939) can0 6E0#0000000000000000
(1170000000.352958) can0 498#84002000F080000C
(1170000000.352959) can0 230#17001EF29C000E00
(1170000000.352960) can0 00E#2053160208097556
(1170000000.354310) can0 419#0A9BC64D045FC2EF
(1170000000.355309) can0 3C1#7B551FBC07DCA92E
(1170000000.355310) can0 FFF#0000000000000000
(1170000000.355311) can0 153#00000004000C0004
(1170000000.356331) can0 354#1FFF40000003FA00
(1170000000.356332) can0 5E1#893FE00B0A000080
(1170000000.356333) can0 662#4E20000040000000
(1170000000.356334) can0 28B#0000000000000000
(1170000000.357351) can0 19C#08F6200002002890
(1170000000.357352) can0 0D0#22710460F8000000
(1170000000.357353) can0 033#0007C0000D0007D0
(1170000000.357354) can0 274#00F204FB107C81DD
(1170000000.357355) can0 0C0#0000000000000000
(1170000000.358372) can0 6FC#00000755B0B75820
(1170000000.358373) can0 0A7#2010FA24F12B60A0
(1170000000.358374) can0 239#0000007D000040A0
(1170000000.359395) can0 2C1#01F36FC7C89F1CE4
(1170000000.360413) can0 69E#0440047E1FC01542
(1170000000.360414) can0 125#90002DDF2039C560
(1170000000.361414) can0 6E0#0000000000000000
(1170000000.361415) can0 107#0000000000000000
(1170000000.361416) can0 FFF#0000000000000000
(1170000000.361417) can0 0BA#069811C410000866
(1170000000.362517) can0 00E#2053160208097556
(1170000000.363518) can0 2E2#18080D4040000118
(1170000000.363519) can0 345#050202C23C774081
(1170000000.363520) can0 430#003F448C588010A0
(1170000000.363521) can0 130#0001600000000000
(1170000000.364536) can0 4FD#111A0A502305CA08
(1170000000.365559) can0 295#0000000000000040
(1170000000.365560) can0 0D0#2A710460F7000000
(1170000000.365561) can0 2E1#0000000000000004
(1170000000.366560) can0 354#1FFF40000003F280
(1170000000.366561) can0 5E1#893FE00B0A000080
(1170000000.366562) can0 033#0007B8000D4007D0
(1170000000.366563) can0 162#00080003EA11F4CE
(1170000000.367579) can0 0A7#2010FA24F12B60A0
(1170000000.367580) can0 497#0000000000000000
(1170000000.369911) can0 125#90002DDF2039A760
(1170000000.370954) can0 193#00080803E4980000
(1170000000.370956) can0 20E#4E2003A0003F6FF7
(1170000000.370957) can0 522#DF7FD1EF0B40F0DC
(1170000000.370957) can0 366#7FDDC8020147CE78
(1170000000.371957) can0 580#00000003BC080000
(1170000000.371958) can0 434#00E700AADB1BDCE0
(1170000000.371959) can0 6E0#0000000000000000
(1170000000.371960) can0 498#84002000EF80000D
(1170000000.372984) can0 230#16001EF29C001000
(1170000000.372985) can0 00E#2053160208097556
(1170000000.374878) can0 FFF#0000000000000000
(1170000000.375909) can0 4E7#00000013037D0000
(1170000000.375910) can0 153#00000004000C0004
(1170000000.375911) can0 354#1FFF40000003F280
(1170000000.375912) can0 FFF#0000000000000000
(1170000000.376904) can0 5E1#893FE00B0A000080
(1170000000.376907) can0 662#4E20000040000000
(1170000000.376908) can0 684#58DC8019416DD01E
(1170000000.376909) can0 636#249C0000F08DA000
(1170000000.377924) can0 2D7#100060D800000008
(1170000000.377925) can0 28B#0000000000000000
(1170000000.377926) can0 19C#0CF2200002002890
(1170000000.377927) can0 0D0#32710460F6000000
(1170000000.378927) can0 033#0007B0000D8007D0
(1170000000.378929) can0 274#00F206F9107C81DD
(1170000000.378935) can0 0C0#0000000000000000
(1170000000.378936) can0 0A7#2010FA24F12B60A0
(1170000000.379942) can0 2D2#0000180000000000
(1170000000.379943) can0 3E4#00FC000005000000
(1170000000.379944) can0 3C1#7B551FBB481D292E
(1170000000.379945) can0 65C#400D527690000000
(1170000000.380930) can0 577#0000080000000144
(1170000000.380932) can0 69E#0440047E1FC01542
(1170000000.380933) can0 125#90002DDF20398960
(1170000000.380934) can0 6E0#0000000000000000
(1170000000.381966) can0 107#0000000000000000
(1170000000.381968) can0 FFF#0000000000000000
(1170000000.382986) can0 00E#2053160208097556
(1170000000.384641) can0 26E#0106408289460A04
(1170000000.385654) can0 0D0#3A710460F5000000
(1170000000.385656) can0 033#0007A8000DC007D0
(1170000000.385657) can0 2E1#0000000000000004
(1170000000.386651) can0 354#1FFF40000003E380
(1170000000.386653) can0 5E1#893FE00B0A000080
(1170000000.386654) can0 162#00080003EA11F4CE
(1170000000.386655) can0 0A7#2010FA24F12B60A0
(1170000000.389527) can0 5B3#0400000000000400
(1170000000.390550) can0 125#90002DDF20396B60
(1170000000.390551) can0 193#00080803E4980000
(1170000000.390552) can0 20E#4E2003A0003F6FF7
(1170000000.391572) can0 522#DF7FD1EF0AC8F0DC
(1170000000.391574) can0 366#7FDDC8020147CE78
(1170000000.391575) can0 580#00000003B4880000
(1170000000.391576) can0 434#0105A0AADB1BDCE0
(1170000000.392587) can0 6E0#0000000000000000
(1170000000.392589) can0 498#84002000EE80000E
(1170000000.392590) can0 230#15001EF29C001200
(1170000000.393586) can0 00E#205316020809755C
(1170000000.393588) can0 2B4#12CBF20000005800
(1170000000.394929) can0 FFF#0000000000000000
(1170000000.395948) can0 153#00000004000C0004
(1170000000.395949) can0 354#1FFF40000003DC00
(1170000000.395950) can0 5E1#893FE00B0A000080
(1170000000.395951) can0 295#0000000000000040
(1170000000.396904) can0 662#4E20000040000000
(1170000000.396906) can0 28B#0000000000000000
(1170000000.396907) can0 19C#10EE200002002890
(1170000000.396908) can0 0D0#42710460F4000000
(1170000000.397960) can0 033#0007A0000E0007D0
(1170000000.397962) can0 274#00F208F7107C81DD
(1170000000.397963) can0 0C0#0000000000000000
(1170000000.397964) can0 0A7#2010FA24F12B60A0
(1170000000.398913) can0 407#4000DFF01C802A20
(1170000000.398914) can0 4CB#8000000000000000
(1170000000.398915) can0 280#18E0027000000000
(1170000000.400006) can0 69E#0440047E1FC01542
(1170000000.400941) can0 125#90002DDF20394D60
(1170000000.400944) can0 6E0#0000000000000000
(1170000000.400945) can0 107#0000000000000000
(1170000000.401976) can0 FFF#0000000000000000
(1170000000.401977) can0 0BA#06A811C410000866
(1170000000.401978) can0 51B#28B181B189C7F8C1
(1170000000.401979) can0 32D#00000420A8010020
(1170000000.402977) can0 00E#205316020809755C
(1170000000.404328) can0 006#0800006400000000
(1170000000.405291) can0 3C1#7B551FBB871DE92E
(1170000000.405293) can0 0D0#4A710460F3000000
(1170000000.405294) can0 033#000798000E4007D0
(1170000000.406340) can0 2E1#0000000000000004
(1170000000.406342) can0 354#1FFF40000003DC00
(1170000000.406343) can0 5E1#893FE00B0A000080
(1170000000.406344) can0 162#00080003EA11F4CE
(1170000000.407361) can0 0A7#2010FA24F12B60A0
(1170000000.407362) can0 66C#0080100018000020
(1170000000.409969) can0 125#90002DDF20392F60
(1170000000.410985) can0 193#00080803E4980000
(1170000000.410987) can0 20E#4E2003A0003F8FFF
(1170000000.410988) can0 522#DF7FD1EF0A50F0DC
(1170000000.410994) can0 366#7FDDC8020147CE78
(1170000000.411955) can0 580#00000003AD080000
(1170000000.411957) can0 434#012620AADB1BDCE0
(1170000000.411958) can0 6E0#0000000000000000
(1170000000.411959) can0 498#84002000ED80000F
(1170000000.412961) can0 230#14001EF29C001400
(1170000000.412962) can0 00E#2053160208097556
(1170000000.413968) can0 4FD#111A0A502505CA08
(1170000000.415064) can0 FFF#0000000000000000
(1170000000.416044) can0 153#00000004000C0004
(1170000000.416046) can0 354#1FFF40000003CD00
(1170000000.416047) can0 5E1#893FE00B0A000080
(1170000000.416048) can0 662#4E20000040000000
(1170000000.417042) can0 28B#0000000000000000
(1170000000.417043) can0 19C#14EA200002002890
(1170000000.417045) can0 0D0#52710460F2000000
(1170000000.417046) can0 033#000790000E8007D0
(1170000000.418078) can0 274#00F20AF5107C81DD
(1170000000.418080) can0 0C0#0000000000000000
(1170000000.418081) can0 0A7#2010FA24F12B60A0
(1170000000.418082) can0 03D#0000240000000000
(1170000000.420068) can0 69E#0440047E1FC01542
(1170000000.421035) can0 125#90002DDF20391160
(1170000000.421037) can0 6E0#0000000000000000
(1170000000.421038) can0 107#0000000000000000
(1170000000.421995) can0 FFF#0000000000000000
(1170000000.423008) can0 00E#2053160208097556
(1170000000.424009) can0 FFF#0000000000000000
(1170000000.425036) can0 295#0000000000000040
(1170000000.426064) can0 0D0#5A710460F1000000
(1170000000.426066) can0 2E1#0000000000000004
(1170000000.426067) can0 354#1FFF40000003BE00
(1170000000.426068) can0 5E1#893FE00B0A000080
(1170000000.427079) can0 033#000788000EC007D0
(1170000000.427080) can0 FFF#0000000000000000
(1170000000.427081) can0 FFF#0000000000000000
(1170000000.427082) can0 0F4#9A0C010204B10240
(1170000000.428097) can0 162#00080003EA11F4CE
(1170000000.428099) can0 0A7#2010FA24F12B60A0
(1170000000.428100) can0 577#0000080000000144
(1170000000.429447) can0 3C1#7B551FBBC65E692E
(1170000000.430444) can0 125#90002DDF2038F360
(1170000000.430445) can0 193#00080803E4980000
(1170000000.431467) can0 20E#4E2003A0003F8FFF
(1170000000.431469) can0 522#DF7FD1EF09D8F0DC
(1170000000.431470) can0 366#7FDDC8020147CE78
(1170000000.431471) can0 580#00000003A5880000
(1170000000.431472) can0 434#014680AADB1BDCE0
(1170000000.432495) can0 6E0#0000000000000000
(1170000000.432496) can0 498#84002000FC800000
(1170000000.432497) can0 464#0002400000901A93
(1170000000.432497) can0 230#13001EF29C001600
(1170000000.433514) can0 00E#2053160208097550
(1170000000.434534) can0 03C#000004002A000000
(1170000000.435559) can0 207#0404604828DEF518
(1170000000.435561) can0 FFF#0000000000000000
(1170000000.435562) can0 153#00000004000C0004
(1170000000.435563) can0 354#1FFF40000003BE00
(1170000000.436577) can0 5E1#893FE00B0A000080
(1170000000.436578) can0 662#4E20000040000000
(1170000000.436579) can0 28B#0000000000000000
(1170000000.436580) can0 19C#18E6200002002890
(1170000000.437597) can0 0D0#62710460F0000000
(1170000000.437598) can0 033#000780000F0007D0
(1170000000.437599) can0 274#00F20CF3107C81DD
(1170000000.437600) can0 0C0#0000000000000000
(1170000000.438620) can0 0A7#2010FA24E12B60A0
(1170000000.438621) can0 1CA#3FF9FF8000000C38
(1170000000.438623) can0 4C9#01F915820D02F64B
(1170000000.438624) can0 1D6#020F828030240580
(1170000000.439613) can0 585#0040000000020018
(1170000000.440648) can0 69E#0440047E1FC01542
(1170000000.440649) can0 125#90002DDF2038D560
(1170000000.440655) can0 6E0#0000000000000000
(1170000000.441649) can0 107#0000000000000000
(1170000000.441650) can0 FFF#0000000000000000
(1170000000.441651) can0 0BA#06A811C410000866
(1170000000.442595) can0 00E#2053160208097556
(1170000000.445096) can0 0D7#0000020080000000
(1170000000.446122) can0 0D0#6A710460EF000000
(1170000000.446124) can0 2E1#0000000000000004
(1170000000.446125) can0 354#1FFF40000003B680
(1170000000.446126) can0 5E1#893FE00B0A000080
(1170000000.447131) can0 033#000778000F4007D0
(1170000000.447133) can0 162#00080003EA11F4CE
(1170000000.447134) can0 0A7#2010FA24F12B60A0
(1170000000.447135) can0 2A3#00000003FE802A00
(1170000000.449993) can0 125#90002DDF2038B760
(1170000000.450999) can0 2B7#0020284000008040
(1170000000.451001) can0 193#00080803E4980000
(1170000000.451002) can0 20E#4E2007A0003F8FFF
(1170000000.451003) can0 522#DF7FD1EF0960F0DC
(1170000000.451981) can0 366#7FDDC8020147CE78
(1170000000.451983) can0 580#000000039E080000
(1170000000.451984) can0 434#016860AADB1BDCE0
(1170000000.451985) can0 6E0#0000000000000000
(1170000000.452976) can0 32D#00000420A8010020
(1170000000.452978) can0 498#84002000FB800001
(1170000000.452979) can0 00E#2053160208097556
(1170000000.452980) can0 230#12001EF29C001800
(1170000000.454472) can0 3C1#7B551FBBC59F292E
(1170000000.455487) can0 FFF#0000000000000000
(1170000000.455488) can0 153#00000004000C0004
(1170000000.455489) can0 354#1FFF40000003B680
(1170000000.456508) can0 5E1#893FE00B0A000080
(1170000000.456509) can0 295#0000000000000040
(1170000000.456510) can0 662#4E20000040000000
(1170000000.456511) can0 28B#0000000000000000
(1170000000.457516) can0 19C#1CE2200002002890
(1170000000.457517) can0 0D0#72710460EE000000
(1170000000.457518) can0 033#000770000F8007D0
(1170000000.457519) can0 274#00F20EF1107C81DD
(1170000000.458522) can0 0C0#0000000000000000
(1170000000.458524) can0 6FC#0000075550B75820
(1170000000.458525) can0 0A7#2010FA24F12B60A0
(1170000000.458526) can0 239#0000007D000040A0
(1170000000.459996) can0 69E#0440047E1FC01542
(1170000000.460937) can0 125#90002DDF20389960
(1170000000.460939) can0 6E0#0000000000000000
(1170000000.460940) can0 107#0000000000000000
(1170000000.462029) can0 FFF#0000000000000000
(1170000000.463031) can0 00E#2053160208097550
(1170000000.463033) can0 2E2#18080D4040000118
(1170000000.463034) can0 345#050202C23C774081
(1170000000.464052) can0 430#003F448C588010A0
(1170000000.464054) can0 130#0001600000000000
(1170000000.464055) can0 4FD#111B0A502505CA08
(1170000000.464986) can0 2C1#01F3AFC7CB1EF8FA
(1170000000.464989) can0 0D0#7A710460ED000000
(1170000000.466074) can0 033#000768000FC007D0
(1170000000.466076) can0 2E1#0000000000000004
(1170000000.466077) can0 354#1FFF40000003A780
(1170000000.466078) can0 5E1#893FE00B0A000080
(1170000000.467079) can0 162#00080003EA11F4CE
(1170000000.467081) can0 0A7#2010FA24F12B60A0
(1170000000.467082) can0 497#0000000000000000
(1170000000.469926) can0 125#90002DDF20387B60
(1170000000.470988) can0 193#00080803E4980000
(1170000000.470989) can0 20E#4E2003A0003F6FFF
(1170000000.470990) can0 522#DF7FD1EF08E8F0DC
(1170000000.470991) can0 366#7FDDC8020147CE78
(1170000000.471985) can0 580#0000000396880000
(1170000000.471986) can0 434#0186C0AADB1BDCE0
(1170000000.471987) can0 6E0#0000000000000000
(1170000000.471988) can0 498#84002000FA800002
(1170000000.472936) can0 230#11001EF29C001A00
(1170000000.472946) can0 00E#2053160208097556
(1170000000.475059) can0 4E7#00000013037D0000
(1170000000.476071) can0 153#00000004000C0004
(1170000000.476072) can0 354#1FFF400000041800
(1170000000.476073) can0 FFF#0000000000000000
(1170000000.476075) can0 5E1#893FE00B0A000080
(1170000000.477004) can0 662#4E20000040000000
(1170000000.477005) can0 684#58DD8019416DD01E
(1170000000.477006) can0 636#249C0000F08DA000
(1170000000.477007) can0 2D7#100060D800000008
(1170000000.478083) can0 28B#0000000000000000
(1170000000.478085) can0 19C#00FE200002002890
(1170000000.478086) can0 0D0#02710460FC000000
(1170000000.478087) can0 033#0007E0000C0007D0
(1170000000.479088) can0 274#00F200FF107C81DD
(1170000000.479090) can0 0C0#0000000000000000
(1170000000.479091) can0 0A7#2010FA24F12B60A0
(1170000000.479091) can0 2D2#0000200000000000
(1170000000.480111) can0 55C#101B000041823000
(1170000000.480113) can0 3C1#7B551FBB855FA92E
(1170000000.480114) can0 FFF#0000000000000000
(1170000000.480115) can0 3E4#00FC000005000000
(1170000000.481169) can0 69E#0440047E1FC01542
(1170000000.481171) can0 125#90002DDF20385D60
(1170000000.481172) can0 6E0#0000000000000000
(1170000000.481173) can0 65C#400D527690000000
(1170000000.481174) can0 107#0000000000000000
(1170000000.482173) can0 FFF#0000000000000000
(1170000000.482174) can0 0BA#06A811C410000866
(1170000000.482175) can0 577#0000080000000144
(1170000000.483194) can0 00E#2053160208097556
(1170000000.484196) can0 26E#0106408289460A04
(1170000000.485178) can0 295#0000000000000040
(1170000000.486206) can0 0D0#0A710460FB000000
(1170000000.486209) can0 2E1#0000000000000004
(1170000000.486210) can0 354#1FFF400000041800
(1170000000.486211) can0 5E1#893FE00B0A000080
(1170000000.487238) can0 033#0007D8000C4007D0
(1170000000.487239) can0 162#00080003EA11F4CE
(1170000000.487240) can0 0A7#2010FA24F12B60A0
(1170000000.489584) can0 5B3#0400000000000400
(1170000000.490588) can0 125#90002DDF20383F60
(1170000000.490590) can0 193#00080803E4980000
(1170000000.490591) can0 20E#4E2003A0003F8FFF
(1170000000.491594) can0 522#DF7FD1EF0870F0DC
(1170000000.491596) can0 366#7FDDC8020147CE78
(1170000000.491597) can0 580#000000038F080000
(1170000000.491598) can0 434#01A600AADB1BDCE0
(1170000000.492563) can0 2B4#12CBF20000005800
(1170000000.492565) can0 6E0#0000000000000000
(1170000000.492566) can0 498#84002000F9800003
(1170000000.492567) can0 230#10001EF29C001C00
(1170000000.493630) can0 00E#2053160208097556
(1170000000.494981) can0 FFF#0000000000000000
(1170000000.496009) can0 153#00000004000C0004
(1170000000.496010) can0 354#1FFF400000040900
(1170000000.496011) can0 5E1#893FE00B0A000080
(1170000000.496012) can0 662#4E20000040000000
(1170000000.496969) can0 28B#0000000000000000
(1170000000.496971) can0 19C#04FA200002002890
(1170000000.496972) can0 0D0#12710460FA000000
(1170000000.496973) can0 033#0007D0000C8007D0
(1170000000.498030) can0 274#00F202FD107C81DD
(1170000000.498033) can0 0C0#0000000000000000
(1170000000.498034) can0 0A7#2010FA24F12B60A0
(1170000000.498035) can0 407#4000DFF01C802A20
(1170000000.499992) can0 69E#0440047E1FC01542
(1170000000.500952) can0 125#90002DDF203A0160
(1170000000.500954) can0 6E0#0000000000000000
(1170000000.500955) can0 107#0000000000000000
(1170000000.501994) can0 FFF#0000000000000000
(1170000000.501996) can0 1C4#0000020002000000
(1170000000.501997) can0 2A4#2E8C021C040898D0
(1170000000.502003) can0 FFF#0000000000000000
(1170000000.503021) can0 32D#00000420A8010020
(1170000000.503022) can0 00E#205316020809755C
(1170000000.504304) can0 576#7FF800003FFC1FC0
(1170000000.505315) can0 3C1#7B551FBBC460692E
(1170000000.505317) can0 533#ED7FCF7EFFF5EF7F
(1170000000.505318) can0 0D0#1A710460F9000000
(1170000000.505319) can0 033#0007C8000CC007D0
(1170000000.506335) can0 2E1#0000000000000004
(1170000000.506337) can0 354#1FFF40000003FA00
(1170000000.506338) can0 5E1#893FE00B0A000080
(1170000000.506339) can0 162#00080003EA11F4CE
(1170000000.507337) can0 0A7#2010FA24E12B60A0
(1170000000.507338) can0 66C#0080100018000020
(1170000000.509977) can0 125#90002DDF2039E360
(1170000000.510949) can0 193#00080803E4980000
(1170000000.510951) can0 20E#4E2003A0003F6FFF
(1170000000.510952) can0 522#DF7FD1EF07F8F0DC
(1170000000.510953) can0 366#7FDDC8020147CE78
(1170000000.511950) can0 580#0000000387880000
(1170000000.511951) can0 434#01C640AADB1BDCE0
(1170000000.511953) can0 6E0#0000000000000000
(1170000000.512954) can0 498#84002000F8800004
(1170000000.512956) can0 230#0F001EF29C001E00
(1170000000.512957) can0 00E#2052D60208097556
(1170000000.513954) can0 4FD#11230A5031074A08
(1170000000.514974) can0 FFF#0000000000000000
(1170000000.515975) can0 153#00000004000C0004
(1170000000.515976) can0 354#1FFF40000003FA00
(1170000000.515977) can0 5E1#893FE00B0A000080
(1170000000.515978) can0 295#0000000000000040
(1170000000.516999) can0 662#4E20000040000000
(1170000000.517001) can0 28B#0000000000000000
(1170000000.517002) can0 19C#08F6200002002890
(1170000000.517002) can0 0D0#22710460F8000000
(1170000000.518017) can0 033#0007C0000D0007D0
(1170000000.518018) can0 274#00F204FB107C81DD
(1170000000.518019) can0 0C0#0000000000000000
(1170000000.518020) can0 0A7#2010FA24F12B60A0
(1170000000.519013) can0 03D#0000240000000000
(1170000000.520034) can0 69E#0440047E1FC01542
(1170000000.521039) can0 125#90002DDF2039C560
(1170000000.521040) can0 6E0#0000000000000000
(1170000000.521041) can0 107#0000000000000000
(1170000000.522039) can0 FFF#0000000000000000
(1170000000.522040) can0 0BA#06A811C410000866
(1170000000.523038) can0 00E#2053160208097556
(1170000000.524059) can0 FFF#0000000000000000
(1170000000.525033) can0 0D0#2A710460F7000000
(1170000000.526060) can0 033#0007B8000D4007D0
(1170000000.526062) can0 2E1#0000000000000004
(1170000000.526063) can0 354#1FFF40000003F280
(1170000000.526064) can0 5E1#893FE00B0A000080
(1170000000.527058) can0 162#00080003EA11F4CE
(1170000000.527059) can0 FFF#0000000000000000
(1170000000.527060) can0 FFF#0000000000000000
(1170000000.527061) can0 0F4#9A0C010204B10240
(1170000000.528078) can0 0A7#2010FA24F12B60A0
(1170000000.528079) can0 577#0000080000000144
(1170000000.529332) can0 3C1#7B551FBB04A0E92E
(1170000000.530405) can0 125#90002DDF2039A760
(1170000000.530406) can0 193#00080803E4980000
(1170000000.531430) can0 20E#4E2003A0003F6FFF
(1170000000.531431) can0 522#DF7FD1EF0F00F09C
(1170000000.531432) can0 366#7FDDC8020147CE78
(1170000000.531433) can0 580#00000003F8080000
(1170000000.532448) can0 434#01E5A0AADB1BDCE0
(1170000000.532449) can0 6E0#0000000000000000
(1170000000.532450) can0 498#84002000F7800005
(1170000000.532451) can0 464#0002400000901994
(1170000000.532452) can0 230#1E001EF29C000000
(1170000000.533445) can0 00E#205316020809755C
(1170000000.534512) can0 03C#0000040029000000
(1170000000.535498) can0 207#0404604828DEF518
(1170000000.535499) can0 4C9#01F915820D02F64B
(1170000000.535499) can0 153#00000004000C0004
(1170000000.535500) can0 354#1FFF40000003F280
(1170000000.536532) can0 5E1#893FE00B0A000080
(1170000000.536533) can0 662#4E20000040000000
(1170000000.536534) can0 28B#0000000000000000
(1170000000.536535) can0 19C#0CF2200002002890
(1170000000.537533) can0 0D0#32710460F6000000
(1170000000.537534) can0 033#0007B0000D8007D0
(1170000000.537535) can0 274#00F206F9107C81DD
(1170000000.537536) can0 0C0#0000000000000000
(1170000000.538548) can0 0A7#2010FA24F12B60A0
(1170000000.538549) can0 1CA#3FF9FF8000000C38
(1170000000.538550) can0 FFF#0000000000000000
(1170000000.538550) can0 1D6#060B808030240580
(1170000000.539572) can0 585#0040000000020018
(1170000000.540594) can0 69E#0440047E1FC01542
(1170000000.540595) can0 125#90002DDF20398960
(1170000000.540596) can0 6E0#0000000000000000
(1170000000.541594) can0 107#0000000000000000
(1170000000.541595) can0 FFF#0000000000000000
(1170000000.542616) can0 00E#2053160208097556
(1170000000.544987) can0 295#0000000000000040
(1170000000.546037) can0 0D0#3A710460F5000000
(1170000000.546039) can0 2E1#0000000000000004
(1170000000.546040) can0 354#1FFF40000003E380
(1170000000.546040) can0 5E1#893FE00B0A000080
(1170000000.546986) can0 033#0007A8000DC007D0
(1170000000.546987) can0 162#00080003EA11F4CE
(1170000000.546988) can0 0A7#2010FA24F12B60A0
(1170000000.546989) can0 2A3#00000003FE802A80
(1170000000.548126) can0 0D7#0000020080000000
(1170000000.549970) can0 125#90002DDF20396B60
(1170000000.550997) can0 193#00080803E4980000
(1170000000.550998) can0 20E#4E2003A0003F4FFF
(1170000000.550999) can0 522#DF7FD1EF0E88F0DC
(1170000000.551000) can0 366#7FDDC8020147CE78
(1170000000.551996) can0 32D#00000420A8010020
(1170000000.551998) can0 580#00000003F0880000
(1170000000.551999) can0 434#020820AADB1BDCE0
(1170000000.551999) can0 6E0#0000000000000000
(1170000000.552945) can0 498#84002000F6800006
(1170000000.552946) can0 230#1D001EF29C000200
(1170000000.552947) can0 00E#2053160208097556
(1170000000.554486) can0 3C1#7B551FBB03E1A92E
(1170000000.555474) can0 FFF#0000000000000000
(1170000000.555475) can0 153#00000004000C0004
(1170000000.555476) can0 354#1FFF40000003DC00
(1170000000.556492) can0 5E1#893FE00B0A000080
(1170000000.556494) can0 662#4E20000040000000
(1170000000.556495) can0 28B#0000000000000000
(1170000000.556496) can0 19C#10EE200002002890
(1170000000.557516) can0 0D0#42710460F4000000
(1170000000.557518) can0 033#0007A0000E0007D0
(1170000000.557519) can0 274#00F208F7107C81DD
(1170000000.557520) can0 0C0#0000000000000000
(1170000000.558510) can0 6FC#0000075590B75820
(1170000000.558512) can0 0A7#2010FA24F12B60A0
(1170000000.558513) can0 239#0000007D000040A0
(1170000000.560026) can0 69E#0440047E1FC01542
(1170000000.560958) can0 125#90002DDF20394D60
(1170000000.560960) can0 6E0#0000000000000000
(1170000000.560961) can0 107#0000000000000000
(1170000000.562042) can0 FFF#0000000000000000
(1170000000.562045) can0 0BA#06A811C410000866
(1170000000.562046) can0 0F1#42101D4003D9D400
(1170000000.563059) can0 00E#2053160208097556
(1170000000.563060) can0 2E2#18080D4040000118
(1170000000.563061) can0 345#050202C23C774081
(1170000000.564081) can0 430#003F448C588010A0
(1170000000.564083) can0 130#0001600000000000
(1170000000.564084) can0 4FD#11190A5023054988
(1170000000.565004) can0 0D0#4A710460F3000000
(1170000000.566100) can0 033#000798000E4007D0
(1170000000.566102) can0 2E1#0000000000000004
(1170000000.566103) can0 354#1FFF40000003DC00
(1170000000.566104) can0 5E1#893FE00B0A000080
(1170000000.567123) can0 162#00080003EA11F4CE
(1170000000.567125) can0 0A7#2010FA24F12B60A0
(1170000000.567126) can0 497#0000000000000000
(1170000000.569376) can0 2C1#01F36FC7CA1EED0E
(1170000000.570403) can0 125#90002DDF20392F60
(1170000000.570405) can0 193#00080803E4980000
(1170000000.571424) can0 20E#4E2003A0003F6FFF
(1170000000.571426) can0 522#DF7FD1EF0E10F0DC
(1170000000.571427) can0 366#7FDDC8020147CE78
(1170000000.571427) can0 580#00000003E9080000
(1170000000.572422) can0 434#022820AADB1BDCE0
(1170000000.572424) can0 6E0#0000000000000000
(1170000000.572425) can0 498#84002000F5800007
(1170000000.572426) can0 230#1C001EF29C000400
(1170000000.573436) can0 00E#205316020809755C
(1170000000.575062) can0 4E7#00000013037D0000
(1170000000.576059) can0 153#00000004000C0004
(1170000000.576061) can0 354#1FFF40000003CD00
(1170000000.576062) can0 FFF#0000000000000000
(1170000000.576063) can0 5E1#893FE00B0A000080
(1170000000.577028) can0 295#0000000000000040
(1170000000.577029) can0 662#4E20000040000000
(1170000000.577030) can0 684#58DD8019416DD01E
(1170000000.577031) can0 636#249C0000F08DA000
(1170000000.578109) can0 2D7#100060D800000008
(1170000000.578112) can0 28B#0000000000000000
(1170000000.578113) can0 19C#14EA200002002890
(1170000000.578114) can0 0D0#52710460F2000000
(1170000000.579110) can0 033#000790000E8007D0
(1170000000.579111) can0 274#00F20AF5107C81DD
(1170000000.579112) can0 0C0#0000000000000000
(1170000000.579113) can0 0A7#2010FA24E12B60A0
(1170000000.580154) can0 2D2#0000280000000000
(1170000000.580156) can0 3C1#7B551FBB0362292E
(1170000000.580157) can0 FFF#0000000000000000
(1170000000.580157) can0 3E4#00FC000005000000
(1170000000.580158) can0 69E#0440047E1FC01542
(1170000000.581131) can0 125#90002DDF20391160
(1170000000.581133) can0 6E0#0000000000000000
(1170000000.581134) can0 65C#400D527690000000
(1170000000.581135) can0 107#0000000000000000
(1170000000.582169) can0 FFF#0000000000000000
(1170000000.582171) can0 577#0000080000000144
(1170000000.583197) can0 00E#2053160208097556
(1170000000.584564) can0 26E#0106408289460A04
(1170000000.585587) can0 0D0#5A710460F1000000
(1170000000.585589) can0 033#000788000EC007D0
(1170000000.585590) can0 2E1#0000000000000004
(1170000000.586589) can0 354#1FFF40000003BE00
(1170000000.586591) can0 5E1#893FE00B0A000080
(1170000000.586592) can0 162#00080003EA11F4CE
(1170000000.586593) can0 0A7#2010FA24E12B60A0
(1170000000.589302) can0 5B3#0400000000000400
(1170000000.590366) can0 125#90002DDF2038F360
(1170000000.590368) can0 193#00080803E4980000
(1170000000.591385) can0 20E#4E2003A0003F6FFF
(1170000000.591386) can0 522#DF7FD1EF0D98F0DC
(1170000000.591387) can0 366#7FDDC8020147CE78
(1170000000.591388) can0 580#00000003E1880000
(1170000000.592382) can0 434#024000AADB1BDCE0
(1170000000.592384) can0 6E0#0000000000000000
(1170000000.592385) can0 498#84002000F4800008
(1170000000.592386) can0 230#1B001EF29C000600
(1170000000.593365) can0 2B4#12CBF20000005800
(1170000000.593367) can0 00E#2053160208097556
(1170000000.594866) can0 FFF#0000000000000000
(1170000000.595924) can0 153#00000004000C0004
(1170000000.595927) can0 354#1FFF40000003BE00
(1170000000.595933) can0 5E1#893FE00B0A000080
(1170000000.595934) can0 662#4E20000040000000
(1170000000.596843) can0 28B#0000000000000000
(1170000000.596846) can0 19C#18E6200002002890
(1170000000.596851) can0 0D0#62710460F0000000
(1170000000.596852) can0 033#000780000F0007D0
(1170000000.597849) can0 274#00F20CF3107C81DD
(1170000000.597851) can0 0C0#0000000000000000
(1170000000.597852) can0 0A7#2010FA24E12B60A0
(1170000000.597855) can0 407#4000DFF01C802A20
(1170000000.598850) can0 4CB#8000000000000000
(1170000000.598851) can0 280#18E0027000000000
(1170000000.599901) can0 69E#0440047E1FC01542
(1170000000.600922) can0 125#90002DDF2038D560
(1170000000.600923) can0 6E0#0000000000000000
(1170000000.601956) can0 107#0000000000000000
(1170000000.601958) can0 FFF#0000000000000000
(1170000000.601959) can0 0BA#06A811C410000866
(1170000000.601960) can0 297#1100002000025110
(1170000000.601961) can0 51B#2909183F01060801
(1170000000.602971) can0 32D#00000420A8010020
(1170000000.602972) can0 00E#2053160208097550
(1170000000.604308) can0 3C1#7B551FBB4262E92E
(1170000000.605396) can0 295#0000000000000040
(1170000000.605397) can0 0D0#6A710460EF000000
(1170000000.606441) can0 2E1#0000000000000004
(1170000000.606442) can0 354#1FFF40000003B680
(1170000000.606443) can0 5E1#893FE00B0A000080
(1170000000.606444) can0 033#000778000F4007D0
(1170000000.607461) can0 162#00080003EA11F4CE
(1170000000.607463) can0 0A7#2010FA24F12B60A0
(1170000000.607464) can0 66C#0080100018000020
(1170000000.609971) can0 125#90002DDF2038B760
(1170000000.610972) can0 193#00080803E4980000
(1170000000.610973) can0 20E#4E2003A0003F6FFF
(1170000000.610974) can0 522#DF7FD1EF0D20F0DC
(1170000000.610974) can0 366#7FDDC8020147CE78
(1170000000.611984) can0 580#00000003DA080000
(1170000000.611985) can0 434#026000AADB1BDCE0
(1170000000.611986) can0 6E0#0000000000000000
(1170000000.611987) can0 498#84002000F3800009
(1170000000.612947) can0 230#1A001EF29C000800
(1170000000.612950) can0 00E#2053160208097556
(1170000000.614012) can0 4FD#11210A502D06CA08
(1170000000.615033) can0 FFF#0000000000000000
(1170000000.616054) can0 153#00000004000C0004
(1170000000.616055) can0 354#1FFF40000003B680
(1170000000.616056) can0 5E1#893FE00B0A000080
(1170000000.616057) can0 662#4E20000040000000
(1170000000.616964) can0 28B#0000000000000000
(1170000000.616965) can0 19C#1CE2200002002890
(1170000000.616966) can0 0D0#72710460EE000000
(1170000000.616967) can0 033#000770000F8007D0
(1170000000.618056) can0 274#00F20EF1107C81DD
(1170000000.618057) can0 0C0#0000000000000000
(1170000000.618058) can0 0A7#2010FA24E12B60A0
(1170000000.618059) can0 03D#0000240000000000
(1170000000.620007) can0 69E#0440047E1FC01542
(1170000000.620949) can0 125#90002DDF20389960
(1170000000.620952) can0 6E0#0000000000000000
(1170000000.622016) can0 107#0000000000000000
(1170000000.622017) can0 FFF#0000000000000000
(1170000000.623038) can0 00E#205316020809755C
(1170000000.624056) can0 FFF#0000000000000000
(1170000000.624987) can0 0D0#7A710460ED000000
(1170000000.626100) can0 033#000768000FC007D0
(1170000000.626101) can0 2E1#0000000000000004
(1170000000.626102) can0 354#1FFF40000003A780
(1170000000.626103) can0 5E1#893FE00B0A000080
(1170000000.627098) can0 162#00080003EA11F4CE
(1170000000.627100) can0 0A7#2010FA24F12B60A0
(1170000000.627101) can0 55C#101B000041823000
(1170000000.627102) can0 FFF#0000000000000000
(1170000000.628116) can0 FFF#0000000000000000
(1170000000.628117) can0 0F4#9A0C010204B10240
(1170000000.628118) can0 577#0000080000000144
(1170000000.629365) can0 3C1#7B551FBB81A3692E
(1170000000.630383) can0 125#90002DDF20387B60
(1170000000.630385) can0 193#00080803E4980000
(1170000000.631410) can0 20E#4E2003A0003F6FFF
(1170000000.631411) can0 522#DF7FD1EF0CA8F0DC
(1170000000.631412) can0 366#7FDDC8020147CE78
(1170000000.631413) can0 580#00000003D2880000
(1170000000.632379) can0 434#028AA0AADB1BDCE0
(1170000000.632380) can0 6E0#0000000000000000
(1170000000.632381) can0 498#84002000F280000A
(1170000000.632382) can0 464#0002400000901895
(1170000000.633419) can0 00E#2053160208097556
(1170000000.633421) can0 230#19001EF29C000A00
(1170000000.634493) can0 03C#000004002A000000
(1170000000.635509) can0 207#0404604828DEF518
(1170000000.635511) can0 4C9#01F915820D02F64B
(1170000000.635512) can0 153#00000004000C0004
(1170000000.635513) can0 354#1FFF400000041800
(1170000000.636527) can0 5E1#893FE00B0A000080
(1170000000.636529) can0 295#0000000000000040
(1170000000.636530) can0 662#4E20000040000000
(1170000000.636531) can0 28B#0000000000000000
(1170000000.637447) can0 19C#00FE200002002890
(1170000000.637449) can0 0D0#02710460FC000000
(1170000000.637450) can0 033#0007E0000C0007D0
(1170000000.637451) can0 274#00F200FF107C81DD
(1170000000.638542) can0 0C0#0000000000000000
(1170000000.638543) can0 0A7#2010FA24E12B60A0
(1170000000.638544) can0 1CA#3FF9FF8000000C38
(1170000000.638545) can0 FFF#0000000000000000
(1170000000.639564) can0 1D6#020F828030240580
(1170000000.639566) can0 585#0040000000020018
(1170000000.640564) can0 69E#0440047E1FC01542
(1170000000.640566) can0 125#90002DDF20385D60
(1170000000.640567) can0 6E0#0000000000000000
(1170000000.641583) can0 107#0000000000000000
(1170000000.641585) can0 FFF#0000000000000000
(1170000000.641586) can0 0BA#06A811C410000866
(1170000000.642607) can0 00E#205316020809755C
(1170000000.645015) can0 0D7#0000020080000000
(1170000000.646090) can0 0D0#0A710460FB000000
(1170000000.646091) can0 2E1#0000000000000004
(1170000000.646093) can0 354#1FFF400000041800
(1170000000.646094) can0 5E1#893FE00B0A000080
(1170000000.647091) can0 033#0007D8000C4007D0
(1170000000.647092) can0 162#00080003EA11F4CE
(1170000000.647093) can0 0A7#2010FA24F12B60A0
(1170000000.647094) can0 2A3#00000003FE802B80
(1170000000.649990) can0 125#90002DDF20383F60
(1170000000.651007) can0 193#00080803E4980000
(1170000000.651009) can0 20E#4E2007A0003F6FFF
(1170000000.651010) can0 522#DF7FD1EF0C30F0DC
(1170000000.651011) can0 366#7FDDC8020147CE78
(1170000000.652026) can0 32D#00000420A8010020
(1170000000.652027) can0 580#00000003CB080000
(1170000000.652028) can0 434#02AAA0AADB1BDCE0
(1170000000.652029) can0 6E0#0000000000000000
(1170000000.653001) can0 498#84002000F180000B
(1170000000.653002) can0 230#18001EF29C000C00
(1170000000.653003) can0 00E#205316020809755C
(1170000000.654451) can0 3C1#7B551FBBC0A4292E
(1170000000.655441) can0 FFF#0000000000000000
(1170000000.655443) can0 153#00000004000C0004
(1170000000.656464) can0 354#1FFF400000040900
(1170000000.656465) can0 5E1#893FE00B0A000080
(1170000000.656466) can0 662#4E20000040000000
(1170000000.656467) can0 28B#0000000000000000
(1170000000.656468) can0 19C#04FA200002002890
(1170000000.657478) can0 0D0#12710460FA000000
(1170000000.657480) can0 033#0007D0000C8007D0
(1170000000.657488) can0 274#00F202FD107C81DD
(1170000000.657489) can0 0C0#0000000000000000
(1170000000.658508) can0 6FC#0000075570B75820
(1170000000.658510) can0 0A7#2010FA24F12B60A0
(1170000000.658511) can0 239#0000007D000040A0
(1170000000.659994) can0 69E#0440047E1FC01542
(1170000000.660968) can0 125#90002DDF203A0160
(1170000000.660970) can0 6E0#0000000000000000
(1170000000.660971) can0 107#0000000000000000
(1170000000.662029) can0 FFF#0000000000000000
(1170000000.663050) can0 00E#2053160208097550
(1170000000.663052) can0 2E2#18080D4040000118
(1170000000.663053) can0 345#050202C23C774081
(1170000000.664048) can0 430#003F448C588010A0
(1170000000.664050) can0 130#0001600000000000
(1170000000.664051) can0 4FD#111D0A5029064A08
(1170000000.665018) can0 295#0000000000000040
(1170000000.666042) can0 0D0#1A710460F9000000
(1170000000.666043) can0 2E1#0000000000000004
(1170000000.666044) can0 354#1FFF40000003FA00
(1170000000.666045) can0 5E1#893FE00B0A000080
(1170000000.667040) can0 033#0007C8000CC007D0
(1170000000.667041) can0 162#00080003EA11F4CE
(1170000000.667042) can0 0A7#2010FA24F12B60A0
(1170000000.667043) can0 497#0000000000000000
(1170000000.669982) can0 125#90002DDF2039E360
(1170000000.670964) can0 193#00080803E4980000
(1170000000.670966) can0 20E#4E2003A0003F6FF7
(1170000000.670967) can0 522#DF7FD1EF0BB8F0DC
(1170000000.670968) can0 366#7FDDC8020147CE78
(1170000000.671986) can0 580#00000003C3880000
(1170000000.671988) can0 434#02CAA0AADB1BDCE0
(1170000000.671989) can0 6E0#0000000000000000
(1170000000.671990) can0 498#84002000F080000C
(1170000000.672916) can0 230#17001EF29C000E00
(1170000000.672918) can0 00E#2053160208097556
(1170000000.674455) can0 2C1#01F3AFC7C99ED524
(1170000000.675461) can0 4E7#00000013037D0000
(1170000000.675463) can0 153#00000004000C0004
(1170000000.676455) can0 354#1FFF40000003FA00
(1170000000.676457) can0 FFF#0000000000000000
(1170000000.676458) can0 5E1#893FE00B0A000080
(1170000000.676459) can0 662#4E20000040000000
(1170000000.677500) can0 684#58DC8019416DD01E
(1170000000.677502) can0 636#249C0000F08DA000
(1170000000.677503) can0 2D7#100060D800000008
(1170000000.677504) can0 28B#0000000000000000
(1170000000.677505) can0 19C#08F6200002002890
(1170000000.678505) can0 0D0#22710460F8000000
(1170000000.678506) can0 033#0007C0000D0007D0
(1170000000.678507) can0 274#00F204FB107C81DD
(1170000000.678508) can0 0C0#0000000000000000
(1170000000.679523) can0 0A7#2010FA24F12B60A0
(1170000000.679525) can0 2D2#0000300000000000
(1170000000.679526) can0 FFF#0000000000000000
(1170000000.679527) can0 3C1#7B551FBB40A4A92E
(1170000000.680528) can0 3E4#00FC000005000000
(1170000000.680531) can0 65C#400D527690000000
(1170000000.680532) can0 69E#0440047E1FC01542
(1170000000.680533) can0 125#90002DDF2039C560
(1170000000.681543) can0 6E0#0000000000000000
(1170000000.681545) can0 577#0000080000000144
(1170000000.681546) can0 107#0000000000000000
(1170000000.681547) can0 FFF#0000000000000000
(1170000000.682566) can0 0BA#06A811C410000866
(1170000000.682568) can0 00E#205316020809755C
(1170000000.684988) can0 26E#0106408289460A04
(1170000000.686045) can0 0D0#2A710460F7000000
(1170000000.686046) can0 2E1#0000000000000004
(1170000000.686047) can0 354#1FFF40000003F280
(1170000000.686048) can0 5E1#893FE00B0A000080
(1170000000.687067) can0 033#0007B8000D4007D0
(1170000000.687069) can0 162#00080003EA11F4CE
(1170000000.687076) can0 0A7#2010FA24F12B60A0
(1170000000.687077) can0 FFF#0000000000000000
(1170000000.689237) can0 5B3#0400000000000400
(1170000000.690258) can0 125#90002DDF2039A760
(1170000000.690260) can0 193#00080803E4980000
(1170000000.691275) can0 20E#4E2003A0003F8FFF
(1170000000.691277) can0 522#DF7FD1EF0B40F09C
(1170000000.691278) can0 366#7FDDC8020147CE78
(1170000000.691279) can0 580#00000003BC080000
(1170000000.692299) can0 434#02EAA0AADB1BDCE0
(1170000000.692300) can0 6E0#0000000000000000
(1170000000.692301) can0 498#84002000EF80000D
(1170000000.693280) can0 2B4#12CBF20000005800
(1170000000.693281) can0 00E#2053160208097556
(1170000000.693282) can0 230#16001EF29C001000
(1170000000.695054) can0 FFF#0000000000000000
(1170000000.696070) can0 153#00000004000C0004
(1170000000.696071) can0 354#1FFF40000003F280
(1170000000.696072) can0 5E1#893FE00B0A000080
(1170000000.696073) can0 295#0000000000000040
(1170000000.697002) can0 662#4E20000040000000
(1170000000.697005) can0 28B#0000000000000000
(1170000000.697006) can0 19C#0CF2200002002890
(1170000000.697007) can0 0D0#32710460F6000000
(1170000000.698087) can0 033#0007B0000D8007D0
(1170000000.698088) can0 274#00F206F9107C81DD
(1170000000.698089) can0 0C0#0000000000000000
(1170000000.698090) can0 0A7#2010FA24F12B60A0
(1170000000.699111) can0 407#4000DFF01C802A20
(1170000000.699113) can0 075#0E58000FA81D3400
(1170000000.700130) can0 69E#0440047E1FC01542
(1170000000.701087) can0 125#90002DDF20398960
(1170000000.701089) can0 6E0#0000000000000000
(1170000000.701090) can0 107#0000000000000000
(1170000000.702110) can0 FFF#0000000000000000
(1170000000.702112) can0 32D#00000420A8010020
(1170000000.703123) can0 00E#2053160208097556
(1170000000.704361) can0 0F8#7EDFF4FD49FBA7B8
(1170000000.705357) can0 3C1#7B551FBBFF65692E
(1170000000.705359) can0 0D0#3A710460F5000000
(1170000000.705360) can0 033#0007A8000DC007D0
(1170000000.706382) can0 2E1#0000000000000004
(1170000000.706385) can0 354#1FFF40000003E380
(1170000000.706386) can0 5E1#893FE00B0A000080
(1170000000.706387) can0 162#00080003EA11F4CE
(1170000000.707399) can0 0A7#2010FA24F12B60A0
(1170000000.707401) can0 03A#00000000001AB800
(1170000000.707402) can0 66C#0080100020000020
(1170000000.709976) can0 125#90002DDF20396B60
(1170000000.711005) can0 193#00080803E4980000
(1170000000.711007) can0 20E#4E2003A0003F8FFF
(1170000000.711008) can0 522#DF7FD1EF0AC8F0DC
(1170000000.711009) can0 366#7FDDC8020147CE78
(1170000000.712005) can0 580#00000003B4880000
(1170000000.712007) can0 434#030AA0AADB1BDCE0
(1170000000.712008) can0 6E0#0000000000000000
(1170000000.712009) can0 498#84002000EE80000E
(1170000000.712969) can0 230#15001EF29C001200
(1170000000.712971) can0 00E#2053160208097556
(1170000000.714027) can0 4FD#111B0A502505CA08
(1170000000.715048) can0 153#00000004000C0004
(1170000000.716067) can0 662#4E20000040000000
(1170000000.716069) can0 354#1FFF40000003DC00
(1170000000.716070) can0 5E1#893FE00B0A000080
(1170000000.716071) can0 28B#0000000000000000
(1170000000.717057) can0 19C#10EE200002002890
(1170000000.717058) can0 0D0#42710460F4000000
(1170000000.717059) can0 033#0007A0000E0007D0
(1170000000.717060) can0 274#00F208F7107C81DD
(1170000000.718109) can0 0C0#0000000000000000
(1170000000.718110) can0 0A7#2010FA24F12B60A0
(1170000000.718111) can0 03D#0000240000000000
(1170000000.718112) can0 FFF#0000000000000000
(1170000000.719994) can0 69E#0440047E1FC01542
(1170000000.720964) can0 125#90002DDF20394D60
(1170000000.720966) can0 6E0#0000000000000000
(1170000000.720967) can0 107#0000000000000000
(1170000000.722018) can0 FFF#0000000000000000
(1170000000.722019) can0 0BA#06A8118410000866
(1170000000.723029) can0 00E#2053160208097556
(1170000000.724050) can0 FFF#0000000000000000
(1170000000.725006) can0 295#0000000000000040
(1170000000.726000) can0 0D0#4A710460F3000000
(1170000000.726002) can0 2E1#0000000000000004
(1170000000.726003) can0 354#1FFF40000003DC00
(1170000000.726004) can0 5E1#893FE00B0A000080
(1170000000.727041) can0 033#000798000E4007D0
(1170000000.727042) can0 162#00080003EA11F4CE
(1170000000.727043) can0 0A7#2010FA24E12B60A0
(1170000000.727044) can0 577#0000080000000144
(1170000000.728013) can0 FFF#0000000000000000
(1170000000.728016) can0 FFF#0000000000000000
(1170000000.728017) can0 0F4#9A0C010204B10240
(1170000000.729323) can0 3C1#7B551FBBBF25E92E
(1170000000.730328) can0 125#90002DDF20392F60
(1170000000.730330) can0 193#00080803E4980000
(1170000000.731355) can0 20E#4E2003A0003F8FFF
(1170000000.731356) can0 522#DF7FD1EF0A50F0DC
(1170000000.731357) can0 366#7FDDC8020147CE78
(1170000000.731358) can0 580#00000003AD080000
(1170000000.732378) can0 434#032AA0AADB1BDCE0
(1170000000.732380) can0 6E0#0000000000000000
(1170000000.732381) can0 498#84002000ED80000F
(1170000000.732382) can0 464#0002400000901796
(1170000000.733398) can0 230#14001EF29C001400
(1170000000.733399) can0 00E#205316020809755C
(1170000000.734458) can0 03C#000004002A000000
(1170000000.735478) can0 207#0404604828DEF518
(1170000000.735479) can0 FFF#0000000000000000
(1170000000.735480) can0 153#00000004000C0004
(1170000000.735481) can0 662#4E20000040000000
(1170000000.736486) can0 354#1FFF40000003CD00
(1170000000.736488) can0 5E1#893FE00B0A000080
(1170000000.736489) can0 28B#0000000000000000
(1170000000.736490) can0 19C#14EA200002002890
(1170000000.737465) can0 0D0#52710460F2000000
(1170000000.737467) can0 033#000790000E8007D0
(1170000000.737468) can0 274#00F20AF5107C81DD
(1170000000.737479) can0 0C0#0000000000000000
(1170000000.738457) can0 0A7#2010FA24F12B60A0
(1170000000.738470) can0 1CA#3FF9FF8000000C38
(1170000000.738471) can0 4C9#01F915820D02F64B
(1170000000.738472) can0 1D6#020B808030240580
(1170000000.739454) can0 585#0040000000020018
(1170000000.740473) can0 69E#0440047E1FC01542
(1170000000.740475) can0 125#90002DDF20391160
(1170000000.740486) can0 6E0#0000000000000000
(1170000000.741505) can0 107#0000000000000000
(1170000000.741506) can0 FFF#0000000000000000
(1170000000.742510) can0 00E#205316020809755C
(1170000000.744987) can0 0D7#0000020080000000
(1170000000.746016) can0 0D0#5A710460F1000000
(1170000000.746017) can0 2E1#0000000000000004
(1170000000.746018) can0 354#1FFF40000003BE00
(1170000000.746019) can0 5E1#893FE00B0A000080
(1170000000.747037) can0 033#000788000EC007D0
(1170000000.747039) can0 162#00080003EA11F4CE
(1170000000.747040) can0 0A7#2010FA24F12B60A0
(1170000000.747041) can0 2A3#00000003FE802B80
(1170000000.749930) can0 125#90002DDF2038F360
(1170000000.750899) can0 193#00080803E4980000
(1170000000.750900) can0 20E#4E2003A0003F6FFF
(1170000000.750901) can0 522#DF7FD1EF09D8F09C
(1170000000.750902) can0 366#7FDDC8020147CE78
(1170000000.751932) can0 1C4#0000020002400000
(1170000000.751933) can0 580#00000003A5880000
(1170000000.751949) can0 434#034AA0AADB1BDCE0
(1170000000.751950) can0 6E0#0000000000000000
(1170000000.752974) can0 2A4#2020031C040898D0
(1170000000.752975) can0 498#84002000FC800000
(1170000000.752976) can0 00E#2053160208097556
(1170000000.752977) can0 32D#00000420A8010020
(1170000000.754026) can0 230#13001EF29C001600
(1170000000.755056) can0 3C1#7B551FBB3EE6A92E
(1170000000.755057) can0 153#00000004000C0004
(1170000000.755993) can0 295#0000000000000040
(1170000000.755995) can0 354#1FFF40000003BE00
(1170000000.755996) can0 5E1#893FE00B0A000080
(1170000000.755997) can0 662#4E20000040000000
(1170000000.757042) can0 28B#0000000000000000
(1170000000.757044) can0 19C#18E6200002002890
(1170000000.757045) can0 0D0#62710460F0000000
(1170000000.757046) can0 033#000780000F0007D0
(1170000000.758098) can0 274#00F20CF3107C81DD
(1170000000.758099) can0 0C0#0000000000000000
(1170000000.758100) can0 6FC#0000075570B75820
(1170000000.758101) can0 0A7#2010FA24F12B60A0
(1170000000.759118) can0 239#0000007D000040A0
(1170000000.759120) can0 FFF#0000000000000000
(1170000000.760137) can0 69E#0440047E1FC01542
(1170000000.761144) can0 125#90002DDF2038D560
(1170000000.761146) can0 6E0#0000000000000000
(1170000000.761147) can0 107#0000000000000000
(1170000000.762152) can0 FFF#0000000000000000
(1170000000.762153) can0 0BA#06A8118410000866
(1170000000.763158) can0 00E#2053160208097556
(1170000000.763159) can0 2E2#18080D4040000118
(1170000000.763160) can0 345#050202C23C774081
(1170000000.764184) can0 430#003F448C588010A0
(1170000000.764186) can0 130#0001600000000000
(1170000000.764187) can0 4FD#111C0A5027064A08
(1170000000.765131) can0 419#0A9BC64D045FC2EF
(1170000000.765133) can0 0D0#6A710460EF000000
(1170000000.766197) can0 033#000778000F4007D0
(1170000000.766200) can0 2E1#0000000000000004
(1170000000.766201) can0 354#1FFF40000003B680
(1170000000.766202) can0 5E1#893FE00B0A000080
(1170000000.767212) can0 162#00080003EA11F4CE
(1170000000.767214) can0 0A7#2010FA24F12B60A0
(1170000000.767215) can0 497#0000000000000000
(1170000000.769966) can0 125#90002DDF2038B760
(1170000000.770984) can0 193#00080803E4980000
(1170000000.770986) can0 20E#4E2003A0003F6FFF
(1170000000.770987) can0 522#DF7FD1EF0960F0DC
(1170000000.770988) can0 366#7FDDC8020147CE78
(1170000000.771998) can0 580#000000039E080000
(1170000000.772000) can0 434#036AA0AADB1BDCE0
(1170000000.772001) can0 6E0#0000000000000000
(1170000000.772002) can0 498#84002000FB800001
(1170000000.772968) can0 230#12001EF29C001800
(1170000000.772970) can0 00E#2053160208097556
(1170000000.775038) can0 FFF#0000000000000000
(1170000000.776048) can0 4E7#00000013037D0000
(1170000000.776050) can0 354#1FFF40000003B680
(1170000000.776051) can0 153#00000004000C0004
(1170000000.776052) can0 FFF#0000000000000000
(1170000000.777010) can0 5E1#893FE00B0A000080
(1170000000.777012) can0 662#4E20000040000000
(1170000000.777013) can0 684#58DD8019416DD01E
(1170000000.777014) can0 636#249C0000F08DA000
(1170000000.778071) can0 2D7#100060D800000008
(1170000000.778073) can0 28B#0000000000000000
(1170000000.778074) can0 19C#1CE2200002002890
(1170000000.778074) can0 0D0#72710460EE000000
(1170000000.779088) can0 033#000770000F8007D0
(1170000000.779091) can0 274#00F20EF1107C81DD
(1170000000.779092) can0 0C0#0000000000000000
(1170000000.779093) can0 0A7#2010FA24F12B60A0
(1170000000.780108) can0 2D2#0000380000000000
(1170000000.780116) can0 3C1#7B551FBBBDE7292E
(1170000000.780117) can0 2C1#01F38FC7C99EC338
(1170000000.780118) can0 55C#101B000041823000
(1170000000.780119) can0 69E#0440047E1FC01542
(1170000000.781068) can0 125#90002DDF20389960
(1170000000.781070) can0 6E0#0000000000000000
(1170000000.781071) can0 3E4#00FC000005000000
(1170000000.781072) can0 107#0000000000000000
(1170000000.782132) can0 FFF#0000000000000000
(1170000000.782133) can0 65C#400D527690000000
(1170000000.782134) can0 577#0000080000000144
(1170000000.783072) can0 00E#2053160208097556
(1170000000.784991) can0 295#0000000000000040
(1170000000.786046) can0 0D0#7A710460ED000000
(1170000000.786047) can0 2E1#0000000000000004
(1170000000.786048) can0 354#1FFF40000003A780
(1170000000.786049) can0 5E1#893FE00B0A000080
(1170000000.787048) can0 033#000768000FC007D0
(1170000000.787050) can0 162#00080003EA11F4CE
(1170000000.787051) can0 0A7#2010FA24F12B60A0
(1170000000.787052) can0 26E#0106408289460A04
(1170000000.789162) can0 5B3#0400000000000400
(1170000000.790191) can0 125#90002DDF20387B60
(1170000000.791227) can0 193#00080803E4980000
(1170000000.791229) can0 20E#4E2003A0003F6FFF
(1170000000.791231) can0 522#DF7FD1EF08E8F0DC
(1170000000.791232) can0 366#7FDDC8020147CE78
(1170000000.791233) can0 580#0000000396880000
(1170000000.792253) can0 434#0382A0AADB1BDCE0
(1170000000.792255) can0 6E0#0000000000000000
(1170000000.792256) can0 498#84002000FA800002
(1170000000.792257) can0 230#11001EF29C001A00
(1170000000.793235) can0 2B4#12CBF20000005800
(1170000000.793236) can0 00E#205316020809754A
(1170000000.794971) can0 FFF#0000000000000000
(1170000000.795962) can0 153#00000004000C0004
(1170000000.795964) can0 354#1FFF400000041800
(1170000000.795965) can0 5E1#893FE00B0A000080
(1170000000.795966) can0 662#4E20000040000000
(1170000000.796913) can0 28B#0000000000000000
(1170000000.796915) can0 19C#00FE200002002890
(1170000000.796916) can0 0D0#02710460FC000000
(1170000000.796917) can0 033#0007E0000C0007D0
(1170000000.797990) can0 274#00F200FF107C81DD
(1170000000.797992) can0 0C0#0000000000000000
(1170000000.797993) can0 0A7#2010FA24F12B60A0
(1170000000.797994) can0 407#4000DFF01C802A20
(1170000000.799019) can0 4CB#8000000000000000
(1170000000.799021) can0 280#18E0027000000000
(1170000000.800040) can0 69E#0440047E1FC01542
(1170000000.800981) can0 125#90002DDF20385D60
(1170000000.800984) can0 6E0#0000000000000000
(1170000000.800986) can0 107#0000000000000000
(1170000000.802023) can0 FFF#0000000000000000
(1170000000.802025) can0 0BA#06A8118410000866
(1170000000.802027) can0 51B#280C410128000121
(1170000000.802028) can0 32D#00000420A8010020
(1170000000.803021) can0 00E#2053160208097550
(1170000000.804357) can0 FFF#0000000000000000
(1170000000.805375) can0 3C1#7B551FBBFCE7E92E
(1170000000.805376) can0 0D0#0A710460FB000000
(1170000000.805377) can0 033#0007D8000C4007D0
(1170000000.806370) can0 2E1#0000000000000004
(1170000000.806372) can0 354#1FFF400000041800
(1170000000.806373) can0 5E1#893FE00B0A000080
(1170000000.806374) can0 162#00080003EA11F4CE
(1170000000.807390) can0 0A7#2010FA24F12B60A0
(1170000000.807391) can0 66C#0080100020000020
(1170000000.809912) can0 125#90002DDF20383F60
(1170000000.810932) can0 193#00080803E4980000
(1170000000.810933) can0 20E#4E2003A0003F6FFF
(1170000000.810934) can0 522#DF7FD1EF0870F0DC
(1170000000.810935) can0 366#7FDDC8020147CE78
(1170000000.811932) can0 580#000000038F080000
(1170000000.811933) can0 434#03AAA0AADB1BDCE0
(1170000000.811934) can0 6E0#0000000000000000
(1170000000.812950) can0 498#84002000F9800003
(1170000000.812952) can0 230#10001EF29C001C00
(1170000000.812953) can0 00E#2053160208097556
(1170000000.813952) can0 4FD#111D0A5027064A08
(1170000000.814972) can0 FFF#0000000000000000
(1170000000.815995) can0 153#00000004000C0004
(1170000000.815996) can0 354#1FFF400000040900
(1170000000.815997) can0 5E1#893FE00B0A000080
(1170000000.815998) can0 295#0000000000000040
(1170000000.817017) can0 662#4E20000040000000
(1170000000.817018) can0 28B#0000000000000000
(1170000000.817019) can0 19C#04FA200002002890
(1170000000.817020) can0 0D0#12710460FA000000
(1170000000.818015) can0 033#0007D0000C8007D0
(1170000000.818016) can0 274#00F202FD107C81DD
(1170000000.818017) can0 0C0#0000000000000000
(1170000000.818018) can0 0A7#2010FA24F12B60A0
(1170000000.819034) can0 03D#0000240000000000
(1170000000.820034) can0 69E#0440047E1FC01542
(1170000000.821054) can0 125#90002DDF203A0160
(1170000000.821055) can0 6E0#0000000000000000
(1170000000.821056) can0 107#0000000000000000
(1170000000.822076) can0 FFF#0000000000000000
(1170000000.823076) can0 00E#2053160208097556
(1170000000.824097) can0 FFF#0000000000000000
(1170000000.825118) can0 0D0#1A710460F9000000
(1170000000.826119) can0 033#0007C8000CC007D0
(1170000000.826120) can0 2E1#0000000000000004
(1170000000.826121) can0 354#1FFF40000003FA00
(1170000000.826122) can0 5E1#893FE00B0A000080
(1170000000.827140) can0 162#00080003EA11F4CE
(1170000000.827141) can0 0A7#2010FA24F12B60A0
(1170000000.827142) can0 577#0000080000000144
(1170000000.828158) can0 FFF#0000000000000000
(1170000000.828160) can0 FFF#0000000000000000
(1170000000.828161) can0 0F4#9A0C010204B10240
(1170000000.829267) can0 3C1#7B551FBC7BE8692E
(1170000000.830283) can0 125#90002DDF2039E360
(1170000000.830284) can0 193#00080803E4980000
(1170000000.831306) can0 20E#4E2007A0003F6FFF
(1170000000.831307) can0 522#DF7FD1EF07F8F0DC
(1170000000.831308) can0 366#7FDDC8020147CE78
(1170000000.831309) can0 580#0000000387880000
(1170000000.832306) can0 434#03CAA0AADB1BDCE0
(1170000000.832307) can0 6E0#0000000000000000
(1170000000.832308) can0 498#84002000F8800004
(1170000000.832309) can0 464#0002400000901697
(1170000000.833326) can0 230#0F001EF29C001E00
(1170000000.833328) can0 00E#2053160208097556
(1170000000.834389) can0 03C#000004002A000000
(1170000000.835410) can0 207#0404604828DEF518
(1170000000.835411) can0 4C9#01F915820D02F64B
(1170000000.835412) can0 153#00000004000C0004
(1170000000.835413) can0 354#1FFF40000003FA00
(1170000000.836410) can0 5E1#893FE00B0A000080
(1170000000.836411) can0 662#4E20000040000000
(1170000000.836412) can0 28B#0000000000000000
(1170000000.836413) can0 19C#08F6200002002890
(1170000000.837431) can0 0D0#22710460F8000000
(1170000000.837432) can0 033#0007C0000D0007D0
(1170000000.837433) can0 274#00F204FB107C81DD
(1170000000.837434) can0 0C0#0000000000000000
(1170000000.838452) can0 0A7#2010FA24F12B60A0
(1170000000.838453) can0 1CA#3FF9FF8000000C38
(1170000000.838454) can0 FFF#0000000000000000
(1170000000.838455) can0 1D6#020F828030240580
(1170000000.839451) can0 585#0040000000020018
(1170000000.840473) can0 69E#0440047E1FC01542
(1170000000.840474) can0 125#90002DDF2039C560
(1170000000.840475) can0 6E0#0000000000000000
(1170000000.841473) can0 107#0000000000000000
(1170000000.841474) can0 FFF#0000000000000000
(1170000000.841475) can0 0BA#06A8118410000866
(1170000000.842556) can0 00E#205316020809755C
(1170000000.844993) can0 295#0000000000000040
(1170000000.846015) can0 0D0#2A710460F7000000
(1170000000.846016) can0 2E1#0000000000000004
(1170000000.846017) can0 354#1FFF40000003F280
(1170000000.846018) can0 5E1#893FE00B0A000080
(1170000000.847015) can0 033#0007B8000D4007D0
(1170000000.847016) can0 162#00080003EA11F4CE
(1170000000.847017) can0 0A7#2010FA24F12B60A0
(1170000000.847018) can0 2A3#00000003FE802B00
(1170000000.848033) can0 0D7#0000020080000000
(1170000000.849887) can0 125#90002DDF2039A760
(1170000000.850910) can0 193#00080803E4980000
(1170000000.850912) can0 20E#4E2007A0003F6FFF
(1170000000.850913) can0 522#DF7FD1EF0F00F09C
(1170000000.850914) can0 366#7FDDC8020147CE78
(1170000000.851910) can0 32D#00000420A8010020
(1170000000.851911) can0 580#00000003F8080000
(1170000000.851912) can0 434#03EAA0AADB1BDCE0
(1170000000.851913) can0 6E0#0000000000000000
(1170000000.852899) can0 498#84002000F7800005
(1170000000.852900) can0 230#1E001EF29C000000
(1170000000.852901) can0 00E#2053160208097556
(1170000000.854328) can0 3C1#7B551FBBFBA9292E
(1170000000.855347) can0 FFF#0000000000000000
(1170000000.855348) can0 153#00000004000C0004
(1170000000.856369) can0 354#1FFF40000003F280
(1170000000.856370) can0 5E1#893FE00B0A000080
(1170000000.856371) can0 662#4E20000040000000
(1170000000.856372) can0 28B#0000000000000000
(1170000000.857392) can0 19C#0CF2200002002890
(1170000000.857393) can0 0D0#32710460F6000000
(1170000000.857394) can0 033#0007B0000D8007D0
(1170000000.857395) can0 274#00F206F9107C81DD
(1170000000.858390) can0 0C0#0000000000000000
(1170000000.858391) can0 6FC#0000075570B75820
(1170000000.858392) can0 0A7#2010FA24F12B60A0
(1170000000.858393) can0 239#0000007D000040A0
(1170000000.859934) can0 2AB#A4D0C9D7E2734B3D
(1170000000.860873) can0 69E#0440047E1FC01542
(1170000000.860875) can0 125#90002DDF20398960
(1170000000.860876) can0 6E0#0000000000000000
(1170000000.860877) can0 6D7#01061100A02F223C
(1170000000.861920) can0 107#0000000000000000
(1170000000.861922) can0 FFF#0000000000000000
(1170000000.861923) can0 12C#7909C000A76DFDD0
(1170000000.862949) can0 00E#2053160208097550
(1170000000.862950) can0 2E2#18080D4040000118
(1170000000.863999) can0 345#050202C23C774081
(1170000000.864000) can0 430#003F448C588010A0
(1170000000.864001) can0 130#0001600000000000
(1170000000.864002) can0 4FD#111D0A5027064A08
(1170000000.864975) can0 0D0#3A710460F5000000
(1170000000.866014) can0 033#0007A8000DC007D0
(1170000000.866015) can0 2E1#0000000000000004
(1170000000.866016) can0 354#1FFF40000003E380
(1170000000.866017) can0 5E1#893FE00B0A000080
(1170000000.867006) can0 162#00080003EA11F4CE
(1170000000.867007) can0 0A7#2010FA24F12B60A0
(1170000000.867008) can0 497#0000000000000000
(1170000000.869953) can0 125#90002DDF20396B60
(1170000000.870893) can0 193#00080803E4980000
(1170000000.870894) can0 20E#4E2003A0003F6FFF
(1170000000.870895) can0 522#DF7FD1EF0E88F0DC
(1170000000.870896) can0 366#7FDDC8020147CE78
(1170000000.871937) can0 580#00000003F0880000
(1170000000.871938) can0 434#040AA0AADB1BDCE0
(1170000000.871939) can0 6E0#0000000000000000
(1170000000.872987) can0 498#84002000F6800006
(1170000000.872988) can0 230#1D001EF29C000200
(1170000000.872993) can0 00E#2053160208097550
(1170000000.874974) can0 4E7#00000013037D0000
(1170000000.875994) can0 153#00000004000C0004
(1170000000.875995) can0 354#1FFF40000003DC00
(1170000000.875996) can0 FFF#0000000000000000
(1170000000.875997) can0 5E1#893FE00B0A000080
(1170000000.877015) can0 295#0000000000000040
(1170000000.877016) can0 662#4E20000040000000
(1170000000.877017) can0 684#58DC8019416DD01E
(1170000000.877018) can0 636#249C0000F08DA000
(1170000000.878035) can0 2D7#100060D800000008
(1170000000.878036) can0 28B#0000000000000000
(1170000000.878037) can0 19C#10EE200002002890
(1170000000.878038) can0 0D0#42710460F4000000
(1170000000.879056) can0 033#0007A0000E0007D0
(1170000000.879058) can0 274#00F208F7107C81DD
(1170000000.879059) can0 0C0#0000000000000000
(1170000000.879060) can0 0A7#2010FA24F12B60A0
(1170000000.880078) can0 2D2#0000400000000000
(1170000000.880079) can0 3C1#7B551FBBBB69A92E
(1170000000.880080) can0 FFF#0000000000000000
(1170000000.880081) can0 3E4#00FC000005000000
(1170000000.880082) can0 69E#0440047E1FC01542
(1170000000.881098) can0 125#90002DDF20394D60
(1170000000.881099) can0 6E0#0000000000000000
(1170000000.881100) can0 65C#400D527690000000
(1170000000.881101) can0 107#0000000000000000
(1170000000.882118) can0 FFF#0000000000000000
(1170000000.882119) can0 0BA#06A8118410000866
(1170000000.882120) can0 577#0000080000000144
(1170000000.883139) can0 00E#2053160208097556
(1170000000.884305) can0 2C1#01F36FC7CA9EAB4E
(1170000000.885305) can0 0D0#4A710460F3000000
(1170000000.885306) can0 033#000798000E4007D0
(1170000000.886327) can0 2E1#0000000000000004
(1170000000.886328) can0 354#1FFF40000003DC00
(1170000000.886329) can0 5E1#893FE00B0A000080
(1170000000.886330) can0 162#00080003EA11F4CE
(1170000000.887326) can0 0A7#2010FA24F12B60A0
(1170000000.887327) can0 26E#0106408289460A04
(1170000000.889013) can0 5B3#0400000000000400
(1170000000.890034) can0 125#90002DDF20392F60
(1170000000.891056) can0 193#00080803E4980000
(1170000000.891057) can0 20E#4E2003A0003F6FFF
(1170000000.891058) can0 522#DF7FD1EF0E10F0DC
(1170000000.891059) can0 366#7FDDC8020147CE78
(1170000000.892056) can0 580#00000003E9080000
(1170000000.892057) can0 434#042AA0AADB1BDCE0
(1170000000.892058) can0 6E0#0000000000000000
(1170000000.892059) can0 498#84002000F5800007
(1170000000.893076) can0 230#1C001EF29C000400
(1170000000.893077) can0 2B4#12CBF20000005800
(1170000000.893078) can0 00E#205316020809755C
(1170000000.894993) can0 FFF#0000000000000000
(1170000000.896017) can0 153#00000004000C0004
(1170000000.896018) can0 354#1FFF40000003CD00
(1170000000.896019) can0 5E1#893FE00B0A000080
(1170000000.896020) can0 662#4E20000040000000
(1170000000.897019) can0 28B#0000000000000000
(1170000000.897020) can0 19C#14EA200002002890
(1170000000.897021) can0 0D0#52710460F2000000
(1170000000.897022) can0 033#000790000E8007D0
(1170000000.898035) can0 274#00F20AF5107C81DD
(1170000000.898036) can0 0C0#0000000000000000
(1170000000.898037) can0 0A7#2010FA24E12B60A0
(1170000000.898038) can0 407#4000DFF01C802A20
(1170000000.899931) can0 69E#0440047E1FC01542
(1170000000.900894) can0 125#90002DDF20391160
(1170000000.900895) can0 6E0#0000000000000000
(1170000000.900896) can0 107#0000000000000000
(1170000000.901951) can0 FFF#0000000000000000
(1170000000.901952) can0 32D#00000420A8010020
(1170000000.902971) can0 00E#205316020809755C
(1170000000.904286) can0 3C1#7B551FBC79EA692E
(1170000000.905305) can0 295#0000000000000040
(1170000000.905306) can0 0D0#5A710460F1000000
(1170000000.906306) can0 2E1#0000000000000004
(1170000000.906307) can0 354#1FFF40000003BE00
(1170000000.906308) can0 5E1#893FE00B0A000080
(1170000000.906309) can0 033#000788000EC007D0
(1170000000.907326) can0 162#00080003EA11F4CE
(1170000000.907327) can0 0A7#2010FA24F12B60A0
(1170000000.907328) can0 66C#0080100020000020
(1170000000.909910) can0 125#90002DDF2038F360
(1170000000.910931) can0 193#00080803E4980000
(1170000000.910932) can0 20E#4E2007A0003F4FFF
(1170000000.910933) can0 522#DF7FD1EF0D98F0DC
