(1040000000.000000) can0 354#203240000005A880
(1040000000.001016) can0 5E1#891FA0070A00CC80
(1040000000.001017) can0 28B#0000000000000000
(1040000000.001018) can0 0A7#00512C25A12D70A0
(1040000000.001019) can0 03D#0001C30000000000
(1040000000.004241) can0 FFF#0000000000000000
(1040000000.005259) can0 00E#2055960208096FF6
(1040000000.006298) can0 193#00080803E8080000
(1040000000.006299) can0 20E#4E2003A499BFEFF7
(1040000000.006300) can0 522#DF7FD0007F80001C
(1040000000.007304) can0 366#805DC8020147CE38
(1040000000.007305) can0 580#000000057807ED20
(1040000000.007306) can0 434#007780AACB38ABC0
(1040000000.007307) can0 4FD#113D0A5A510BCA08
(1040000000.008326) can0 69E#0440047D1FC01542
(1040000000.008327) can0 125#9000409F403F7160
(1040000000.008328) can0 6E0#080507F607FC07FA
(1040000000.008329) can0 153#00000000000C000A
(1040000000.009324) can0 662#4C80000040000000
(1040000000.009326) can0 19C#049C200BC2002820
(1040000000.009327) can0 0D0#12580462BC093500
(1040000000.009328) can0 033#17E4F176DC85C7D0
(1040000000.010346) can0 274#58F202FA107CADBF
(1040000000.010347) can0 0C0#6000000000000000
(1040000000.010348) can0 498#84002000B8824D85
(1040000000.010349) can0 2E1#0000000000000004
(1040000000.010350) can0 354#2032400000059980
(1040000000.011375) can0 5E1#891FA0070A00CC80
(1040000000.011376) can0 162#2FA80324B01257CD
(1040000000.011377) can0 0A7#00512C25A12D70A0
(1040000000.011378) can0 3C1#7B551FBAD510A92E
(1040000000.012386) can0 464#0002400000901A54
(1040000000.012387) can0 230#FF000002D4000000
(1040000000.014578) can0 00E#2055960208097004
(1040000000.015758) can0 107#0000000000000000
(1040000000.016821) can0 FFF#0000000000000000
(1040000000.016822) can0 6E0#080907F707FB07F8
(1040000000.016823) can0 0BA#06A815C41000009C
(1040000000.016824) can0 297#1100002000025110
(1040000000.017878) can0 51B#28B181B189C7F8C1
(1040000000.017879) can0 32D#00000420AC010020
(1040000000.017880) can0 125#9000409F403F5360
(1040000000.018895) can0 295#0000000000001840
(1040000000.018897) can0 0D0#1A580462BB093500
(1040000000.018898) can0 033#17E4E976DCC5C7D0
(1040000000.019895) can0 577#0000080000000144
(1040000000.020919) can0 354#2032400000059980
(1040000000.020921) can0 5E1#891FC0070A00CC80
(1040000000.020922) can0 28B#0000000000000000
(1040000000.020923) can0 0A7#00512AA5A12D70A0
(1040000000.021941) can0 1CA#3FF9FF8000000C48
(1040000000.024361) can0 FFF#0000000000000000
(1040000000.025392) can0 00E#2055960208096FF0
(1040000000.026331) can0 193#00080803E8080000
(1040000000.026333) can0 20E#4E1FFFA49B3FCFFF
(1040000000.026334) can0 2C1#01F34FC7C99F7886
(1040000000.027349) can0 522#DF7FD0007F08001C
(1040000000.027350) can0 366#809DC8020147CE38
(1040000000.027351) can0 580#000000057087ED20
(1040000000.027352) can0 434#0088E0AB5BB91C50
(1040000000.028391) can0 69E#0440047D1FC01542
(1040000000.028392) can0 125#9000409F403F3560
(1040000000.028392) can0 6E0#080107FD07FD07FA
(1040000000.028393) can0 153#00000000000C000A
(1040000000.029365) can0 662#4C80000040000000
(1040000000.029366) can0 19C#0898200BC2002820
(1040000000.029367) can0 0D0#22580464BA093500
(1040000000.029368) can0 033#17E4E17F6D05C7D0
(1040000000.030448) can0 274#58F204F8107CADBF
(1040000000.030449) can0 0C0#6000000000000000
(1040000000.030450) can0 498#84002000B6824DC6
(1040000000.030451) can0 2E1#0000000000000004
(1040000000.030452) can0 354#2032400000059200
(1040000000.031406) can0 5E1#891FC0070A00CC80
(1040000000.031407) can0 162#2FA80324B01257CD
(1040000000.031408) can0 0A7#00512B25912D70A0
(1040000000.031409) can0 2A3#1000024522803C0C
(1040000000.032404) can0 419#0A9B464D045FC26F
(1040000000.032405) can0 230#FE000002D4000200
(1040000000.034659) can0 00E#2055960208097016
(1040000000.035791) can0 107#0000000000000000
(1040000000.036823) can0 FFF#0000000000000000
(1040000000.036824) can0 3C1#7B551FBA94D1292E
(1040000000.036825) can0 6E0#080807F507FA07FA
(1040000000.037878) can0 125#9000409F403F1760
(1040000000.037879) can0 FFF#0000000000000000
(1040000000.038851) can0 0D0#2A580464B8093600
(1040000000.038852) can0 033#17E4D982FD45C7D0
(1040000000.040071) can0 354#2032400000059200
(1040000000.041110) can0 5E1#891FC0070A00C880
(1040000000.041111) can0 28B#0000000000000000
(1040000000.041112) can0 6FC#00000700F2C04800
(1040000000.041113) can0 0A7#00512A25912D70A0
(1040000000.042122) can0 239#0000005D00002BC0
(1040000000.042123) can0 03C#0000040037000000
(1040000000.042124) can0 207#040460482ADED518
(1040000000.042125) can0 4C9#01F895820D02F64B
(1040000000.043149) can0 1D6#020F828030240580
(1040000000.044341) can0 0D7#0000020080000000
(1040000000.045335) can0 FFF#0000000000000000
(1040000000.045343) can0 00E#205596020809700A
(1040000000.046364) can0 193#00080803E8080000
(1040000000.046365) can0 20E#4E2003A49C3F8FF7
(1040000000.047375) can0 522#DF7FD0007E90001C
(1040000000.047378) can0 366#805DC8020147CE38
(1040000000.047379) can0 580#000000056907ED20
(1040000000.047380) can0 434#00A8E0ABDC39ACC0
(1040000000.047381) can0 69E#0440047D1FC01542
(1040000000.048414) can0 125#9000409F403EF960
(1040000000.048415) can0 6E0#07F907F607FA07FF
(1040000000.048416) can0 2B4#14EA900000005800
(1040000000.048417) can0 153#00000000000C000A
(1040000000.049400) can0 295#0000000000001840
(1040000000.049402) can0 662#4C80000040000000
(1040000000.049403) can0 19C#0C94200BC2002820
(1040000000.049403) can0 0D0#32580466B7093600
(1040000000.050459) can0 033#17DCD182FD85C7D0
(1040000000.050461) can0 274#58F206F6107CADBF
(1040000000.050462) can0 0C0#6000000000000000
(1040000000.050463) can0 2E1#0000000000000004
(1040000000.050464) can0 354#2032400000058300
(1040000000.051426) can0 5E1#891FC0070A00C480
(1040000000.051428) can0 162#2FA80324B01257CD
(1040000000.051429) can0 0A7#00512AA5A12D70A0
(1040000000.051430) can0 497#0000000000000000
(1040000000.052502) can0 498#84002000B5824DC7
(1040000000.052504) can0 230#FD000002D4000400
(1040000000.053471) can0 26E#0106408289160A04
(1040000000.054719) can0 00E#2055960208097010
(1040000000.055702) can0 2E2#18080D4040000118
(1040000000.055703) can0 345#050202C23C774081
(1040000000.055704) can0 430#004C448CC28011A0
(1040000000.055705) can0 130#0001700000000000
(1040000000.056733) can0 107#0000000000000000
(1040000000.056734) can0 FFF#0000000000000000
(1040000000.056735) can0 6E0#080607F207FA07FE
(1040000000.056736) can0 0BA#06A815C41000009C
(1040000000.057733) can0 4FD#11380A594B0ACA08
(1040000000.057735) can0 125#9000409F403EDB60
(1040000000.058743) can0 0D0#3A580466B6093600
(1040000000.058745) can0 033#17DCC97F6DC5C7D0
(1040000000.059987) can0 354#2032400000057400
(1040000000.061005) can0 5E1#891FA0070A00C480
(1040000000.061007) can0 28B#0000000000000000
(1040000000.061008) can0 0A7#00512A25A12D70A0
(1040000000.061009) can0 66C#0080100020000020
(1040000000.062066) can0 2D2#0000400000000000
(1040000000.062068) can0 3C1#7B551FBB5351E92E
(1040000000.062069) can0 55C#101B000042843000
(1040000000.064393) can0 FFF#0000000000000000
(1040000000.065392) can0 00E#2055960208097010
(1040000000.066439) can0 32D#00000420AC010020
(1040000000.066440) can0 193#00080803E8080000
(1040000000.066441) can0 20E#4E2003A49A3F6FF7
(1040000000.067425) can0 522#DF7FD0007E18001C
(1040000000.067428) can0 366#7FDDC8020147CE38
(1040000000.067429) can0 580#000000056187ED20
(1040000000.067430) can0 434#00C720AC6CCA2D40
(1040000000.068452) can0 69E#0440047D1FC01542
(1040000000.068454) can0 125#9000409F403EBD60
(1040000000.068455) can0 6E0#080307F707FC07FE
(1040000000.068456) can0 4E7#0000001303760000
(1040000000.069501) can0 153#00000000000C000A
(1040000000.069503) can0 FFF#0000000000000000
(1040000000.069504) can0 662#4C80000040000000
(1040000000.069505) can0 684#4CD580194166D01E
(1040000000.069506) can0 636#249C8E8129802000
(1040000000.070501) can0 2D7#100060D800000008
(1040000000.070502) can0 19C#1090200BC2002820
(1040000000.070503) can0 2E1#0000000000000004
(1040000000.070504) can0 354#2032400000057400
(1040000000.071467) can0 5E1#891FA0070A00C080
(1040000000.071473) can0 0D0#42580460B5093600
(1040000000.071479) can0 033#17DCC177FE05C7D0
(1040000000.071480) can0 274#58F208F4107CADBF
(1040000000.072525) can0 0C0#6000000000000000
(1040000000.072526) can0 162#2FA80324B01257CD
(1040000000.072527) can0 0A7#00512AA5912D70A0
(1040000000.072528) can0 498#84002000B2824E48
(1040000000.073516) can0 3E4#00D4000084000000
(1040000000.073517) can0 65C#400863662C700000
(1040000000.073518) can0 577#0000080000000144
(1040000000.073519) can0 230#FC000002D4000600
(1040000000.074672) can0 00E#205596020809700A
(1040000000.075679) can0 585#0040000000020018
(1040000000.076682) can0 6E0#080507F707FC07FD
(1040000000.076684) can0 107#0000000000000000
(1040000000.076685) can0 FFF#0000000000000000
(1040000000.077711) can0 125#9000409F403E9F60
(1040000000.078735) can0 295#0000000000001840
(1040000000.078736) can0 0D0#4A580460B2093800
(1040000000.078737) can0 033#17DCB977FE45C7D0
(1040000000.080106) can0 354#2032400000056C80
(1040000000.081126) can0 5E1#891FA0070A00C080
(1040000000.081128) can0 28B#0000000000000000
(1040000000.081129) can0 0A7#00512A25A12D70A0
(1040000000.081130) can0 5B3#0400000000000400
(1040000000.082101) can0 407#39B2627001417DE0
(1040000000.083146) can0 FFF#0000000000000000
(1040000000.083147) can0 FFF#0000000000000000
(1040000000.084138) can0 0F4#9A0C010204B10240
(1040000000.085164) can0 FFF#0000000000000000
(1040000000.085165) can0 00E#2055960208097010
(1040000000.086176) can0 193#00080803E8080000
(1040000000.086177) can0 20E#4E2003A49ABFCFF7
(1040000000.087186) can0 3C1#7B551FBC1212692E
(1040000000.087187) can0 522#DF7FD0007DA0001C
(1040000000.087188) can0 366#801DC8020147CE38
(1040000000.087189) can0 580#000000055A07ED20
(1040000000.088206) can0 434#00E700ACDD4ABDD0
(1040000000.088207) can0 69E#0440047D1FC01542
(1040000000.088208) can0 125#9000409F40206160
(1040000000.088209) can0 6E0#080507F707FE07FE
(1040000000.089225) can0 153#00000000000C000A
(1040000000.089227) can0 662#4C80000040000000
(1040000000.089228) can0 19C#148C200BC2002820
(1040000000.089228) can0 0D0#52580462B1093800
(1040000000.090244) can0 033#17D4B17D1E85C7D0
(1040000000.090245) can0 274#58F20AF2107CADBF
(1040000000.090246) can0 0C0#6000000000000000
(1040000000.090247) can0 498#84002000B1824E49
(1040000000.090248) can0 2E1#0000000000000004
(1040000000.091228) can0 354#2032800000055580
(1040000000.091229) can0 5E1#891F80070A00C480
(1040000000.091230) can0 162#2FA80324B01257CD
(1040000000.091231) can0 0A7#00512BA5A12D70A0
(1040000000.092264) can0 230#FB000002D4000800
(1040000000.094671) can0 00E#205596020809701C
(1040000000.095907) can0 6E0#080007FE07FC07FB
(1040000000.096937) can0 107#0000000000000000
(1040000000.096939) can0 FFF#0000000000000000
(1040000000.096940) can0 0BA#06A815C41000009C
(1040000000.097953) can0 125#9000409F40204360
(1040000000.098977) can0 0D0#5A580462B0093800
(1040000000.098978) can0 033#17D4A981CEC5C7D0
(1040000000.099974) can0 354#2032800000055580
(1040000000.100974) can0 5E1#891F60070A00C480
(1040000000.100975) can0 28B#0000000000000000
(1040000000.100976) can0 0A7#00512B25A12D70A0
(1040000000.100977) can0 03D#0001C28000000000
(1040000000.104437) can0 FFF#0000000000000000
(1040000000.105455) can0 00E#2055960208097004
(1040000000.106423) can0 193#00080803E8080000
(1040000000.106425) can0 20E#4E2007A49BBFEFEF
(1040000000.106426) can0 522#DF7FD0007D28001C
(1040000000.107458) can0 366#801DC8020147CE38
(1040000000.107463) can0 580#000000055287ED20
(1040000000.107464) can0 434#0105A0AD6DBB2E60
(1040000000.107465) can0 4FD#11350A5A470A4A08
(1040000000.107466) can0 69E#0440047D1FC01542
(1040000000.108458) can0 125#9000409F40202560
(1040000000.108459) can0 6E0#080D07FC07FE07FD
(1040000000.108460) can0 498#84002000B0824E4A
(1040000000.108461) can0 153#00000000000C000A
(1040000000.109483) can0 295#0000000000001840
(1040000000.109484) can0 662#4C80000040000000
(1040000000.109485) can0 19C#1888200BC2002820
(1040000000.109486) can0 0D0#62580464AF093800
(1040000000.110497) can0 033#17D4A181CF05C7D0
(1040000000.110498) can0 274#58F20CF0107CADBF
(1040000000.110499) can0 2E1#0000000000000004
(1040000000.110500) can0 354#2032800000054E00
(1040000000.111520) can0 5E1#891F60070A00C480
(1040000000.111521) can0 0C0#6000000000000000
(1040000000.111522) can0 162#2FA80324B01257CD
(1040000000.111523) can0 0A7#00512BA5912D70A0
(1040000000.111524) can0 3C1#7B551FBCD093292E
(1040000000.112515) can0 464#0002400000901955
(1040000000.112516) can0 230#FA000002D4000A00
(1040000000.114561) can0 00E#2055960208097016
(1040000000.115767) can0 6E0#080507F807FF07FC
(1040000000.116784) can0 107#0000000000000000
(1040000000.116785) can0 FFF#0000000000000000
(1040000000.116786) can0 32D#00000420AC010020
(1040000000.117803) can0 125#9000409F40200760
(1040000000.118826) can0 0D0#6A580464AE093800
(1040000000.118827) can0 033#17D49981CF45C7D0
(1040000000.118828) can0 577#0000080000000144
(1040000000.120026) can0 354#2032800000054E00
(1040000000.121041) can0 5E1#891F60070A00C480
(1040000000.121042) can0 28B#0000000000000000
(1040000000.121043) can0 0A7#00512A25912D70A0
(1040000000.121044) can0 1CA#3FF9FF8000000C48
(1040000000.124171) can0 FFF#0000000000000000
(1040000000.125167) can0 00E#2055960208097010
(1040000000.126189) can0 193#00080803E8080000
(1040000000.126190) can0 20E#4E2007A49C3FEFFF
(1040000000.127200) can0 522#DF7FD0007CB0001C
(1040000000.127201) can0 366#805DC8020147CE38
(1040000000.127202) can0 580#000000054B07ED20
(1040000000.127203) can0 434#012620ADEE4BBED0
(1040000000.128222) can0 69E#0440047D1FC01542
(1040000000.128223) can0 125#9000409F403FE960
(1040000000.128224) can0 6E0#080507FE080107FD
(1040000000.128225) can0 498#84002000AD824ECB
(1040000000.128226) can0 230#F9000002D4000C00
(1040000000.129227) can0 153#00000000000C000A
(1040000000.129228) can0 662#4C80000040000000
(1040000000.129229) can0 19C#1C86200B82002820
(1040000000.129230) can0 0D0#72580466AD093800
(1040000000.130243) can0 033#17CC91788F85C7D0
(1040000000.130244) can0 274#58F20EEE107CADBF
(1040000000.130244) can0 0C0#6000000000000000
(1040000000.130245) can0 2E1#0000000000000004
(1040000000.131243) can0 354#2032800000053F00
(1040000000.131244) can0 5E1#891F60070A00C480
(1040000000.131245) can0 162#2FA80314B01257CD
(1040000000.131246) can0 0A7#00512B25A12D70A0
(1040000000.132287) can0 2C1#01F42FC7CD1F469C
(1040000000.132288) can0 2A3#1000024522803C0C
(1040000000.132289) can0 0F8#7EDFF4FD49FBA7B8
(1040000000.134619) can0 00E#2055960208097028
(1040000000.135743) can0 6E0#080D07FC08010800
(1040000000.136764) can0 107#0000000000000000
(1040000000.136765) can0 FFF#0000000000000000
(1040000000.136766) can0 3C1#7B551FBC9053A92E
(1040000000.136767) can0 0BA#06A815841000009C
(1040000000.137763) can0 125#9000409F403FCB60
(1040000000.137764) can0 FFF#0000000000000000
(1040000000.138828) can0 295#0000000000001840
(1040000000.138829) can0 0D0#7A580466AA093A00
(1040000000.138830) can0 033#17CC89788FC5C7D0
(1040000000.139928) can0 354#203280000005A800
(1040000000.140969) can0 5E1#891F60070A00C480
(1040000000.140970) can0 28B#0000000000000000
(1040000000.140971) can0 6FC#0000070032C04800
(1040000000.140972) can0 0A7#00512AA5912D70A0
(1040000000.141993) can0 239#0000005C80002BC0
(1040000000.141994) can0 03C#0000040037000000
(1040000000.141995) can0 207#040460482ADED518
(1040000000.141996) can0 4C9#01F895820D02F64B
(1040000000.142988) can0 1D6#020B808030240580
(1040000000.144212) can0 0D7#0000020080000000
(1040000000.145262) can0 FFF#0000000000000000
(1040000000.145263) can0 00E#2055960208096FFC
(1040000000.146301) can0 193#00080803E8080000
(1040000000.146302) can0 20E#4E2003A49C3FF007
(1040000000.147329) can0 522#DF7FD0007C38001C
(1040000000.147330) can0 366#805DC8020147CE38
(1040000000.147331) can0 580#000000054387ED20
(1040000000.147332) can0 434#014680AE7EDC3F50
(1040000000.147333) can0 69E#0440047D1FC01542
(1040000000.148297) can0 125#9000409F403FAD60
(1040000000.148298) can0 2B4#14EA900000005800
(1040000000.148299) can0 6E0#080A07FE080207FF
(1040000000.148300) can0 498#84002000AA824F4C
(1040000000.149300) can0 153#00000000000C000A
(1040000000.149301) can0 662#4C80000040000000
(1040000000.149302) can0 19C#00A2200B82002820
(1040000000.149303) can0 0D0#02580460B9093A00
(1040000000.150325) can0 033#17D5017A3C05C7D0
(1040000000.150326) can0 274#58F200FC107CADBF
(1040000000.150327) can0 0C0#6000000000000000
(1040000000.150328) can0 2E1#0000000000000004
(1040000000.151348) can0 354#203280000005A800
(1040000000.151349) can0 5E1#891F60070A00C480
(1040000000.151350) can0 162#2FA80314B01257CD
(1040000000.151351) can0 0A7#00512BA5A12D70A0
(1040000000.151352) can0 497#0000000000000000
(1040000000.152402) can0 230#F8000002D4000E00
(1040000000.154594) can0 00E#2055960208097016
(1040000000.155615) can0 2E2#18080D4040000118
(1040000000.155616) can0 345#050202C23C774081
(1040000000.155617) can0 430#004C448CC28011A0
(1040000000.155618) can0 130#0001700000000000
(1040000000.156636) can0 26E#0106408289160A04
(1040000000.156637) can0 107#0000000000000000
(1040000000.156638) can0 FFF#0000000000000000
(1040000000.156639) can0 6E0#080507FB080307FE
(1040000000.157634) can0 4FD#11360A5A490ACA08
(1040000000.157635) can0 125#9000409F403F8F60
(1040000000.158657) can0 0D0#0A580460B6093C00
(1040000000.158658) can0 033#17D501800C45B7C0
(1040000000.158659) can0 025#0000028840401201
(1040000000.160032) can0 354#203280000005A080
(1040000000.161051) can0 5E1#891F60070A00C080
(1040000000.161052) can0 28B#0000000000000000
(1040000000.161053) can0 0A7#00512B25A12D70A0
(1040000000.161054) can0 66C#0080100020000020
(1040000000.162071) can0 2D2#0000480000000000
(1040000000.162072) can0 3C1#7B551FBB1114692E
(1040000000.164180) can0 FFF#0000000000000000
(1040000000.165165) can0 4CB#8000000000000000
(1040000000.165166) can0 00E#2055960208096FFC
(1040000000.165167) can0 280#1000020000000000
(1040000000.166192) can0 193#00080803E8080000
(1040000000.166194) can0 1C4#0002020002400000
(1040000000.167220) can0 20E#4E2003A49F400FFF
(1040000000.167222) can0 522#DF7FD0007BC0001C
(1040000000.167223) can0 366#805DC8020147CE38
(1040000000.167224) can0 580#000000053C07ED20
(1040000000.168236) can0 434#016860AEEF5CAFE0
(1040000000.168244) can0 69E#0440047D1FC01542
(1040000000.168245) can0 125#9000409F403F7160
(1040000000.168245) can0 6E0#08090800080307FE
(1040000000.169205) can0 4E7#0000001303760000
(1040000000.169206) can0 153#00000000000C000A
(1040000000.169207) can0 FFF#0000000000000000
(1040000000.169208) can0 295#0000000000001840
(1040000000.169209) can0 662#4C80000040000000
(1040000000.170251) can0 684#4CD57F594166D01E
(1040000000.170253) can0 636#249C900129806000
(1040000000.170254) can0 2D7#100060D800000008
(1040000000.170255) can0 2E1#0000000000000004
(1040000000.171275) can0 354#2032800000059180
(1040000000.171277) can0 5E1#891F60070A00C080
(1040000000.171278) can0 19C#049E200B82002820
(1040000000.171279) can0 0D0#12580462B5093C00
(1040000000.172273) can0 033#17CCF9800C85B7C0
(1040000000.172274) can0 274#58F202FA107CADBF
(1040000000.172275) can0 0C0#6000000000000000
(1040000000.172276) can0 162#2F980314B01257CD
(1040000000.173314) can0 0A7#00512BA5A12D70A0
(1040000000.173316) can0 2A4#2E8C021C040898D0
(1040000000.173317) can0 498#84002000A8824F8D
(1040000000.173318) can0 3E4#00D4000084000000
(1040000000.173319) can0 32D#00000420AC010020
(1040000000.174303) can0 65C#400863662C600000
(1040000000.174305) can0 577#0000080000000144
(1040000000.174306) can0 533#ED7FCF7EFFF1EF7F
(1040000000.174307) can0 230#F7000002D4001000
(1040000000.175335) can0 585#0040000000020018
(1040000000.175337) can0 00E#2055960208097010
(1040000000.176330) can0 6E0#080807FC080507FD
(1040000000.176331) can0 107#0000000000000000
(1040000000.176332) can0 FFF#0000000000000000
(1040000000.177349) can0 0BA#06A814C41000009C
(1040000000.177350) can0 125#9000409F403F5360
(1040000000.178327) can0 0D0#1A580462B3093D00
(1040000000.179368) can0 033#17CCF1809CC5B7C0
(1040000000.180369) can0 354#2032800000059180
(1040000000.180370) can0 5E1#891F60070A00C480
(1040000000.181399) can0 28B#0000000000000000
(1040000000.181400) can0 0A7#00512AA5912D70A0
(1040000000.181401) can0 5B3#0400000000000400
(1040000000.181402) can0 407#39B4627001417DE0
(1040000000.182990) can0 FFF#0000000000000000
(1040000000.184031) can0 FFF#0000000000000000
(1040000000.184032) can0 0F4#9A0C010204B10240
(1040000000.185036) can0 FFF#0000000000000000
(1040000000.185037) can0 00E#2055960208097010
(1040000000.186002) can0 193#00080803E8080000
(1040000000.187070) can0 20E#4E1FFFA49D3FEFFF
(1040000000.187071) can0 3C1#7B551FBA9114E92E
(1040000000.187072) can0 522#DF7FD0007B48001C
(1040000000.187073) can0 366#805DC8020147CE38
(1040000000.187074) can0 580#000000053487ED20
(1040000000.188077) can0 434#0186C0AF7FCD3060
(1040000000.188079) can0 69E#0440047D1FC01542
(1040000000.188080) can0 125#900040DF403F1560
(1040000000.188081) can0 6E0#080A07FF080307FE
(1040000000.189084) can0 153#00000000000C000A
(1040000000.189085) can0 662#4C80000040000000
(1040000000.189086) can0 19C#089C200B42002820
(1040000000.189086) can0 0D0#22590464B2093D00
(1040000000.190066) can0 033#17CCF1776D05A7C0
(1040000000.190067) can0 274#58F204F8107CADBF
(1040000000.190068) can0 0C0#6000000000000000
(1040000000.190069) can0 498#84002000A7824F8E
(1040000000.191089) can0 2E1#0000000000000004
(1040000000.191090) can0 354#2032800000058A00
(1040000000.191091) can0 5E1#891F60070A00C080
(1040000000.191092) can0 162#2F980314B21258CD
(1040000000.191093) can0 0A7#00512BA5A12D70A0
(1040000000.192117) can0 230#F6000002D4001200
(1040000000.194609) can0 00E#2055960208097004
(1040000000.195813) can0 6E0#080C0802080507FE
(1040000000.196818) can0 107#0000000000000000
(1040000000.196819) can0 FFF#0000000000000000
(1040000000.196820) can0 655#AC03FC0030000000
(1040000000.197815) can0 125#900040DF403EF760
(1040000000.198841) can0 295#0000000000001840
(1040000000.198842) can0 0D0#2A590464B1093D00
(1040000000.198843) can0 033#17CCE9776D45A7C0
(1040000000.199991) can0 354#2032800000058A00
(1040000000.201038) can0 5E1#891F60070A00C080
(1040000000.201039) can0 28B#0000000000000000
(1040000000.201050) can0 0A7#00512B25A12D70A0
(1040000000.201051) can0 03D#0001C18000000000
(1040000000.204449) can0 FFF#0000000000000000
(1040000000.205463) can0 00E#2055960208097004
(1040000000.206482) can0 193#00080803E8080000
(1040000000.206484) can0 20E#4E2003A49DBFCFFF
(1040000000.206485) can0 522#DF7FD0007AD0001C
(1040000000.207424) can0 366#805DC8020147CE38
(1040000000.207425) can0 580#000000052D07ED20
(1040000000.207426) can0 434#01A600AFF05DB0E0
(1040000000.207427) can0 4FD#11310A5A4309CA08
(1040000000.208495) can0 69E#0440047D1FC01542
(1040000000.208497) can0 125#9000409F403EF960
(1040000000.208498) can0 6E0#080407FE08040800
(1040000000.208499) can0 153#00000000000C000A
(1040000000.208500) can0 662#4C80000040000000
(1040000000.209528) can0 19C#0C98200B42002820
(1040000000.209530) can0 0D0#32590466B0093D00
(1040000000.209531) can0 033#17CCE17A3D85A7D0
(1040000000.209532) can0 274#58F206F6107CADBF
(1040000000.210550) can0 0C0#6000000000000000
(1040000000.210551) can0 498#84002000A5824FCF
(1040000000.210552) can0 2E1#0000000000000004
(1040000000.210553) can0 354#2032800000057B00
(1040000000.211492) can0 5E1#891F80070A00C080
(1040000000.211493) can0 162#2F980314B21258CD
(1040000000.211494) can0 0A7#00512BA5A12D70A0
(1040000000.211495) can0 3C1#7B551FBB4F95A92E
(1040000000.212569) can0 55C#101B000042843000
(1040000000.212571) can0 464#0002400000901856
(1040000000.212572) can0 230#F5000002D4001400
(1040000000.214661) can0 00E#2055960208097004
(1040000000.215853) can0 6E0#0808080008020800
(1040000000.216861) can0 107#0000000000000000
(1040000000.216863) can0 FFF#0000000000000000
(1040000000.216864) can0 0BA#06A814C41000009C
(1040000000.216865) can0 51B#2909183F01060801
(1040000000.217872) can0 32D#00000420AC010020
(1040000000.217873) can0 125#9000409F403EDB60
(1040000000.218897) can0 0D0#3A590466AE093E00
(1040000000.218898) can0 033#17CCD9813DC5A7D0
(1040000000.218899) can0 577#0000080000000144
(1040000000.219985) can0 354#2032800000056C00
(1040000000.221024) can0 5E1#891F80070A00C080
(1040000000.221026) can0 28B#0000000000000000
(1040000000.221027) can0 0A7#00512BA5A12D70A0
(1040000000.221028) can0 1CA#3FF9FF8000000C48
(1040000000.224251) can0 FFF#0000000000000000
(1040000000.225336) can0 00E#2055960208096FEA
(1040000000.226355) can0 193#00080803E8080000
(1040000000.226357) can0 20E#4E2003A49E3F8FFF
(1040000000.226358) can0 522#DF7FD0007A58001C
(1040000000.227376) can0 366#805DC8020147CE38
(1040000000.227377) can0 580#000000052587ED20
(1040000000.227378) can0 434#01C640A080EE4160
(1040000000.227379) can0 69E#0440047D1FC01542
(1040000000.228395) can0 125#9000409F403EBD60
(1040000000.228397) can0 6E0#080507FD08030802
(1040000000.228398) can0 153#00000000000C000A
(1040000000.229404) can0 295#0000000000001840
(1040000000.229406) can0 662#4C80000040000000
(1040000000.229412) can0 19C#1094200B42002820
(1040000000.229413) can0 0D0#42590460AD093E00
(1040000000.229414) can0 033#17D4D1813E05A7D0
(1040000000.230420) can0 274#58F208F4107CADBF
(1040000000.230422) can0 0C0#6000000000000000
(1040000000.230423) can0 2E1#0000000000000004
(1040000000.230424) can0 354#2032800000056C00
(1040000000.231408) can0 5E1#891F80070A00C080
(1040000000.231410) can0 162#2F980314B01257CD
(1040000000.231411) can0 0A7#00512CA5A12D70A0
(1040000000.231412) can0 2A3#1000024522803C0C
(1040000000.232439) can0 498#84002000B4824FC0
(1040000000.232440) can0 FFF#0000000000000000
(1040000000.232442) can0 230#F4000002D4001600
(1040000000.234701) can0 00E#2055960208097004
(1040000000.235829) can0 6E0#080C07FE08030803
(1040000000.236870) can0 107#0000000000000000
(1040000000.236871) can0 FFF#0000000000000000
(1040000000.236872) can0 3C1#7B551FBB4F16292E
(1040000000.236873) can0 2C1#01F26FC7C91F5EB0
(1040000000.237875) can0 125#9000409F403E9F60
(1040000000.237876) can0 FFF#0000000000000000
(1040000000.238900) can0 0D0#4A590460AC093E00
(1040000000.238901) can0 033#17D4C9800E45A7D0
(1040000000.240054) can0 354#2032800000056480
(1040000000.241106) can0 5E1#891F80070A00C480
(1040000000.241107) can0 28B#0000000000000000
(1040000000.241108) can0 6FC#000006FF32C05000
(1040000000.241109) can0 0A7#00512BA5A12D70A0
(1040000000.242100) can0 239#0000005C20002BA0
(1040000000.242101) can0 03C#0000040037000000
(1040000000.242102) can0 207#0404E0582ADED518
(1040000000.242103) can0 4C9#01F915820D02F64B
(1040000000.243122) can0 1D6#020F828030240580
(1040000000.244294) can0 0D7#0000020080000000
(1040000000.245305) can0 FFF#0000000000000000
(1040000000.245307) can0 00E#2055960208096FF0
(1040000000.246334) can0 193#00080803E8080000
(1040000000.246335) can0 20E#4E2003A49DBFAFFF
(1040000000.246336) can0 522#DF7FD00079E0001C
(1040000000.247339) can0 366#805DC8020147CE38
(1040000000.247341) can0 580#000000051E07ED20
(1040000000.247343) can0 434#01E5A0A0F16EB1F0
(1040000000.247344) can0 69E#0440047D1FC01542
(1040000000.248371) can0 125#9000409F40206160
(1040000000.248372) can0 6E0#080D080608050804
(1040000000.248373) can0 2B4#14EA900000005800
(1040000000.248374) can0 153#00000000000C000A
(1040000000.249348) can0 662#4C80000040000000
(1040000000.249350) can0 19C#1490200B42002820
(1040000000.249351) can0 0D0#52590462AB093E00
(1040000000.249352) can0 033#17C4C179AE85A7D0
(1040000000.250407) can0 274#58F20AF2107CADBF
(1040000000.250409) can0 0C0#6000000000000000
(1040000000.250410) can0 498#84002000B2825001
(1040000000.250411) can0 2E1#0000000000000004
(1040000000.250411) can0 354#2032800000055580
(1040000000.251401) can0 5E1#891FA0070A00C480
(1040000000.251402) can0 162#2F880314B01257CD
(1040000000.251403) can0 0A7#00512BA5912D70A0
(1040000000.251404) can0 497#0000000000000000
(1040000000.252417) can0 230#F3000002D4001800
(1040000000.253831) can0 26E#0106408289160A04
(1040000000.254824) can0 00E#205596020809700A
(1040000000.255816) can0 2E2#18080D4040000118
(1040000000.255818) can0 345#050202C23C774081
(1040000000.255819) can0 430#004C448CC48011A0
(1040000000.255820) can0 130#0001700000000000
(1040000000.256863) can0 107#0000000000000000
(1040000000.256864) can0 FFF#0000000000000000
(1040000000.256865) can0 6E0#080C080208060802
(1040000000.256867) can0 0BA#069815041000009C
(1040000000.257822) can0 4FD#11320A5A4309CA08
(1040000000.257829) can0 125#9000409F40204360
(1040000000.258874) can0 295#0000000000001840
(1040000000.258876) can0 0D0#5A590462A9093F00
(1040000000.258877) can0 033#17C4B979AEC5A7D0
(1040000000.259996) can0 354#2032800000055580
(1040000000.261002) can0 5E1#891FA0070A00C480
(1040000000.261004) can0 28B#0000000000000000
(1040000000.261005) can0 0A7#005129A5A12D70A0
(1040000000.261005) can0 66C#0080100020000020
(1040000000.262001) can0 2D2#0000500000000000
(1040000000.262003) can0 3C1#7B551FBBCDD6E92E
(1040000000.264332) can0 FFF#0000000000000000
(1040000000.265318) can0 00E#2055960208097010
(1040000000.266276) can0 193#00080803E8080000
(1040000000.266277) can0 32D#00000420AC010020
(1040000000.266278) can0 20E#4E2003A49F3FCFFF
(1040000000.267363) can0 522#DF7FD0007968001C
(1040000000.267365) can0 366#809DC8020147CE38
(1040000000.267366) can0 580#000000051687ED20
(1040000000.267367) can0 434#020820A181DF4270
(1040000000.268359) can0 69E#0440047D1FC01542
(1040000000.268361) can0 125#9000409F40202560
(1040000000.268362) can0 6E0#080D080508020804
(1040000000.268363) can0 4E7#0000001303760000
(1040000000.269382) can0 153#00000000000C000A
(1040000000.269384) can0 FFF#0000000000000000
(1040000000.269386) can0 662#4C80000040000000
(1040000000.269387) can0 684#4CD580194166D01E
(1040000000.270398) can0 636#249C914129009000
(1040000000.270399) can0 2D7#100060D800000008
(1040000000.270401) can0 19C#188C200B42002820
(1040000000.270402) can0 2E1#0000000000000004
(1040000000.271399) can0 354#2032800000054E00
(1040000000.271401) can0 5E1#891FA0070A00C480
(1040000000.271402) can0 0D0#62590464A8093F00
(1040000000.271403) can0 033#17C4B1776F05A7D0
(1040000000.271403) can0 274#58F20CF0107CADBF
(1040000000.272444) can0 0C0#6000000000000000
(1040000000.272446) can0 162#2F880314B01257CD
(1040000000.272447) can0 0A7#00512A25A12D70A0
(1040000000.272448) can0 498#84002000AF825082
(1040000000.273389) can0 3E4#00D4000084000000
(1040000000.273392) can0 65C#400863662C500000
(1040000000.273393) can0 577#0000080000000144
(1040000000.273394) can0 230#F2000002D4001A00
(1040000000.274551) can0 585#0040000000020018
(1040000000.275490) can0 00E#2055960208097010
(1040000000.276568) can0 FFF#0000000000000000
(1040000000.276570) can0 107#0000000000000000
(1040000000.276571) can0 FFF#0000000000000000
(1040000000.276572) can0 6E0#080C080408040801
(1040000000.277587) can0 125#9000409F40200760
(1040000000.278580) can0 0D0#6A590464A5094100
(1040000000.278582) can0 033#17C4A97E4F45A7D0
(1040000000.280072) can0 354#2032800000054E00
(1040000000.281088) can0 5E1#891FC0070A00C480
(1040000000.281090) can0 28B#0000000000000000
(1040000000.281091) can0 0A7#005129A5A12D70A0
(1040000000.281092) can0 5B3#0400000000000400
(1040000000.282104) can0 407#39B4626001417DA0
(1040000000.283194) can0 FFF#0000000000000000
(1040000000.284191) can0 FFF#0000000000000000
(1040000000.284193) can0 0F4#9A0C010204B10240
(1040000000.285210) can0 FFF#0000000000000000
(1040000000.285212) can0 00E#2055960208097010
(1040000000.286211) can0 193#00080803E8080000
(1040000000.286213) can0 20E#4E2003A4A0BFEFEF
(1040000000.287231) can0 3C1#7B551FBBCD57692E
(1040000000.287232) can0 522#DF7FD00078F0001C
(1040000000.287233) can0 366#809DC8020147CE38
(1040000000.287234) can0 580#000000050F07ED20
(1040000000.288245) can0 434#022820A2026FC300
(1040000000.288247) can0 69E#0440047C1FC01542
(1040000000.288254) can0 125#9000409F403FE960
(1040000000.288255) can0 6E0#080D080308020803
(1040000000.288256) can0 153#00000000000C000A
(1040000000.289251) can0 295#0000000000001840
(1040000000.289253) can0 662#4C80000040000000
(1040000000.289254) can0 19C#1C88200B42002820
(1040000000.289255) can0 0D0#72580466A4094100
(1040000000.290276) can0 033#17BCA17E4F85A7D0
(1040000000.290278) can0 274#58F20EEE107CADBF
(1040000000.290279) can0 0C0#6000000000000000
(1040000000.290280) can0 2E1#0000000000000004
(1040000000.291295) can0 354#2032800000053F00
(1040000000.291297) can0 5E1#891FA0070A00C080
(1040000000.291299) can0 162#2F880304B21258CD
(1040000000.291300) can0 0A7#00512AA5912D70A0
(1040000000.292295) can0 498#84002000B0825003
(1040000000.292297) can0 230#F1000002D4001C00
(1040000000.294643) can0 00E#2055960208097016
(1040000000.295804) can0 6E0#080E080108030803
(1040000000.296836) can0 107#0000000000000000
(1040000000.296837) can0 FFF#0000000000000000
(1040000000.296838) can0 0BA#069815441000009C
(1040000000.297849) can0 125#9000409F403FCB60
(1040000000.298853) can0 0D0#7A580466A5093F00
(1040000000.298854) can0 033#17BC99809FC5A7D0
(1040000000.299978) can0 354#203280000005A800
(1040000000.300968) can0 5E1#891FA0070A00C080
(1040000000.300969) can0 28B#0000000000000000
(1040000000.300970) can0 0A7#00512B25A12D70A0
(1040000000.300971) can0 03D#0001C10000000000
(1040000000.304405) can0 FFF#0000000000000000
(1040000000.305433) can0 00E#2055960208097016
(1040000000.306454) can0 193#00080803E8080000
(1040000000.306456) can0 20E#4E2003A4A13FEFEF
(1040000000.306457) can0 522#DF7FD0007878001C
(1040000000.307413) can0 366#809DC8020147CE38
(1040000000.307415) can0 580#000000050787ED20
(1040000000.307416) can0 434#024000A292F05370
(1040000000.307417) can0 4FD#11300A594109CA08
(1040000000.308501) can0 69E#0440047D1FC01542
(1040000000.308503) can0 125#9000409F403FAD60
(1040000000.308504) can0 6E0#080807FF08060804
(1040000000.308506) can0 153#00000000000C000A
(1040000000.309524) can0 662#4C80000040000000
(1040000000.309526) can0 19C#00A4200B42002820
(1040000000.309527) can0 0D0#02580460B4093F00
(1040000000.309528) can0 033#17C5117D1C05A7D0
(1040000000.309529) can0 274#58F200FC107CADBF
(1040000000.310544) can0 0C0#6000000000000000
(1040000000.310546) can0 498#84002000AF825004
(1040000000.310547) can0 2E1#0000000000000004
(1040000000.310548) can0 354#203280000005A800
(1040000000.311477) can0 5E1#891F80070A00C080
(1040000000.311486) can0 162#2F880304B21258CD
(1040000000.311487) can0 0A7#00512CA5A12D70A0
(1040000000.311489) can0 3C1#7B551FBB0D58292E
(1040000000.312565) can0 464#0002400000901757
(1040000000.312566) can0 230#F0000002D4001E00
(1040000000.314628) can0 00E#2055960208097004
(1040000000.315800) can0 107#0000000000000000
(1040000000.316805) can0 FFF#0000000000000000
(1040000000.316807) can0 6E0#080B07FA08050801
(1040000000.316808) can0 32D#00000420AC010020
(1040000000.317836) can0 125#9000409F403F8F60
(1040000000.318797) can0 295#0000000000001840
(1040000000.319809) can0 0D0#0A580462B3093F00
(1040000000.319811) can0 033#17BD097D1C45A7D0
(1040000000.319812) can0 577#0000080000000144
(1040000000.320872) can0 354#203280000005A080
(1040000000.320874) can0 5E1#891F80070A00C080
(1040000000.320876) can0 28B#0000000000000000
(1040000000.320877) can0 0A7#00512C25A12D70A0
(1040000000.321840) can0 1CA#3FF9FF8000000C48
(1040000000.324094) can0 FFF#0000000000000000
(1040000000.325181) can0 00E#205596020809700A
(1040000000.326204) can0 193#00080803E8080000
(1040000000.326206) can0 20E#4E2003A49FBFEFF7
(1040000000.327187) can0 522#DF7FD0007F80001C
(1040000000.327189) can0 366#801DC8020147CE38
(1040000000.327190) can0 580#000000057807ED20
(1040000000.327191) can0 434#026000A30370C400
(1040000000.328157) can0 69E#0440047D1FC01542
(1040000000.328159) can0 125#9000409F403F7160
(1040000000.328160) can0 6E0#080707FF08060803
(1040000000.328161) can0 498#84002000AC825085
(1040000000.329228) can0 230#FF000002D4000000
(1040000000.329230) can0 153#00000000000C000A
(1040000000.329231) can0 662#4C80000040000000
(1040000000.329232) can0 19C#04A0200B42002820
(1040000000.329233) can0 0D0#12580462B2093F00
(1040000000.330249) can0 033#17BD01752C85A7D0
(1040000000.330251) can0 274#58F202FA107CADBF
(1040000000.330252) can0 0C0#6000000000000000
(1040000000.330253) can0 2E1#0000000000000004
(1040000000.331269) can0 354#2032800000059180
(1040000000.331271) can0 5E1#891F80070A00C080
(1040000000.331272) can0 162#2F880304B21258CD
(1040000000.331273) can0 0A7#00512C25A12D70A0
(1040000000.332267) can0 2A3#1000024522803C0C
(1040000000.332270) can0 5FD#BDDDFDFFFEFFEDDA
(1040000000.334674) can0 00E#2055960208097004
(1040000000.335814) can0 6E0#080807FC08060805
(1040000000.336873) can0 3C1#7B551FBA8D58A92E
(1040000000.336874) can0 107#0000000000000000
(1040000000.336875) can0 FFF#0000000000000000
(1040000000.337868) can0 0BA#069815441000009C
(1040000000.337870) can0 125#9000409F403F5360
(1040000000.337871) can0 FFF#0000000000000000
(1040000000.338893) can0 0D0#1A580464AF094100
(1040000000.339846) can0 033#17BCF97DACC5A7D0
(1040000000.340936) can0 354#2032800000059180
(1040000000.340938) can0 5E1#891F80070A00C080
(1040000000.340939) can0 28B#0000000000000000
(1040000000.340940) can0 6FC#0000070112C05000
(1040000000.340941) can0 0A7#00512A25A12D70A0
(1040000000.341955) can0 239#0000005B80002BA0
(1040000000.341957) can0 2C1#01F2AFC7CA9F3EC6
(1040000000.341958) can0 0FD#0000010080100000
(1040000000.341959) can0 03C#0000040038000000
(1040000000.342958) can0 FFF#0000000000000000
(1040000000.342959) can0 207#040460482ADED518
(1040000000.342960) can0 4C9#01F915820D02F64B
(1040000000.342961) can0 1D6#020B808030240580
(1040000000.343969) can0 1A4#00000002ECCC0000
(1040000000.344999) can0 0D7#0000020080000000
(1040000000.345001) can0 FFF#0000000000000000
(1040000000.345002) can0 00E#2055960208097022
(1040000000.345990) can0 193#00080803E8080000
(1040000000.347013) can0 20E#4E2003A49E3FAFFF
(1040000000.347016) can0 522#DF7FD0007F08001C
(1040000000.347017) can0 366#7FDDC8020147CE38
(1040000000.347018) can0 580#000000057087ED20
(1040000000.348036) can0 434#028A80A393E15480
(1040000000.348037) can0 69E#0440047D1FC01542
(1040000000.348038) can0 125#9000409F403F3560
(1040000000.348039) can0 6E0#080D07FE08050808
(1040000000.348039) can0 2B4#14EA900000005800
(1040000000.348996) can0 498#84002000AA8250C6
(1040000000.348997) can0 153#00000000000C000A
(1040000000.348998) can0 295#0000000000001840
(1040000000.348999) can0 662#4C80000040000000
(1040000000.350060) can0 19C#089C200B42002820
(1040000000.350061) can0 0D0#22580464AE094100
(1040000000.350062) can0 033#17BCF17DAD05A7D0
(1040000000.350063) can0 274#58F204F8107CADBF
(1040000000.351058) can0 2E1#0000000000000004
(1040000000.351065) can0 354#2032800000058A00
(1040000000.351066) can0 5E1#891F80070A00C480
(1040000000.351067) can0 0C0#6000000000000000
(1040000000.352074) can0 162#2F880304B21258CD
(1040000000.352076) can0 0A7#00512A25A12D70A0
(1040000000.352077) can0 497#0000000000000000
(1040000000.352078) can0 230#FE000002D4000200
(1040000000.354626) can0 00E#2055960208097022
(1040000000.355624) can0 2E2#18080D4040000118
(1040000000.355625) can0 345#050202C23C774081
(1040000000.355626) can0 430#004C448CC48011A0
(1040000000.355627) can0 130#0001700000000000
(1040000000.356662) can0 107#0000000000000000
(1040000000.356665) can0 FFF#0000000000000000
(1040000000.356666) can0 6E0#080807FE0805080A
(1040000000.356667) can0 26E#01064082891E0A04
(1040000000.357680) can0 4FD#11350A59470A4988
(1040000000.357682) can0 125#9000409F403F1760
(1040000000.358678) can0 0D0#2A580466AC094200
(1040000000.359669) can0 033#17BCE9809D45A7D0
(1040000000.360701) can0 354#2032800000058A00
(1040000000.360703) can0 5E1#891F80070A00C080
(1040000000.360704) can0 28B#0000000000000000
(1040000000.361715) can0 0A7#00512A25912D70A0
(1040000000.361717) can0 66C#0080100018000020
(1040000000.361718) can0 3C1#7B551FBB4BD9692E
(1040000000.361719) can0 2D2#0000080000000000
(1040000000.362704) can0 55C#101B000041823000
(1040000000.364397) can0 FFF#0000000000000000
(1040000000.365408) can0 00E#205596020809701C
(1040000000.365409) can0 4CB#8000000000000000
(1040000000.365410) can0 280#1000020000000000
(1040000000.366407) can0 193#00080803E8080000
(1040000000.366409) can0 32D#00000420AC010020
(1040000000.366410) can0 20E#4E2003A49E3F6FFF
(1040000000.367355) can0 522#DF7FD0007E90001C
(1040000000.367357) can0 366#801DC8020147CE38
(1040000000.367361) can0 580#000000056907ED20
(1040000000.367362) can0 434#02AA20A41471D510
(1040000000.368429) can0 69E#0440047D1FC01542
(1040000000.368431) can0 125#9000409F403EF960
(1040000000.368432) can0 6E0#080807FD08050808
(1040000000.368433) can0 498#84002000A7825147
(1040000000.369471) can0 4E7#0000001303760000
(1040000000.369473) can0 153#00000000000C000A
(1040000000.369474) can0 FFF#0000000000000000
(1040000000.369475) can0 662#4C80000040000000
(1040000000.369476) can0 684#4CD580194166D01E
(1040000000.370463) can0 636#249C92812900C000
(1040000000.370464) can0 2D7#100060D800000008
(1040000000.370465) can0 2E1#0000000000000004
(1040000000.370466) can0 354#2032800000057B00
(1040000000.371475) can0 5E1#891F80070A00BC80
(1040000000.371477) can0 19C#0C98200B42002820
(1040000000.371478) can0 0D0#32580466AB094200
(1040000000.371479) can0 033#17BCE17EDD85A7D0
(1040000000.372493) can0 274#58F206F6107CADBF
(1040000000.372494) can0 0C0#6000000000000000
(1040000000.372495) can0 162#2F880304B21258CD
(1040000000.372496) can0 0A7#00512AA5A12D70A0
(1040000000.373512) can0 3E4#00D4000084000000
(1040000000.373514) can0 65C#400863662C600000
(1040000000.373515) can0 577#0000080000000144
(1040000000.373515) can0 FFF#0000000000000000
(1040000000.374532) can0 230#FD000002D4000400
(1040000000.375477) can0 00E#2055960208097016
(1040000000.375478) can0 585#0040000000020018
(1040000000.376554) can0 107#0000000000000000
(1040000000.376556) can0 FFF#0000000000000000
(1040000000.376557) can0 6E0#080A07FC08060808
(1040000000.376559) can0 0BA#069815841000009C
(1040000000.377572) can0 125#9000409F403EDB60
(1040000000.378630) can0 295#0000000000001840
(1040000000.379647) can0 0D0#3A580460A8094400
(1040000000.379649) can0 033#17C4D97EDDC5A7D0
(1040000000.380703) can0 354#2032800000056C00
(1040000000.380705) can0 5E1#891F80070A00B880
(1040000000.380706) can0 28B#0000000000000000
(1040000000.381698) can0 0A7#00512AA5A12D70A0
(1040000000.381700) can0 5B3#0400000000000400
(1040000000.381701) can0 407#39B4625001417DA0
(1040000000.381702) can0 075#0F32000FB01EE000
(1040000000.383398) can0 FFF#0000000000000000
(1040000000.384412) can0 FFF#0000000000000000
(1040000000.384414) can0 0F4#9A0C010204B10240
(1040000000.384415) can0 FFF#0000000000000000
(1040000000.385428) can0 00E#205596020809701C
(1040000000.386426) can0 193#00080803E8080000
(1040000000.386428) can0 20E#4E2003A49DBF8FFF
(1040000000.386429) can0 3C1#7B551FBB8B19E92E
(1040000000.387424) can0 522#DF7FD0007E18001C
(1040000000.387425) can0 366#7FDDC8020147CE38
(1040000000.387427) can0 580#000000056187ED20
(1040000000.387428) can0 434#02CAA0A4A4F26580
(1040000000.388486) can0 69E#0440047D1FC01542
(1040000000.388488) can0 125#9000409F403EBD60
(1040000000.388489) can0 6E0#080D07FE08080807
(1040000000.388490) can0 153#00000000000C000A
(1040000000.389491) can0 662#4C80000040000000
(1040000000.389493) can0 19C#1094200B42002820
(1040000000.389494) can0 0D0#42590460A7094400
(1040000000.389495) can0 033#17C4D1752E05A7D0
(1040000000.389495) can0 274#58F208F4107CADBF
(1040000000.390515) can0 0C0#6000000000000000
(1040000000.390516) can0 498#84002000A6825148
(1040000000.390517) can0 2E1#0000000000000004
(1040000000.390518) can0 354#2032800000056C00
(1040000000.391473) can0 5E1#891F80070A00B880
(1040000000.391475) can0 162#2F880304B21258CD
(1040000000.391476) can0 0A7#00512B25A12D70A0
(1040000000.391477) can0 03A#00000000001D0800
(1040000000.392530) can0 230#FC000002D4000600
(1040000000.394627) can0 00E#2055960208097016
(1040000000.395820) can0 107#0000000000000000
(1040000000.396843) can0 FFF#0000000000000000
(1040000000.396845) can0 6E0#08060801080A0808
(1040000000.397836) can0 125#9000409F403E9F60
(1040000000.398862) can0 0D0#4A590462A6094400
(1040000000.398864) can0 033#17B4C97C8E45A7D0
(1040000000.400049) can0 354#2032C00000055C80
(1040000000.401067) can0 5E1#891F80070A00B880
(1040000000.401068) can0 28B#0000000000000000
(1040000000.401069) can0 0A7#00512AA5912D70A0
(1040000000.401070) can0 03D#0001C08000000000
(1040000000.402067) can0 4EE#A0000D08F04C4008
(1040000000.403837) can0 3B9#20047200FCBBDC42
(1040000000.404863) can0 FFF#0000000000000000
(1040000000.404865) can0 00E#2055960208097022
(1040000000.405877) can0 21D#0000000000010000
(1040000000.406904) can0 193#00080803E8080000
(1040000000.406905) can0 20E#4E2007A49F3FEFFF
(1040000000.406906) can0 522#DF7FD0007DA0001C
(1040000000.406907) can0 366#801DC8020147CE38
(1040000000.407918) can0 580#000000055A07ED20
(1040000000.407919) can0 434#02EAA0A51582D610
(1040000000.407920) can0 69E#0440047D1FC01542
(1040000000.407921) can0 125#9000409F40206160
(1040000000.408941) can0 6E0#080A080108090808
(1040000000.408942) can0 153#00000000000C000A
(1040000000.408943) can0 295#0000000000001840
(1040000000.408944) can0 662#4C80000040000000
(1040000000.408945) can0 19C#1490200B42002820
(1040000000.409948) can0 0D0#52590462A5094400
(1040000000.409950) can0 033#17B4C17C8E85A7D0
(1040000000.409951) can0 274#58F20AF2107CADBF
(1040000000.409952) can0 0C0#6000000000000000
(1040000000.410969) can0 2E1#0000000000000004
(1040000000.410971) can0 354#2032C00000054D80
(1040000000.410972) can0 5E1#891F80070A00BC80
(1040000000.410973) can0 162#2F780304B21258CD
(1040000000.411961) can0 0A7#00512AA5A12D70A0
(1040000000.411963) can0 498#84002000A2825209
(1040000000.411964) can0 464#0002400000901658
(1040000000.411965) can0 3C1#7B551FBD08DAA92E
(1040000000.412979) can0 4FD#113A0A594F0B4A08
(1040000000.412982) can0 69D#808DCFB04FC1FCB1
(1040000000.412984) can0 230#FB000002D4000800
(1040000000.414617) can0 00E#205596020809701C
(1040000000.415810) can0 107#0000000000000000
(1040000000.416801) can0 FFF#0000000000000000
(1040000000.416802) can0 6E0#080D07FE080A0806
(1040000000.416803) can0 0BA#069815841000009C
(1040000000.416804) can0 273#0000000800000000
(1040000000.417814) can0 1C4#0002020002800000
(1040000000.417815) can0 2A4#2020031C040898D0
(1040000000.417816) can0 125#9000409F40204360
(1040000000.417817) can0 FFF#0000000000000000
(1040000000.418820) can0 371#0106000000000880
(1040000000.418821) can0 0D0#5A590464A1094700
(1040000000.418822) can0 033#17C4B981CEC5A7D0
(1040000000.418823) can0 67D#0018600208000220
(1040000000.419774) can0 51B#280C410128000121
(1040000000.419776) can0 32D#00000420AC010020
(1040000000.419777) can0 0CC#43410FB238AFA216
(1040000000.419778) can0 577#0000080000000144
(1040000000.420858) can0 FFF#0000000000000000
(1040000000.420860) can0 354#2032C00000054D80
(1040000000.420861) can0 5E1#891F60070A00BC80
(1040000000.420862) can0 28B#0000000000000000
(1040000000.421876) can0 0A7#00512AA5912D70A0
(1040000000.421878) can0 1CA#3FF9FF8000000C40
(1040000000.421879) can0 5E8#000002040039B000
(1040000000.424385) can0 FFF#0000000000000000
(1040000000.425380) can0 00E#205596020809701C
(1040000000.426406) can0 193#00080803E8080000
(1040000000.426408) can0 20E#4E2007A49EBFEFFF
(1040000000.426410) can0 522#DF7FD0007D28001C
(1040000000.427423) can0 366#801DC8020147CE38
(1040000000.427426) can0 580#000000055287ED20
(1040000000.427427) can0 434#030A80A595F36690
(1040000000.427428) can0 69E#0440047D1FC01542
(1040000000.428420) can0 125#9000409F40202560
(1040000000.428421) can0 6E0#08090801080C0808
(1040000000.428422) can0 498#84002000A182520A
(1040000000.428423) can0 153#00000000000C000A
(1040000000.429439) can0 662#4C80000040000000
(1040000000.429441) can0 19C#188C200B42002820
(1040000000.429442) can0 0D0#62590464A0094700
(1040000000.429443) can0 033#17C4B17F6F05A7D0
(1040000000.429444) can0 274#58F20CF0107CADBF
(1040000000.430439) can0 0C0#6000000000000000
(1040000000.430441) can0 230#FA000002D4000A00
(1040000000.430442) can0 2E1#0000000000000004
(1040000000.430443) can0 354#2032C00000054600
(1040000000.431413) can0 5E1#891F60070A00BC80
(1040000000.431414) can0 162#2F780304B21258CD
(1040000000.431415) can0 0A7#00512B25912D70A0
(1040000000.431416) can0 2A3#1000024522803C0C
(1040000000.434657) can0 00E#2055960208097016
(1040000000.435784) can0 107#0000000000000000
(1040000000.436815) can0 FFF#0000000000000000
(1040000000.436816) can0 3C1#7B551FBC88DB292E
(1040000000.436817) can0 6E0#081007FC080D080B
(1040000000.437836) can0 125#9000409F40200760
(1040000000.437838) can0 FFF#0000000000000000
(1040000000.437840) can0 FFF#0000000000000000
(1040000000.438859) can0 FFF#0000000000000000
(1040000000.438860) can0 295#0000000000001840
(1040000000.438861) can0 0D0#6A5904669F094700
(1040000000.438867) can0 033#17BCA97F6F45A7D0
(1040000000.440017) can0 354#2032C00000054600
(1040000000.441068) can0 5E1#891F60070A00BC80
(1040000000.441070) can0 28B#0000000000000000
(1040000000.441071) can0 6FC#00000700B2C05000
(1040000000.441072) can0 0A7#00512AA5912D70A0
(1040000000.442060) can0 239#0000005B00002BA0
(1040000000.442062) can0 03C#0000040038000000
(1040000000.442063) can0 207#040460482ADED518
(1040000000.442064) can0 4C9#01F8D5820D02F64B
(1040000000.443087) can0 1D6#020F828030240580
(1040000000.443089) can0 419#0A9B464D045FC28F
(1040000000.444213) can0 0D7#0000020080000000
(1040000000.445275) can0 FFF#0000000000000000
(1040000000.445276) can0 00E#205596020809701C
(1040000000.446294) can0 193#00080803E8080000
(1040000000.446296) can0 20E#4E2007A49F3FF007
(1040000000.446297) can0 2C1#01F48FC7CD1F02DA
(1040000000.447297) can0 522#DF7FD0007CB0001C
(1040000000.447298) can0 366#801DC8020147CE38
(1040000000.447299) can0 580#000000054B07ED20
(1040000000.447301) can0 434#032A00A62683E720
(1040000000.448287) can0 69E#0440047D1FC01542
(1040000000.448288) can0 125#9000409F403FE960
(1040000000.448289) can0 6E0#081407FE080F080D
(1040000000.448290) can0 153#00000000000C000A
(1040000000.449269) can0 662#4C80000040000000
(1040000000.449272) can0 19C#1C88200B42002820
(1040000000.449273) can0 0D0#725904669E094700
(1040000000.449274) can0 033#17BCA9764F8597C0
(1040000000.450313) can0 274#58F20EEE107CADBF
(1040000000.450315) can0 0C0#6000000000000000
(1040000000.450316) can0 2B4#14EA900000005800
(1040000000.450317) can0 2E1#0000000000000004
(1040000000.451289) can0 354#2032C00000053700
(1040000000.451291) can0 5E1#891F60070A00B880
(1040000000.451292) can0 162#2F780304B21258CD
(1040000000.451294) can0 0A7#00512B25A12D70A0
(1040000000.451295) can0 497#0000000000000000
(1040000000.452342) can0 498#840020009D8252CB
(1040000000.452344) can0 230#F9000002D4000C00
(1040000000.454602) can0 00E#205596020809701C
(1040000000.455591) can0 2E2#18080D4040000118
(1040000000.455592) can0 345#050202C23C774081
(1040000000.455593) can0 430#004C448CC68011A0
(1040000000.455594) can0 130#0001700000000000
(1040000000.456629) can0 26E#0106408289160A04
(1040000000.456630) can0 107#0000000000000000
(1040000000.456631) can0 FFF#0000000000000000
(1040000000.456632) can0 6E0#080B0800080F080A
(1040000000.457593) can0 0BA#069815841000009C
(1040000000.457595) can0 125#9000409F403FCB60
(1040000000.457596) can0 4FD#113F0A59550C4A08
(1040000000.458626) can0 0D0#7A5904609A094A00
(1040000000.458628) can0 033#17C4A17B5FC597C0
(1040000000.459886) can0 66C#0080100020000020
(1040000000.460932) can0 354#2032C0000005A000
(1040000000.460934) can0 5E1#891F60070A00B880
(1040000000.460935) can0 28B#0000000000000000
(1040000000.460936) can0 0A7#00512AA5A12D70A0
(1040000000.461948) can0 2D2#0000100000000000
(1040000000.461949) can0 3C1#7B551FBB099BE92E
(1040000000.461950) can0 277#1E01800000000130
(1040000000.461952) can0 618#FB7DBEFFF777BFDD
(1040000000.464345) can0 FFF#0000000000000000
(1040000000.465342) can0 00E#205596020809701C
(1040000000.466366) can0 193#00080803E8080000
(1040000000.466367) can0 1E5#01460405A841A3E0
(1040000000.466369) can0 20E#4E2003A4A2401007
(1040000000.467381) can0 522#DF7FD0007C38001C
(1040000000.467383) can0 366#809DC8020147CE38
(1040000000.467384) can0 580#000000054387ED20
(1040000000.467385) can0 434#034AA0A6B70477A0
(1040000000.468411) can0 69E#0440047D1FC01542
(1040000000.468413) can0 125#9000409F403FAD60
(1040000000.468414) can0 6E0#080D0803080D080A
(1040000000.468415) can0 4E7#0000001303760000
(1040000000.468416) can0 153#00000000000C000A
(1040000000.469411) can0 FFF#0000000000000000
(1040000000.469412) can0 295#0000000000001840
(1040000000.469413) can0 662#4C80000040000000
(1040000000.469415) can0 684#4CD580994166D01E
(1040000000.470414) can0 636#249C94012900F000
(1040000000.470415) can0 2D7#100060D800000008
(1040000000.470416) can0 2E1#0000000000000004
(1040000000.470417) can0 354#2032C0000005A000
(1040000000.471435) can0 5E1#891F60070A00B880
(1040000000.471436) can0 19C#00A6200B02002820
(1040000000.471437) can0 0D0#02590460A9094A00
(1040000000.471438) can0 033#17C5197B5C0597C0
(1040000000.472452) can0 274#58F200FC107CADBF
(1040000000.472454) can0 0C0#6000000000000000
(1040000000.472455) can0 162#2F780304B21258CD
(1040000000.472456) can0 0A7#00512BA5A12D70A0
(1040000000.473469) can0 498#840020009A82534C
(1040000000.473471) can0 3E4#00D4000084000000
(1040000000.473472) can0 32D#00000420AC010020
(1040000000.473473) can0 65C#400853562C600000
(1040000000.473474) can0 577#0000080000000144
(1040000000.474491) can0 3A2#000000001801E000
(1040000000.474492) can0 230#F8000002D4000E00
(1040000000.474493) can0 585#0040000000020018
(1040000000.475454) can0 00E#2055960208097016
(1040000000.476511) can0 6E0#080E0808080F0809
(1040000000.476512) can0 107#0000000000000000
(1040000000.476513) can0 FFF#0000000000000000
(1040000000.476514) can0 0F1#3E101CC00359CC00
(1040000000.477507) can0 125#9000409F403F8F60
(1040000000.478530) can0 0D0#0A590462A6094C00
(1040000000.478532) can0 033#17BD197F6C4587C0
(1040000000.480002) can0 354#2032C00000059880
(1040000000.481053) can0 5E1#891F60070A00B880
(1040000000.481054) can0 28B#0000000000000000
(1040000000.481065) can0 0A7#00512B25A12D70A0
(1040000000.481067) can0 5B3#0400000000000400
(1040000000.482081) can0 407#39B2625001417DA0
(1040000000.483524) can0 FFF#0000000000000000
(1040000000.484603) can0 FFF#0000000000000000
(1040000000.484605) can0 0F4#9A0C010204B10240
(1040000000.484606) can0 FFF#0000000000000000
(1040000000.485602) can0 00E#2055960208097016
(1040000000.486625) can0 193#00080803E8080000
(1040000000.486626) can0 20E#4E2003A4A03FEFFF
(1040000000.486627) can0 3C1#7B551FBAC95C692E
(1040000000.486629) can0 522#DF7FD0007BC0001C
(1040000000.487609) can0 366#801DC8020147CE38
(1040000000.487611) can0 580#000000053C07ED20
(1040000000.487612) can0 434#036AA0A72794E820
(1040000000.487613) can0 69E#0440047D1FC01542
(1040000000.488641) can0 125#9000409F403F7160
(1040000000.488643) can0 6E0#080E08060810080B
(1040000000.488644) can0 153#00000000000C000A
(1040000000.488645) can0 662#4C80000040000000
(1040000000.489664) can0 19C#04A2200B02002820
(1040000000.489665) can0 0D0#12590462A5094C00
(1040000000.489666) can0 033#17BD117E4C8587D0
(1040000000.489667) can0 274#58F202FA107CADBF
(1040000000.489668) can0 0C0#6000000000000000
(1040000000.490684) can0 498#840020009A82530D
(1040000000.490687) can0 2E1#0000000000000004
(1040000000.490688) can0 354#2032C00000058980
(1040000000.490689) can0 5E1#891F60070A00BC80
(1040000000.491658) can0 162#2F7802F4B21258CD
(1040000000.491659) can0 0A7#00512B25A12D70A0
(1040000000.491660) can0 230#F7000002D4001000
(1040000000.494614) can0 00E#2055960208097010
(1040000000.495754) can0 107#0000000000000000
(1040000000.496757) can0 FFF#0000000000000000
(1040000000.496759) can0 6E0#080D0805080F080B
(1040000000.496760) can0 0BA#069815841000009C
(1040000000.496761) can0 041#8022002001000000
(1040000000.497789) can0 125#9000409F403F5360
(1040000000.498775) can0 295#0000000000001840
(1040000000.498777) can0 0D0#1A590464A5094B00
(1040000000.498778) can0 033#17C5097E4CC587D0
(1040000000.499879) can0 354#2032C00000058980
(1040000000.500900) can0 5E1#891F60070A00B880
(1040000000.500901) can0 28B#0000000000000000
(1040000000.500902) can0 0A7#00512AA5A12D70A0
(1040000000.500903) can0 03D#0001C00000000000
(1040000000.504260) can0 FFF#0000000000000000
(1040000000.505258) can0 00E#2055960208097010
(1040000000.506284) can0 193#00080803E8080000
(1040000000.506285) can0 20E#4E2003A4A1BFEFF7
(1040000000.506286) can0 522#DF7FD0007B48001C
(1040000000.507304) can0 366#805DC8020147CE38
(1040000000.507305) can0 580#000000053487ED20
(1040000000.507306) can0 434#038800A7A80578A0
(1040000000.507307) can0 4FD#11380A5A4B0ACA08
(1040000000.508325) can0 69E#0440047D1FC01542
(1040000000.508327) can0 125#900040DF403F1560
(1040000000.508328) can0 6E0#08100801080E080B
(1040000000.508329) can0 153#00000000000C000A
(1040000000.509328) can0 662#4C80000040000000
(1040000000.509330) can0 19C#089E200B02002820
(1040000000.509331) can0 0D0#22590464A4094B00
(1040000000.509332) can0 033#17C501737D0587D0
(1040000000.510348) can0 274#58F204F8107CADBF
(1040000000.510350) can0 0C0#6000000000000000
(1040000000.510351) can0 498#840020009882534E
(1040000000.510352) can0 2E1#0000000000000004
(1040000000.511366) can0 354#2032C00000058200
(1040000000.511368) can0 5E1#891F60070A00B880
(1040000000.511369) can0 162#2F6802F4B21258CD
(1040000000.511370) can0 0A7#00512A25A12D70A0
(1040000000.511371) can0 3C1#7B551FBB481D292E
(1040000000.512367) can0 55C#101B000041823000
(1040000000.512368) can0 464#0002400000901559
(1040000000.512369) can0 230#F6000002D4001200
(1040000000.514608) can0 00E#205596020809700A
(1040000000.515816) can0 6E0#08120801080C080A
(1040000000.516807) can0 107#0000000000000000
(1040000000.516808) can0 FFF#0000000000000000
(1040000000.516809) can0 297#1100002000025110
(1040000000.516810) can0 5AF#20C0000000200000
(1040000000.517825) can0 32D#00000420AC010020
(1040000000.517828) can0 125#9000409F403F1760
(1040000000.518846) can0 0D0#2A590466A2094C00
(1040000000.518848) can0 033#17B4F979AD4587D0
(1040000000.518849) can0 577#0000080000000144
(1040000000.520022) can0 354#2032C00000058200
(1040000000.521055) can0 5E1#891F60070A00BC80
(1040000000.521056) can0 28B#0000000000000000
(1040000000.521057) can0 0A7#00512A25A12D70A0
(1040000000.521058) can0 1CA#3FF9FF8000000C40
(1040000000.524218) can0 FFF#0000000000000000
(1040000000.525283) can0 00E#205596020809701C
(1040000000.526283) can0 193#00080803E8080000
(1040000000.526286) can0 20E#4E2003A4A1BFAFFF
(1040000000.526287) can0 522#DF7FD0007AD0001C
(1040000000.527301) can0 366#809DC8020147CE38
(1040000000.527303) can0 580#000000052D07ED20
(1040000000.527304) can0 434#03A2A0A83895F930
(1040000000.527305) can0 69E#0440047D1FC01542
(1040000000.528322) can0 125#9000409F403EF960
(1040000000.528323) can0 6E0#08120803080C080A
(1040000000.528324) can0 153#00000000000C000A
(1040000000.529346) can0 295#0000000000001840
(1040000000.529348) can0 662#4C80000040000000
(1040000000.529355) can0 19C#0C9A200B02002820
(1040000000.529356) can0 0D0#32590466A1094C00
(1040000000.529357) can0 033#17B4F179AD8587D0
(1040000000.530366) can0 274#58F206F6107CADBF
(1040000000.530367) can0 0C0#6000000000000000
(1040000000.530368) can0 2E1#0000000000000004
(1040000000.530369) can0 354#2032C00000057300
(1040000000.531364) can0 5E1#891F60070A00BC80
(1040000000.531365) can0 162#2F6802F4B21258CD
(1040000000.531366) can0 0A7#00512A25A12D70A0
(1040000000.531367) can0 2A3#1000024520803C0C
(1040000000.532407) can0 498#840020009882530F
(1040000000.532409) can0 230#F5000002D4001400
(1040000000.534671) can0 00E#2055960208097016
(1040000000.535768) can0 107#0000000000000000
(1040000000.536784) can0 FFF#0000000000000000
(1040000000.536785) can0 3C1#7B551FBB479DA92E
(1040000000.536786) can0 6E0#080D0802080D080C
(1040000000.536787) can0 0BA#069815841000009C
(1040000000.537761) can0 125#9000409F403EDB60
(1040000000.537763) can0 FFF#0000000000000000
(1040000000.538802) can0 0D0#3A590460A1094B00
(1040000000.538804) can0 033#17BCE97F6DC587D0
(1040000000.539904) can0 354#2032C00000056400
(1040000000.540963) can0 5E1#891F60070A00BC80
(1040000000.540964) can0 28B#0000000000000000
(1040000000.540965) can0 6FC#0000070232C05800
(1040000000.540966) can0 0A7#00512AA5A12D70A0
(1040000000.541969) can0 239#0000005AA0002BA0
(1040000000.541971) can0 03C#0000040038000000
(1040000000.541972) can0 207#040460482ADED518
(1040000000.541972) can0 4C9#01F915820D02F64B
(1040000000.542991) can0 1D6#020B808030240580
(1040000000.544208) can0 FFF#0000000000000000
(1040000000.545218) can0 0D7#0000020080000000
(1040000000.545220) can0 00E#2055960208097022
(1040000000.546239) can0 193#00080803E8080000
(1040000000.546241) can0 20E#4E2003A4A33FAFFF
(1040000000.547238) can0 522#DF7FD0007A58001C
(1040000000.547240) can0 366#805DC8020147CE38
(1040000000.547241) can0 580#000000052587ED20
(1040000000.547242) can0 434#03CAA0A8C91689B0
(1040000000.547243) can0 69E#0440047D1FC01542
(1040000000.548259) can0 125#9000409F403EBD60
(1040000000.548261) can0 6E0#080D0808080E080D
(1040000000.548262) can0 2B4#14EA900000005800
(1040000000.548263) can0 153#00000000000C000A
(1040000000.549275) can0 662#4C80000040000000
(1040000000.549276) can0 19C#1096200B02002820
(1040000000.549277) can0 0D0#42590460A0094B00
(1040000000.549278) can0 033#17BCE1800E0587D0
(1040000000.550283) can0 274#58F208F4107CADBF
(1040000000.550285) can0 0C0#6000000000000000
(1040000000.550286) can0 498#84002000A88252C0
(1040000000.550286) can0 2E1#0000000000000004
(1040000000.551324) can0 354#2032C00000056400
(1040000000.551325) can0 5E1#891F60070A00C080
(1040000000.551326) can0 162#2F6802F4B21258CD
(1040000000.551327) can0 0A7#00512AA5A12D70A0
(1040000000.551328) can0 2C1#01F2EFC7CA1F12F0
(1040000000.552317) can0 497#0000000000000000
(1040000000.552319) can0 230#F4000002D4001600
(1040000000.554375) can0 FFF#0000000000000000
(1040000000.555395) can0 00E#205596020809701C
(1040000000.555398) can0 2E2#18080D4040000118
(1040000000.555399) can0 345#050202C23C774081
(1040000000.555400) can0 430#004C448CC68011A0
(1040000000.556387) can0 130#0001700000000000
(1040000000.556388) can0 107#0000000000000000
(1040000000.556389) can0 FFF#0000000000000000
(1040000000.556390) can0 6E0#080F080B080D080D
(1040000000.557403) can0 26E#0106408289160A04
(1040000000.557404) can0 4FD#113A0A5A4F0B4A08
(1040000000.557411) can0 125#9000409F403E9F60
(1040000000.558412) can0 295#0000000000001840
(1040000000.558414) can0 0D0#4A590462A0094A00
(1040000000.559400) can0 033#17B4D9800E4587D0
(1040000000.560464) can0 66C#0080100018000020
(1040000000.560466) can0 354#2032C00000055C80
(1040000000.561488) can0 5E1#891F60070A00BC80
(1040000000.561489) can0 28B#0000000000000000
(1040000000.561490) can0 0A7#00512BA5A12D70A0
(1040000000.561492) can0 2D2#0000180000000000
(1040000000.561493) can0 3C1#7B551FBB869E692E
(1040000000.564276) can0 FFF#0000000000000000
(1040000000.565276) can0 4CB#8000000000000000
(1040000000.565277) can0 00E#205596020809701C
(1040000000.565278) can0 280#1000020000000000
(1040000000.566298) can0 193#00080803E8080000
(1040000000.566300) can0 32D#00000420AC010020
(1040000000.566301) can0 20E#4E2003A4A1BFCFFF
(1040000000.567291) can0 522#DF7FD00079E0001C
(1040000000.567292) can0 366#805DC8020147CE38
(1040000000.567293) can0 580#000000051E07ED20
(1040000000.567295) can0 434#03E220A939A6FA30
(1040000000.568315) can0 69E#0440047D1FC01542
(1040000000.568317) can0 125#9000409F40206160
(1040000000.568318) can0 6E0#080D080A0809080C
(1040000000.568319) can0 4E7#0000001303760000
(1040000000.569318) can0 153#00000000000C000A
(1040000000.569320) can0 FFF#0000000000000000
(1040000000.569321) can0 662#4C80000040000000
(1040000000.569322) can0 684#4CD57F994166D01E
(1040000000.570357) can0 636#249C954129813000
(1040000000.570359) can0 2D7#100060D800000008
(1040000000.570360) can0 19C#1492200B02002820
(1040000000.570361) can0 2E1#0000000000000004
(1040000000.570362) can0 354#2032C00000054D80
(1040000000.571347) can0 5E1#891F40070A00BC80
(1040000000.571349) can0 0D0#525904629F094A00
(1040000000.571350) can0 033#17B4D176DE8587D0
(1040000000.571351) can0 274#58F20AF2107CADBF
(1040000000.572393) can0 0C0#6000000000000000
(1040000000.572395) can0 162#2F6802F4B21258CD
(1040000000.572396) can0 0A7#00512B25A12D70A0
(1040000000.572397) can0 498#84002000A5825341
(1040000000.573418) can0 3E4#00D4000084000000
(1040000000.573419) can0 65C#400853562C700000
(1040000000.573420) can0 577#0000080000000144
(1040000000.573421) can0 230#F3000002D4001800
(1040000000.574439) can0 585#0040000000020018
(1040000000.575406) can0 00E#2055960208097004
(1040000000.576462) can0 107#0000000000000000
(1040000000.576463) can0 FFF#0000000000000000
(1040000000.576464) can0 6E0#0814080D080A080B
(1040000000.577485) can0 0BA#069815841000009C
(1040000000.577487) can0 125#9000409F40204360
(1040000000.578506) can0 0D0#5A5904649C094C00
(1040000000.578508) can0 033#17B4C9776EC587D0
(1040000000.579904) can0 354#2032C00000054D80
(1040000000.580960) can0 5E1#891F60070A00C080
(1040000000.580962) can0 28B#0000000000000000
(1040000000.580963) can0 0A7#00512AA5A12D70A0
(1040000000.580964) can0 5B3#0400000000000400
(1040000000.581959) can0 407#39B2624001417D60
(1040000000.583705) can0 FFF#0000000000000000
(1040000000.584791) can0 FFF#0000000000000000
(1040000000.584793) can0 FFF#0000000000000000
(1040000000.584794) can0 0F4#9A0C010204B10240
(1040000000.584795) can0 00E#2055960208097022
(1040000000.585813) can0 193#00080803E8080000
(1040000000.586809) can0 20E#4E2003A4A43FEFF7
(1040000000.586811) can0 3C1#7B551FBBC5DEE92E
(1040000000.586812) can0 522#DF7FD0007968001C
(1040000000.586813) can0 366#809DC8020147CE38
(1040000000.587804) can0 580#000000051687ED20
(1040000000.587812) can0 434#040A20A9BA378AB0
(1040000000.587813) can0 69E#0440047D1FC01542
(1040000000.587814) can0 125#9000409F40202560
(1040000000.588838) can0 6E0#0812080A080D080A
(1040000000.588839) can0 153#00000000000C000A
(1040000000.588840) can0 295#0000000000001840
(1040000000.588842) can0 662#4C80000040000000
(1040000000.589859) can0 19C#188E200B02002820
(1040000000.589861) can0 0D0#625904649B094C00
(1040000000.589862) can0 033#17B4C1776F0587D0
(1040000000.589863) can0 274#58F20CF0107CADBF
(1040000000.589864) can0 0C0#6000000000000000
(1040000000.590847) can0 2E1#0000000000000004
(1040000000.590848) can0 354#2032C00000054600
(1040000000.590849) can0 5E1#891F60070A00C080
(1040000000.590850) can0 162#2F6802F4B21258CD
(1040000000.591848) can0 0A7#00512A25A12D70A0
(1040000000.591850) can0 498#84002000A7825282
(1040000000.591851) can0 230#F2000002D4001A00
(1040000000.594536) can0 00E#2055960208097010
(1040000000.595681) can0 107#0000000000000000
(1040000000.596699) can0 FFF#0000000000000000
(1040000000.596700) can0 6E0#08130807080A080C
(1040000000.596701) can0 30A#202D8001D5220A00
(1040000000.597718) can0 125#9000409F40200760
(1040000000.598719) can0 0D0#6A5904669D094900
(1040000000.598720) can0 033#17B4B97EDF4587D0
(1040000000.599981) can0 354#2032C00000054600
(1040000000.600991) can0 5E1#891F60070A00C080
(1040000000.600993) can0 28B#0000000000000000
(1040000000.600994) can0 0A7#00512B25A12D70A0
(1040000000.600995) can0 03D#0001BF0000000000
(1040000000.604241) can0 FFF#0000000000000000
(1040000000.605248) can0 00E#2055960208097022
(1040000000.606273) can0 193#00080803E8080000
(1040000000.606274) can0 20E#4E2003A4A53FEFEF
(1040000000.606275) can0 522#DF7FD00078F0001C
(1040000000.607289) can0 366#805DC8020147CE38
(1040000000.607290) can0 580#000000050F07ED20
(1040000000.607291) can0 434#0422A0AA4AA80B40
(1040000000.607292) can0 4FD#113C0A5A510BCA08
(1040000000.608256) can0 69E#0440047D1FC01542
(1040000000.608258) can0 125#9000409F403FE960
(1040000000.608259) can0 6E0#08150805080C080B
(1040000000.608260) can0 153#00000000000C000A
(1040000000.609277) can0 662#4C80000040000000
(1040000000.609279) can0 19C#1C8A200B02002820
(1040000000.609280) can0 0D0#725904669C094900
(1040000000.609281) can0 033#17B4B1813F8587D0
(1040000000.610309) can0 274#58F20EEE107CADBF
(1040000000.610310) can0 0C0#6000000000000000
(1040000000.610311) can0 498#84002000A58252C3
(1040000000.610312) can0 2E1#0000000000000004
(1040000000.610313) can0 354#2032C00000053700
(1040000000.611267) can0 5E1#891F60070A00C080
(1040000000.611268) can0 162#2F6802F4B21258CD
(1040000000.611269) can0 0A7#00512BA5A12D70A0
(1040000000.611270) can0 3C1#7B551FBB05DFA92E
(1040000000.612328) can0 464#000240000090145A
(1040000000.612329) can0 230#F1000002D4001C00
(1040000000.614607) can0 00E#2055960208096FFC
(1040000000.615679) can0 107#0000000000000000
(1040000000.616736) can0 FFF#0000000000000000
(1040000000.616738) can0 6E0#08190808080D080B
(1040000000.616739) can0 0BA#069815841000009C
(1040000000.616740) can0 51B#0802874DDCF00001
(1040000000.617754) can0 32D#00000420AC010020
(1040000000.617755) can0 125#9000409F403FCB60
(1040000000.618791) can0 295#0000000000001840
(1040000000.618793) can0 0D0#7A5904609A094A00
(1040000000.618794) can0 033#17BCA9813FC587D0
(1040000000.619773) can0 577#0000080000000144
(1040000000.620823) can0 354#2032C0000005A000
(1040000000.620831) can0 5E1#891F60070A00BC80
(1040000000.620832) can0 28B#0000000000000000
(1040000000.620833) can0 0A7#00512C25A12D70A0
(1040000000.621820) can0 1CA#3FF9FF8000000C40
(1040000000.624131) can0 FFF#0000000000000000
(1040000000.625146) can0 00E#2055960208097004
(1040000000.626158) can0 193#00080803E8080000
(1040000000.626159) can0 20E#4E2003A4A43FEFEF
(1040000000.627171) can0 522#DF7FD0007878001C
(1040000000.627172) can0 366#809DC8020147CE38
(1040000000.627173) can0 580#000000050787ED20
(1040000000.627174) can0 434#0442A0AADB289BC0
(1040000000.628171) can0 69E#0440047D1FC01542
(1040000000.628174) can0 2B4#14EA910000005800
(1040000000.628175) can0 125#9000409F403FAD60
(1040000000.628176) can0 6E0#081B0808080C080A
(1040000000.629193) can0 153#00000000000C000A
(1040000000.629194) can0 662#4C80000040000000
(1040000000.629195) can0 19C#00A6200B02002820
(1040000000.629196) can0 0D0#02590460A9094A00
(1040000000.629197) can0 033#17BD2175BC0587D0
(1040000000.630217) can0 274#58F200FC107CADBF
(1040000000.630219) can0 0C0#6000000000000000
(1040000000.630220) can0 498#84002000A48252C4
(1040000000.630221) can0 2E1#0000000000000004
(1040000000.631220) can0 354#2032C0000005A000
(1040000000.631221) can0 5E1#891F60070A00C080
(1040000000.631222) can0 162#2F6802F4B21258CD
(1040000000.631223) can0 0A7#00512BA5A12D70A0
(1040000000.632214) can0 2A3#1000024522803C0C
(1040000000.632217) can0 230#F0000002D4001E00
(1040000000.634651) can0 00E#2055960208096FF6
(1040000000.635755) can0 107#0000000000000000
(1040000000.636766) can0 FFF#0000000000000000
(1040000000.636767) can0 3C1#7B551FBAC5A0292E
(1040000000.636768) can0 6E0#0812080A080F080D
(1040000000.637766) can0 125#9000409F403F8F60
(1040000000.637767) can0 FFF#0000000000000000
(1040000000.638805) can0 0D0#0A590462A8094A00
(1040000000.638807) can0 033#17B51976DC4587D0
(1040000000.640016) can0 354#2032C00000059880
(1040000000.641039) can0 5E1#891F60070A00BC80
(1040000000.641040) can0 28B#0000000000000000
(1040000000.641042) can0 6FC#0000070032C05800
(1040000000.641043) can0 0A7#00512C25A12D70A0
(1040000000.641962) can0 239#0000005A20002B80
(1040000000.641964) can0 03C#0000040038000000
(1040000000.641965) can0 207#040460482ADED518
(1040000000.641966) can0 4C9#01F915820D03F64B
(1040000000.643058) can0 1D6#028FC28034740590
(1040000000.644206) can0 FFF#0000000000000000
(1040000000.645205) can0 0D7#0000020080000000
(1040000000.645206) can0 00E#205596020809700A
(1040000000.646225) can0 193#00080803E8080000
(1040000000.646227) can0 20E#4E2003A4A6BFAFFF
(1040000000.647251) can0 522#DF7FD0007F80001C
(1040000000.647253) can0 366#809DC8020147CE38
(1040000000.647254) can0 580#000000057807ED20
(1040000000.647255) can0 434#046A80AB5BB90C50
(1040000000.647256) can0 69E#0440047D1FC01542
(1040000000.648266) can0 125#9000409F403F7160
(1040000000.648267) can0 6E0#081B0809080D080B
(1040000000.648268) can0 153#00000000000C000A
(1040000000.649289) can0 295#0000000000001840
(1040000000.649291) can0 662#4C80000040000000
(1040000000.649292) can0 19C#04A2200B02002820
(1040000000.649293) can0 0D0#12590462A7094A00
(1040000000.649294) can0 033#17B51176DC8587D0
(1040000000.650277) can0 274#58F202FA107CADBF
(1040000000.650279) can0 0C0#6000000000000000
(1040000000.650280) can0 2E1#0000000000000004
(1040000000.650281) can0 354#2032C00000058980
(1040000000.651259) can0 5E1#891F60070A00BC80
(1040000000.651267) can0 162#2F5802F4B21258CD
(1040000000.651268) can0 0A7#00512B25A12D70A0
(1040000000.651269) can0 497#0000000000000000
(1040000000.652328) can0 498#84002000A2825305
(1040000000.652330) can0 230#FF000002D4000000
(1040000000.654624) can0 00E#2055960208096FF6
(1040000000.655542) can0 2E2#18080D4040000118
(1040000000.655544) can0 345#050202C23C774081
(1040000000.655545) can0 430#004C448CC68011A0
(1040000000.655546) can0 130#0001700000000000
(1040000000.656621) can0 107#0000000000000000
(1040000000.656623) can0 FFF#0000000000000000
(1040000000.656624) can0 2C1#01F28FC7C99F0704
(1040000000.656625) can0 6E0#0815080D080D0814
(1040000000.657660) can0 0BA#069815841000009C
(1040000000.657662) can0 26E#0106408289160A04
(1040000000.657663) can0 125#9000409F403F5360
(1040000000.657664) can0 4FD#113B0A5A4F0B4A08
(1040000000.658657) can0 2B4#14EA910000005800
(1040000000.658659) can0 0D0#1A590464A5094B00
(1040000000.658660) can0 033#17B5097DACC587D0
(1040000000.659844) can0 66C#0080100018000020
(1040000000.660891) can0 354#2032C00000058980
(1040000000.660893) can0 5E1#891F80070A00BC80
(1040000000.660894) can0 28B#0000000000000000
(1040000000.660895) can0 0A7#00512AA5A12D70A0
(1040000000.661887) can0 2D2#0000200000000000
(1040000000.661889) can0 3C1#7B551FBB04A0E92E
(1040000000.661890) can0 55C#101B000041823000
(1040000000.664117) can0 FFF#0000000000000000
(1040000000.665138) can0 00E#205596020809700A
(1040000000.666138) can0 30A#202D8001D5220A00
(1040000000.666141) can0 193#00080803E8080000
(1040000000.667159) can0 20E#4E2003A4A63F6FFF
(1040000000.667161) can0 522#DF7FD0007F08001C
(1040000000.667162) can0 366#809DC8020147CE38
(1040000000.667163) can0 580#000000057087ED20
(1040000000.668171) can0 434#000000ABCC398CC0
(1040000000.668173) can0 69E#0440047D1FC01542
(1040000000.668174) can0 125#9000409F403F3560
(1040000000.668175) can0 6E0#08140805080C080E
(1040000000.668177) can0 4E7#0000001303760000
(1040000000.669179) can0 153#00000000000C000A
(1040000000.669182) can0 FFF#0000000000000000
(1040000000.669183) can0 662#4C80000040000000
(1040000000.669184) can0 684#4CD580194166D01E
(1040000000.670201) can0 636#249C96C129816000
(1040000000.670202) can0 2D7#100060D800000008
(1040000000.670203) can0 19C#089E200B02002820
(1040000000.670204) can0 2E1#0000000000000004
(1040000000.671222) can0 354#2032C00000058200
(1040000000.671224) can0 5E1#891F80070A00B880
(1040000000.671225) can0 0D0#22590464A4094B00
(1040000000.671226) can0 033#17B501809D0587D0
(1040000000.672216) can0 274#58F204F8107CADBF
(1040000000.672217) can0 0C0#6000000000000000
(1040000000.672218) can0 162#2F5802E4B21258CD
(1040000000.672219) can0 0A7#005129A5A12D70A0
(1040000000.673245) can0 1C4#0002020002C00000
(1040000000.673247) can0 2A4#36DC001C040898D0
(1040000000.673248) can0 498#840020009F825386
(1040000000.673249) can0 3E4#00D4000084000000
(1040000000.673250) can0 32D#00000420AC010020
(1040000000.674252) can0 65C#400853662C700000
(1040000000.674253) can0 577#0000080000000144
(1040000000.674254) can0 230#FE000002D4000200
(1040000000.675261) can0 00E#2055960208096FF6
(1040000000.675262) can0 585#0040000000020018
(1040000000.676272) can0 107#0000000000000000
(1040000000.676274) can0 FFF#0000000000000000
(1040000000.676275) can0 6E0#0815080A080C080D
(1040000000.677283) can0 125#9000409F403F1760
(1040000000.678327) can0 295#0000000000001840
(1040000000.678336) can0 0D0#2A590466A1094D00
(1040000000.679342) can0 033#17B4F9809D4587D0
(1040000000.680345) can0 354#2032C00000058200
(1040000000.680347) can0 5E1#891F80070A00B480
(1040000000.681346) can0 28B#0000000000000000
(1040000000.681348) can0 0A7#00512AA5A12D70A0
(1040000000.681349) can0 5B3#0400000000000400
(1040000000.681350) can0 407#39B2624001417D60
(1040000000.682363) can0 533#ED7FCF7EFFF2EF7F
(1040000000.683934) can0 FFF#0000000000000000
(1040000000.685025) can0 FFF#0000000000000000
(1040000000.685026) can0 FFF#0000000000000000
(1040000000.685027) can0 0F4#9A0C010204B10240
(1040000000.685028) can0 00E#2055960208097004
(1040000000.686061) can0 193#00080803E8080000
(1040000000.686062) can0 20E#4E2007A4A5BF6FFF
(1040000000.687060) can0 3C1#7B551FBC42E1692E
(1040000000.687062) can0 522#DF7FD0007E90001C
(1040000000.687063) can0 366#805DC8020147CE38
(1040000000.687064) can0 580#000000056907ED20
(1040000000.688076) can0 434#002000AC5CBA1D50
(1040000000.688077) can0 69E#0440047D1FC01542
(1040000000.688078) can0 125#9000409F403EF960
(1040000000.688079) can0 6E0#0818080C080D080E
(1040000000.689080) can0 153#00000000000C000A
(1040000000.689082) can0 662#4C80000040000000
(1040000000.689083) can0 19C#0C9A200B02002820
(1040000000.689083) can0 0D0#32590466A0094D00
(1040000000.690122) can0 033#17B4F179AD8587D0
(1040000000.690123) can0 274#58F206F6107CADBF
(1040000000.690124) can0 0C0#6000000000000000
(1040000000.690125) can0 498#840020009F825347
(1040000000.691098) can0 2E1#0000000000000004
(1040000000.691099) can0 354#2032C00000057300
(1040000000.691100) can0 5E1#891F80070A00B480
(1040000000.691101) can0 162#2F5802E4B21258CD
(1040000000.691102) can0 0A7#00512B25A12D70A0
(1040000000.692136) can0 230#FD000002D4000400
(1040000000.694605) can0 00E#2055960208096FEA
(1040000000.695757) can0 107#0000000000000000
(1040000000.696790) can0 FFF#0000000000000000
(1040000000.696792) can0 6E0#0815080A080F080F
(1040000000.696793) can0 0BA#069815841000009C
(1040000000.697809) can0 125#9000409F403EDB60
(1040000000.698831) can0 0D0#3A590460A0094C00
(1040000000.698832) can0 033#17BCE975BDC587D0
(1040000000.699955) can0 354#2032C00000056400
(1040000000.700973) can0 5E1#891F80070A00B080
(1040000000.700975) can0 28B#0000000000000000
(1040000000.700976) can0 0A7#00512CA5A12D70A0
(1040000000.700977) can0 03D#0001BE8000000000
(1040000000.703521) can0 2B7#0020284000008040
(1040000000.704602) can0 FFF#0000000000000000
(1040000000.704603) can0 00E#2055960208096FEA
(1040000000.705833) can0 193#00080803E8080000
(1040000000.706853) can0 20E#4E2003A4A63FCFF7
(1040000000.706854) can0 522#DF7FD0007E18001C
(1040000000.706855) can0 366#809DC8020147CE38
(1040000000.706856) can0 580#000000056187ED20
(1040000000.707854) can0 434#005680ACDD3AADD0
(1040000000.707856) can0 4FD#11370A5A4B0ACA08
(1040000000.707857) can0 69E#0440047D1FC01542
(1040000000.707858) can0 125#9000409F403EBD60
(1040000000.708875) can0 6E0#0812080A080F080D
(1040000000.708876) can0 153#00000000000C000A
(1040000000.708877) can0 295#0000000000001840
(1040000000.708878) can0 662#4C80000040000000
(1040000000.709914) can0 19C#1096200B02002820
(1040000000.709915) can0 0D0#425904609F094C00
(1040000000.709916) can0 033#17BCE175BE0587D0
(1040000000.709917) can0 274#58F208F4107CADBF
(1040000000.709917) can0 0C0#6000000000000000
(1040000000.710928) can0 2E1#0000000000000004
(1040000000.710935) can0 354#2032C00000056400
(1040000000.710936) can0 5E1#891F80070A00B080
(1040000000.710937) can0 162#2F5802E4B21258CD
(1040000000.711920) can0 0A7#00512CA5A12D70A0
(1040000000.711922) can0 498#840020009C8253C8
(1040000000.711923) can0 464#000240000090135B
(1040000000.711924) can0 3C1#7B551FBBC2A2292E
(1040000000.712943) can0 230#FC000002D4000600
(1040000000.714601) can0 00E#2055960208096FEA
(1040000000.715753) can0 107#0000000000000000
(1040000000.716780) can0 FFF#0000000000000000
(1040000000.716782) can0 6E0#081D080B0811080F
(1040000000.716783) can0 32D#00000420AC010020
(1040000000.717741) can0 125#9000409F403E9F60
(1040000000.718827) can0 0D0#4A5904629C094E00
(1040000000.718828) can0 033#17ACD97C8E4587D0
(1040000000.718829) can0 577#0000080000000144
(1040000000.719954) can0 354#2032C00000055C80
(1040000000.721009) can0 5E1#891F80070A00B480
(1040000000.721010) can0 28B#0000000000000000
(1040000000.721011) can0 0A7#00512CA5A12D70A0
(1040000000.721012) can0 1CA#3FF9FF8000000C40
(1040000000.724268) can0 FFF#0000000000000000
(1040000000.725272) can0 00E#2055960208096FFC
(1040000000.726293) can0 193#00080803E8080000
(1040000000.726294) can0 20E#4E2003A4A4BFEFF7
(1040000000.726295) can0 522#DF7FD0007DA0001C
(1040000000.727311) can0 366#805DC8020147CE38
(1040000000.727313) can0 580#000000055A07ED20
(1040000000.727314) can0 434#007780AD6DCB1E60
(1040000000.727315) can0 69E#0440047D1FC01542
(1040000000.728315) can0 125#9000409F40206160
(1040000000.728317) can0 6E0#081408050812080E
(1040000000.728318) can0 498#840020009A825409
(1040000000.728319) can0 153#00000000000C000A
(1040000000.729338) can0 662#4C80000040000000
(1040000000.729340) can0 19C#1492200B02002820
(1040000000.729341) can0 0D0#525904629B094E00
(1040000000.729342) can0 033#17ACD1800E8587D0
(1040000000.730340) can0 274#58F20AF2107CADBF
(1040000000.730342) can0 0C0#6000000000000000
(1040000000.730343) can0 230#FB000002D4000800
(1040000000.730344) can0 2E1#0000000000000004
(1040000000.730346) can0 354#2032C00000054D80
(1040000000.731319) can0 5E1#891FA0070A00B880
(1040000000.731321) can0 162#2F5802E4B21258CD
(1040000000.731323) can0 0A7#00512B25A12D70A0
(1040000000.731324) can0 2A3#1000024524803C0C
(1040000000.732341) can0 1AA#90BEBD44A163E640
(1040000000.734581) can0 00E#2055960208096FF6
(1040000000.735712) can0 6E0#0815080A08140810
(1040000000.736723) can0 107#0000000000000000
(1040000000.736725) can0 FFF#0000000000000000
(1040000000.736726) can0 3C1#7B551FBC8162A92E
(1040000000.736727) can0 0BA#069815841000009C
(1040000000.737742) can0 125#9000409F40204360
(1040000000.737744) can0 FFF#0000000000000000
(1040000000.738746) can0 295#0000000000001840
(1040000000.738747) can0 0D0#5A59046499094F00
(1040000000.738748) can0 033#17ACC9800EC587D0
(1040000000.739875) can0 354#2032C00000054D80
(1040000000.740913) can0 5E1#891FA0070A00B880
(1040000000.740915) can0 28B#0000000000000000
(1040000000.740916) can0 6FC#0000070092C05800
(1040000000.740917) can0 0A7#00512AA5A12D70A0
(1040000000.741908) can0 239#00000059A0002B80
(1040000000.741909) can0 03C#0000040038000000
(1040000000.741910) can0 207#040460482ADED518
(1040000000.741911) can0 4C9#01F915820D02F64B
(1040000000.742935) can0 1D6#020B808030240580
(1040000000.744094) can0 FFF#0000000000000000
(1040000000.745139) can0 0D7#0000020080000000
(1040000000.745141) can0 00E#205596020809700A
(1040000000.746141) can0 193#00080803E8080000
(1040000000.746142) can0 20E#4E2007A4A6401007
(1040000000.747186) can0 522#DF7FD0007D28001C
(1040000000.747188) can0 366#801DC8020147CE38
(1040000000.747189) can0 580#000000055287ED20
(1040000000.747190) can0 434#0088E0ADDE4B9EE0
(1040000000.747191) can0 69E#0440047D1FC01542
(1040000000.748182) can0 125#9000409F40202560
(1040000000.748183) can0 6E0#081D080608140814
(1040000000.748184) can0 2B4#14EA910000005800
(1040000000.748185) can0 153#00000000000C000A
(1040000000.749201) can0 662#4C80000040000000
(1040000000.749202) can0 19C#188E200B02002820
(1040000000.749203) can0 0D0#6259046498094F00
(1040000000.749204) can0 033#17ACC17BFF0587D0
(1040000000.750163) can0 274#58F20CF0107CADBF
(1040000000.750164) can0 0C0#6000000000000000
(1040000000.750165) can0 498#840020009782548A
(1040000000.750166) can0 2E1#0000000000000004
(1040000000.751219) can0 354#2032C00000054600
(1040000000.751220) can0 5E1#891FA0070A00B880
(1040000000.751221) can0 162#2F5802E4B21258CD
(1040000000.751222) can0 0A7#005129A5A12D70A0
(1040000000.752218) can0 497#0000000000000000
(1040000000.752219) can0 230#FA000002D4000A00
(1040000000.754575) can0 00E#2055960208096FF6
(1040000000.755555) can0 2E2#18080D4040000118
(1040000000.755557) can0 345#050202C23C774081
(1040000000.755558) can0 430#004C448CC88011A0
(1040000000.755559) can0 130#0001700000000000
(1040000000.756606) can0 6E0#0819080F08150812
(1040000000.756608) can0 26E#01064082891E0A04
(1040000000.756609) can0 107#0000000000000000
(1040000000.757583) can0 FFF#0000000000000000
(1040000000.757585) can0 4FD#11370A5A4B0ACA08
(1040000000.757586) can0 125#9000409F40200760
(1040000000.758604) can0 0D0#6A59046695095100
(1040000000.758605) can0 033#17ACB9752F4587D0
(1040000000.759869) can0 66C#0080100018000020
(1040000000.760896) can0 354#2032C00000054600
(1040000000.760898) can0 5E1#891FC0070A00B480
(1040000000.760899) can0 28B#0000000000000000
(1040000000.760900) can0 0A7#00512AA5A12D70A0
(1040000000.761918) can0 2D2#0000280000000000
(1040000000.761920) can0 3C1#7B551FBB41E3692E
(1040000000.761921) can0 2C1#01F44FC7CF1EBF1A
(1040000000.764244) can0 FFF#0000000000000000
(1040000000.765228) can0 4CB#8000000000000000
(1040000000.765229) can0 00E#2055960208096FF6
(1040000000.765230) can0 280#1000020000000000
(1040000000.766269) can0 193#00080803E8080000
(1040000000.766271) can0 32D#00000420AC010020
(1040000000.766272) can0 20E#4E2003A4A63FF017
(1040000000.767270) can0 522#DF7FD0007CB0001C
(1040000000.767272) can0 366#809DC8020147CE38
(1040000000.767273) can0 580#000000054B07ED20
(1040000000.767274) can0 434#00A8E0AE6EDC2F60
(1040000000.768289) can0 69E#0440047D1FC01542
(1040000000.768291) can0 125#9000409F403FE960
(1040000000.768292) can0 6E0#080E080B08150810
(1040000000.768293) can0 4E7#0000001303760000
(1040000000.769315) can0 153#00000000000C000A
(1040000000.769316) can0 FFF#0000000000000000
(1040000000.769317) can0 295#0000000000001840
(1040000000.769318) can0 662#4C80000040000000
(1040000000.770306) can0 684#4CD57FD94166D01E
(1040000000.770308) can0 636#249C980129819000
(1040000000.770309) can0 2D7#100060D800000008
(1040000000.770310) can0 2E1#0000000000000004
(1040000000.771313) can0 354#2033000000052F00
(1040000000.771315) can0 5E1#891FC0070A00B080
(1040000000.771316) can0 19C#1C8A200B02002820
(1040000000.771317) can0 0D0#7259046694095100
(1040000000.771322) can0 033#17ACB1752F8587D0
(1040000000.772331) can0 274#58F20EEE107CADBF
(1040000000.772332) can0 0C0#6000000000000000
(1040000000.772333) can0 162#2F5802E4B21258CD
(1040000000.772334) can0 0A7#00512AA5A12D70A0
(1040000000.773350) can0 498#840020009482550B
(1040000000.773352) can0 3E4#00D4000084000000
(1040000000.773353) can0 65C#400853562C800000
(1040000000.773353) can0 577#0000080000000144
(1040000000.774350) can0 230#F9000002D4000C00
(1040000000.774352) can0 585#0040000000020018
(1040000000.775372) can0 00E#2055960208096FEA
(1040000000.776394) can0 6E0#0819080D08170811
(1040000000.776395) can0 107#0000000000000000
(1040000000.776396) can0 FFF#0000000000000000
(1040000000.777403) can0 0BA#069815841000009C
(1040000000.777405) can0 125#9000409F403FCB60
(1040000000.778439) can0 0D0#7A59046091095300
(1040000000.778441) can0 033#17B4A97BFFC587C0
(1040000000.779936) can0 354#2033000000059800
(1040000000.780957) can0 5E1#891FC0070A00B080
(1040000000.780959) can0 28B#0000000000000000
(1040000000.780960) can0 0A7#00512CA5A12D70A0
(1040000000.780961) can0 5B3#0400000000000400
(1040000000.781975) can0 407#39B0623001417D60
(1040000000.784122) can0 FFF#0000000000000000
(1040000000.785122) can0 FFF#0000000000000000
(1040000000.785123) can0 FFF#0000000000000000
(1040000000.785124) can0 0F4#9A0C010204B10240
(1040000000.785125) can0 00E#2055960208096FF6
(1040000000.786137) can0 193#00080803E8080000
(1040000000.786139) can0 20E#4E1FFFA4A5BFF007
(1040000000.787155) can0 3C1#7B551FBA8223E92E
(1040000000.787157) can0 522#DF7FD0007C38001C
(1040000000.787158) can0 366#801DC8020147CE38
(1040000000.787159) can0 580#000000054387ED20
(1040000000.788133) can0 434#00C720AEEF4CBFE0
(1040000000.788135) can0 69E#0440047D1FC01542
(1040000000.788136) can0 125#9000409F403FAD60
(1040000000.788137) can0 6E0#0817080C081B0811
(1040000000.788137) can0 153#00000000000C000A
(1040000000.789182) can0 662#4C80000040000000
(1040000000.789184) can0 19C#00A8200AC2002820
(1040000000.789186) can0 0D0#02590460A0095300
(1040000000.789187) can0 033#17B5297EDC0577C0
(1040000000.790204) can0 274#58F200FC107CADBF
(1040000000.790206) can0 0C0#6000000000000000
(1040000000.790207) can0 498#840020009382550C
(1040000000.790208) can0 2E1#0000000000000004
(1040000000.791225) can0 354#2033000000059800
(1040000000.791226) can0 5E1#891FC0070A00B080
(1040000000.791227) can0 162#2F5802E4B21258CD
(1040000000.791228) can0 0A7#00512BA5A12D70A0
(1040000000.792219) can0 230#F8000002D4000E00
(1040000000.794568) can0 00E#2055960208096FDE
(1040000000.795711) can0 6E0#081B080D08170814
(1040000000.796763) can0 107#0000000000000000
(1040000000.796764) can0 FFF#0000000000000000
(1040000000.797764) can0 125#9000409F403F8F60
(1040000000.798741) can0 295#0000000000001840
(1040000000.798742) can0 0D0#0A5904629F095300
(1040000000.798743) can0 033#17AD217EDC4577C0
(1040000000.799992) can0 354#2033000000059080
(1040000000.800961) can0 5E1#891FC0070A00B480
(1040000000.800962) can0 28B#0000000000000000
(1040000000.800963) can0 0A7#00512BA5A12D70A0
(1040000000.800964) can0 03D#0001BE0000000000
(1040000000.804127) can0 FFF#0000000000000000
(1040000000.805160) can0 00E#2055960208096FFC
(1040000000.806159) can0 193#00080803E8080000
(1040000000.806160) can0 20E#4E1FFFA4A63FEFFF
(1040000000.807182) can0 522#DF7FD0007BC0001C
(1040000000.807185) can0 366#805DC8020147CE38
(1040000000.807192) can0 580#000000053C07ED20
(1040000000.807194) can0 434#00E700AF7FDD3070
(1040000000.808179) can0 4FD#113A0A5A4D0B4A08
(1040000000.808180) can0 69E#0440047D1FC01542
(1040000000.808181) can0 125#9000409F403F7160
(1040000000.808182) can0 6E0#081A081208150812
(1040000000.808183) can0 153#00000000000C000A
(1040000000.809199) can0 662#4C80000040000000
(1040000000.809201) can0 19C#04A4200AC2002820
(1040000000.809202) can0 0D0#125904629E095300
(1040000000.809203) can0 033#17AD197E4C8577C0
(1040000000.810226) can0 274#58F202FA107CADBF
(1040000000.810228) can0 0C0#6000000000000000
(1040000000.810229) can0 498#840020008F8255CD
(1040000000.810230) can0 2E1#0000000000000004
(1040000000.811244) can0 354#2033000000058180
(1040000000.811245) can0 5E1#891FC0070A00B480
(1040000000.811246) can0 162#2F4802E4B21258CD
(1040000000.811247) can0 0A7#00512B25A12D70A0
(1040000000.812255) can0 3C1#7B551FBAC124A92E
(1040000000.812257) can0 55C#101B000041823000
(1040000000.812258) can0 464#000240000090125C
(1040000000.812259) can0 230#F7000002D4001000
(1040000000.814570) can0 00E#2055960208096FF0
(1040000000.815710) can0 6E0#0817080608140812
(1040000000.816742) can0 107#0000000000000000
(1040000000.816744) can0 FFF#0000000000000000
(1040000000.816745) can0 0BA#069815841000009C
(1040000000.816746) can0 51B#281A3209B28180C1
(1040000000.817779) can0 32D#00000420AC010020
(1040000000.817781) can0 125#9000409F403F5360
(1040000000.818763) can0 0D0#1A5904649A095600
(1040000000.818765) can0 033#17B511725CC577D0
(1040000000.818766) can0 577#0000080000000144
(1040000000.819892) can0 354#2033000000058180
(1040000000.820944) can0 5E1#891FC0070A00B480
(1040000000.820945) can0 28B#0000000000000000
(1040000000.820946) can0 0A7#00512C25A12D70A0
(1040000000.820947) can0 1CA#3FF9FF8000000C40
(1040000000.824368) can0 FFF#0000000000000000
(1040000000.825340) can0 00E#2055960208096FF6
(1040000000.826323) can0 193#00080803E8080000
(1040000000.826325) can0 20E#4E2003A4A7BFCFFF
(1040000000.826326) can0 522#DF7FD0007B48001C
(1040000000.827404) can0 366#805DC8020147CE38
(1040000000.827407) can0 580#000000053487ED20
(1040000000.827408) can0 434#0105A0A0005DA0F0
(1040000000.827409) can0 69E#0440047D1FC01542
(1040000000.828405) can0 125#9000409F403F3560
(1040000000.828406) can0 6E0#081D080C08130812
(1040000000.828407) can0 153#00000000000C000A
(1040000000.828408) can0 295#0000000000001840
(1040000000.829386) can0 662#4C80000040000000
(1040000000.829387) can0 19C#08A0200AC2002820
(1040000000.829388) can0 0D0#2259046499095600
(1040000000.829389) can0 033#17B509725D0577D0
(1040000000.830428) can0 274#58F204F8107CADBF
(1040000000.830430) can0 0C0#6000000000000000
(1040000000.830431) can0 2E1#0000000000000004
(1040000000.830432) can0 354#2033000000057A00
(1040000000.831401) can0 5E1#891FC0070A00B480
(1040000000.831403) can0 162#2F4802E4B21258CD
(1040000000.831404) can0 0A7#00512AA5A12D70A0
(1040000000.831405) can0 2A3#1000024526803C0C
(1040000000.831406) can0 498#840020009182550E
(1040000000.832472) can0 006#0800006400000000
(1040000000.832474) can0 230#F6000002D4001200
(1040000000.834619) can0 00E#2055960208096FEA
(1040000000.835703) can0 107#0000000000000000
(1040000000.836740) can0 FFF#0000000000000000
(1040000000.836741) can0 3C1#7B551FBBBFE5292E
(1040000000.836742) can0 6E0#081E080D08150815
(1040000000.837715) can0 125#9000409F403F1760
(1040000000.837722) can0 FFF#0000000000000000
(1040000000.838755) can0 0D0#2A5904669B095300
(1040000000.838757) can0 033#17A5017A3D4577D0
(1040000000.840004) can0 354#2033000000057A00
(1040000000.841011) can0 5E1#891FC0070A00B880
(1040000000.841013) can0 28B#0000000000000000
(1040000000.841014) can0 6FC#000006FF72C06000
(1040000000.841014) can0 0A7#00512B25A12D70A0
(1040000000.842024) can0 239#0000005900002B60
(1040000000.842026) can0 03C#0000040038000000
(1040000000.842028) can0 207#040460482ADED518
(1040000000.842029) can0 4C9#01F915820D02F64B
(1040000000.843051) can0 1D6#020F828030240580
(1040000000.844186) can0 0D7#0000020080000000
(1040000000.845211) can0 FFF#0000000000000000
(1040000000.845213) can0 00E#205596020809700A
(1040000000.846236) can0 193#00080803E8080000
(1040000000.846237) can0 20E#4E2003A4A7BF8FFF
(1040000000.846238) can0 522#DF7FD0007AD0001C
(1040000000.847230) can0 366#809DC8020147CE38
(1040000000.847232) can0 580#000000052D07ED20
(1040000000.847233) can0 434#012620A070EE3180
(1040000000.847234) can0 69E#0440047D1FC01542
(1040000000.848256) can0 2B4#14EA910000005800
(1040000000.848258) can0 125#9000409F403EF960
(1040000000.848259) can0 6E0#0822080E08160814
(1040000000.848260) can0 153#00000000000C000A
(1040000000.849240) can0 662#4C80000040000000
(1040000000.849242) can0 19C#0C9C200AC2002830
(1040000000.849243) can0 0D0#325904669A095300
(1040000000.849244) can0 033#17A4F9809D8577D0
(1040000000.850278) can0 274#58F206F6107CADBF
(1040000000.850280) can0 0C0#6000000000000000
(1040000000.850281) can0 498#840020008F82554F
(1040000000.850283) can0 2E1#0000000000000004
(1040000000.851298) can0 354#2033000000056B00
(1040000000.851300) can0 5E1#891FC0070A00B880
(1040000000.851301) can0 162#2F4802E4B21258CD
(1040000000.851302) can0 0A7#00512A25A12D70A0
(1040000000.851303) can0 497#0000000000000000
(1040000000.852314) can0 230#F5000002D4001400
(1040000000.854542) can0 00E#2055960208096FFC
(1040000000.855558) can0 2E2#18080D4040000118
(1040000000.855562) can0 345#050202C23C774081
(1040000000.855563) can0 430#004C448CC88011A0
(1040000000.855565) can0 130#0001700000000000
(1040000000.856590) can0 107#0000000000000000
(1040000000.856592) can0 FFF#0000000000000000
(1040000000.856593) can0 6E0#0816081208160815
(1040000000.856594) can0 0BA#069815841000009C
(1040000000.857615) can0 26E#01064082891E0A04
(1040000000.857617) can0 4FD#113A0A594F0B4A08
(1040000000.857618) can0 125#9000409F403EDB60
(1040000000.858612) can0 295#0000000000001840
(1040000000.858614) can0 0D0#3A59046098095400
(1040000000.858615) can0 033#17B4F1809DC577D0
(1040000000.859897) can0 66C#0080100018000020
(1040000000.860924) can0 354#2033000000055C00
(1040000000.860926) can0 5E1#891FC0070A00B880
(1040000000.860927) can0 28B#0000000000000000
(1040000000.860928) can0 0A7#00512C25A12D80A0
(1040000000.861954) can0 3C1#7B551FBC3EA5E92E
(1040000000.861956) can0 2D2#0000300000000000
(1040000000.864169) can0 FFF#0000000000000000
(1040000000.865192) can0 00E#2055960208096FFC
(1040000000.866194) can0 193#00080803E8080000
(1040000000.866196) can0 32D#00000420AC010020
(1040000000.867181) can0 20E#4E2003A4AB3FAFFF
(1040000000.867183) can0 522#DF7FD0007A58001C
(1040000000.867184) can0 2C1#01F2EFC7CA9ED32E
(1040000000.867185) can0 366#809DC8020147CE38
(1040000000.867186) can0 580#000000052587ED20
(1040000000.868232) can0 69E#0440047D1FC01542
(1040000000.868240) can0 125#9000409F403EBD60
(1040000000.868241) can0 434#014680A0F16EC210
(1040000000.868242) can0 4E7#0000001303760000
(1040000000.869223) can0 153#00000000000C000A
(1040000000.869225) can0 FFF#0000000000000000
(1040000000.869226) can0 662#4C80000040000000
(1040000000.869227) can0 684#4CD580994166D01E
(1040000000.870252) can0 636#249C99C12981D000
(1040000000.870253) can0 2D7#100060D800000008
(1040000000.870254) can0 19C#1098200AC2002830
(1040000000.870255) can0 2E1#0000000000000004
(1040000000.871257) can0 354#2033000000055C00
(1040000000.871259) can0 5E1#891FC0070A00B880
(1040000000.871260) can0 0D0#4259046097095400
(1040000000.871261) can0 033#17B4E97C8E0577D0
(1040000000.871262) can0 274#58F208F4107CADBF
(1040000000.872315) can0 6E0#0817081008150814
(1040000000.872317) can0 0C0#6000000000000000
(1040000000.872318) can0 162#2F4802E4B21258CD
(1040000000.872319) can0 0A7#00512BA5A12D80A0
(1040000000.873308) can0 498#840020009C8255C0
(1040000000.873310) can0 3E4#00D4000084000000
(1040000000.873311) can0 65C#400853562C800000
(1040000000.873312) can0 577#0000080000000144
(1040000000.874336) can0 FFF#0000000000000000
(1040000000.874338) can0 230#F4000002D4001600
(1040000000.874339) can0 585#0040000000020018
(1040000000.875276) can0 00E#2055960208096FEA
(1040000000.876359) can0 107#0000000000000000
(1040000000.876360) can0 FFF#0000000000000000
(1040000000.876361) can0 6E0#0821081508130814
(1040000000.877342) can0 125#9000409F403E9F60
(1040000000.878333) can0 0D0#4A59046294095600
(1040000000.878334) can0 033#17A4E1737E4577D0
(1040000000.879955) can0 5B3#0400000000000400
(1040000000.880969) can0 354#2033000000055480
(1040000000.880970) can0 5E1#891FC0070A00B880
(1040000000.880971) can0 28B#0000000000000000
(1040000000.880972) can0 0A7#00512CA5A12D80A0
(1040000000.881989) can0 407#39B0623001417D60
(1040000000.881990) can0 075#0F32000FB01EE000
(1040000000.884242) can0 FFF#0000000000000000
(1040000000.885255) can0 FFF#0000000000000000
(1040000000.885256) can0 FFF#0000000000000000
(1040000000.885257) can0 0F4#9A0C010204B10240
(1040000000.885258) can0 00E#2055960208096FF6
(1040000000.886256) can0 193#00080803E8080000
(1040000000.886258) can0 3C1#7B551FBCBDA6692E
(1040000000.887224) can0 20E#4E2007A4A7BFEFF7
(1040000000.887225) can0 522#DF7FD00079E0001C
(1040000000.887226) can0 366#801DC8020147CE38
(1040000000.887227) can0 580#000000051E07ED20
(1040000000.887228) can0 434#016860A181EF4280
(1040000000.888291) can0 69E#0440047D1FC01542
(1040000000.888292) can0 125#9000409F40206160
(1040000000.888293) can0 6E0#081B081108150813
(1040000000.888294) can0 153#00000000000C000A
(1040000000.889311) can0 295#0000000000001840
(1040000000.889312) can0 662#4C80000040000000
(1040000000.889313) can0 19C#1494200AC2002830
(1040000000.889314) can0 0D0#5259046293095600
(1040000000.890341) can0 033#17A4D9737E8577D0
(1040000000.890342) can0 274#58F20AF2107CADBF
(1040000000.890343) can0 0C0#6000000000000000
(1040000000.890344) can0 2E1#0000000000000004
(1040000000.891366) can0 354#2033000000054580
(1040000000.891368) can0 5E1#891FC0070A00B880
(1040000000.891369) can0 162#2F4802E4B21258CD
(1040000000.891370) can0 0A7#00512AA5A12D80A0
(1040000000.891370) can0 498#840020009D825541
(1040000000.892381) can0 03A#00000000001D0800
(1040000000.892382) can0 230#F3000002D4001800
(1040000000.894582) can0 00E#2055960208096FF6
(1040000000.895647) can0 107#0000000000000000
(1040000000.896739) can0 FFF#0000000000000000
(1040000000.896741) can0 6E0#081A081208150815
(1040000000.896742) can0 0BA#069815841000009C
(1040000000.897668) can0 125#9000409F40204360
(1040000000.898685) can0 0D0#5A59046494095400
(1040000000.898687) can0 033#17ACD179AEC577D0
(1040000000.899841) can0 354#2033000000054580
(1040000000.900846) can0 5E1#891FC0070A00BC80
(1040000000.900848) can0 28B#0000000000000000
(1040000000.900849) can0 0A7#00512B25A12D80A0
(1040000000.900849) can0 03D#0001BD8000000000
(1040000000.904327) can0 FFF#0000000000000000
(1040000000.905325) can0 00E#2055960208097016
(1040000000.906310) can0 193#00080803E8080000
(1040000000.906312) can0 20E#4E2003A4A93FEFE7
(1040000000.906325) can0 522#DF7FD0007968001C
(1040000000.907312) can0 366#805DC8020147CE38
(1040000000.907325) can0 580#000000051687ED20
(1040000000.907326) can0 434#0186C0A2126FB300
(1040000000.907327) can0 4FD#11360A5A490ACA08
(1040000000.908332) can0 69E#0440047D1FC01542
(1040000000.908333) can0 125#9000409F40202560
(1040000000.908334) can0 6E0#0819080608120812
(1040000000.908335) can0 153#00000000000C000A
(1040000000.908336) can0 662#4C80000040000000
(1040000000.909316) can0 19C#1890200AC2002830
(1040000000.909318) can0 0D0#6259046493095400
(1040000000.909319) can0 033#17ACC97F6F0577D0
