(1010000000.000000) can0 00E#20529602080975B8
(1010000000.001070) can0 153#00000004000C0004
(1010000000.002090) can0 295#0000000000000040
(1010000000.002091) can0 662#4EE0000040000000
(1010000000.002092) can0 19C#08F62000020028C0
(1010000000.002093) can0 0D0#22770460F8000000
(1010000000.003084) can0 033#0007C0000D0007D0
(1010000000.003085) can0 274#00F224FB507C81DD
(1010000000.003086) can0 0C0#0000000000000000
(1010000000.003087) can0 30A#402D5001D32A3200
(1010000000.004148) can0 193#00080803E8880000
(1010000000.004150) can0 20E#4E2003A0003F6FFF
(1010000000.004151) can0 522#DF7FD1AC4DC8DF9C
(1010000000.004152) can0 366#7FDDC8020147CE78
(1010000000.005223) can0 354#1FFF40000003FA00
(1010000000.005224) can0 5E1#893FE00B0A000080
(1010000000.005225) can0 28B#0000000000000000
(1010000000.005226) can0 580#00000003B4880000
(1010000000.006218) can0 434#0382A0A000000000
(1010000000.006220) can0 6E0#0000000000000000
(1010000000.006221) can0 0A7#2010FA24D12B80A0
(1010000000.006222) can0 2B4#14E9950000005800
(1010000000.007160) can0 1CA#3FF1FF8000000C38
(1010000000.007162) can0 1C4#0000020001000000
(1010000000.007167) can0 2A4#36DC001C040898D0
(1010000000.007168) can0 498#87FFBFFCEE80000E
(1010000000.007169) can0 32D#80000420AC010020
(1010000000.008213) can0 4FD#115F0A4E7F124788
(1010000000.008214) can0 230#9B001AC294001200
(1010000000.008215) can0 69E#0440047F1FC013E2
(1010000000.008216) can0 FFF#0000000000000000
(1010000000.009208) can0 125#9000409F42BE3160
(1010000000.010242) can0 00E#20529602080975B2
(1010000000.011278) can0 0D0#2A770460F7000000
(1010000000.012280) can0 033#0007B8000D4007D0
(1010000000.012281) can0 577#000008000000011A
(1010000000.012282) can0 107#0000000000000000
(1010000000.012283) can0 FFF#0000000000000000
(1010000000.013299) can0 6E0#0000000000000000
(1010000000.014362) can0 2E1#0000000000000004
(1010000000.014363) can0 354#1FFF40000003EB00
(1010000000.015336) can0 5E1#893FE00B0A000080
(1010000000.015352) can0 162#00080003EA11F4CE
(1010000000.015353) can0 0A7#2010FA24D12B80A0
(1010000000.015354) can0 2A3#00000003FE804E00
(1010000000.017812) can0 125#9000409F42BE1360
(1010000000.018833) can0 26E#01064082890E0A04
(1010000000.019833) can0 FFF#0000000000000000
(1010000000.020855) can0 00E#20529602080975B2
(1010000000.020856) can0 3C1#7B551FBB30F4A92E
(1010000000.021871) can0 153#00000004000C0004
(1010000000.021872) can0 662#4EE0000040000000
(1010000000.021873) can0 19C#0CF22000020028C0
(1010000000.021874) can0 0D0#32770460F6000000
(1010000000.022840) can0 033#0007B0000D8007D0
(1010000000.022842) can0 274#00F226F9507C81DD
(1010000000.022843) can0 0C0#0000000000000000
(1010000000.022844) can0 025#00000288403E2201
(1010000000.023955) can0 193#00080803E8880000
(1010000000.023956) can0 20E#4E2003A0003F8FFF
(1010000000.023957) can0 522#DF7FD1AC4D50DEDC
(1010000000.024937) can0 354#1FFF40000003DC00
(1010000000.024954) can0 5E1#893FE00B0A000080
(1010000000.024955) can0 28B#0000000000000000
(1010000000.024956) can0 366#7FDDC8020147CE78
(1010000000.025959) can0 580#00000003AD080000
(1010000000.025974) can0 434#03AAA0A000000000
(1010000000.025976) can0 6E0#0000000000000000
(1010000000.025977) can0 6FC#0000075B12B75820
(1010000000.026919) can0 0A7#2010FA24D12B80A0
(1010000000.026920) can0 239#0000007D00004200
(1010000000.026921) can0 498#87FFBFFCED80000F
(1010000000.026922) can0 230#9A001AC294001400
(1010000000.027937) can0 69E#0440047F200013E2
(1010000000.028957) can0 125#9000409F42BDF560
(1010000000.029976) can0 00E#20529602080975AC
(1010000000.031081) can0 295#0000000000000040
(1010000000.032098) can0 0D0#3A770460F5000000
(1010000000.032099) can0 033#0007A8000DC007D0
(1010000000.032100) can0 107#0000000000000000
(1010000000.032101) can0 FFF#0000000000000000
(1010000000.033106) can0 0BA#05D893841000061E
(1010000000.033107) can0 0D7#0000020080000000
(1010000000.034153) can0 6E0#0000000000000000
(1010000000.034154) can0 2E1#0000000000000004
(1010000000.035153) can0 354#1FFF40000003DC00
(1010000000.035154) can0 5E1#893FE00B0A000080
(1010000000.035154) can0 162#00080003EA11F4CE
(1010000000.035155) can0 0A7#2010FA24D12B80A0
(1010000000.036187) can0 497#0000000000000000
(1010000000.037808) can0 125#9000409F42BDD760
(1010000000.038808) can0 FFF#0000000000000000
(1010000000.039993) can0 00E#20529602080975B8
(1010000000.041040) can0 2E2#18080D4040000118
(1010000000.041041) can0 345#050202C23C774081
(1010000000.041042) can0 430#0030448BE08010A0
(1010000000.041043) can0 130#0001500000000000
(1010000000.042039) can0 153#00000004000C0004
(1010000000.042040) can0 662#4EE0000040000000
(1010000000.042041) can0 19C#10EE2000020028C0
(1010000000.042042) can0 0D0#42770460F4000000
(1010000000.043019) can0 033#0007A0000E0007D0
(1010000000.043020) can0 274#00F228F7507C81DD
(1010000000.043021) can0 0C0#0000000000000000
(1010000000.044031) can0 193#00080803E8880000
(1010000000.044033) can0 20E#4E2003A0003F8FFF
(1010000000.044034) can0 522#DF7FD1AC4CD8DE1C
(1010000000.044035) can0 366#7FDDC8020147CE78
(1010000000.045039) can0 354#1FFF40000003D480
(1010000000.045040) can0 5E1#893FE00B0A000080
(1010000000.045041) can0 28B#0000000000000000
(1010000000.045042) can0 580#00000003A5880000
(1010000000.046117) can0 434#03CAA0A000000000
(1010000000.046118) can0 3C1#7B551FBB6FF5692E
(1010000000.046119) can0 6E0#0000000000000000
(1010000000.046120) can0 0A7#2010FA24C12B80A0
(1010000000.047123) can0 2D2#0000180000000000
(1010000000.047125) can0 498#87FFBFFCFC800000
(1010000000.047141) can0 464#0002400000901A93
(1010000000.047142) can0 230#99001AC294001600
(1010000000.048100) can0 FFF#0000000000000000
(1010000000.048101) can0 FFF#0000000000000000
(1010000000.048102) can0 0F4#9A0C010204B10240
(1010000000.048103) can0 69E#0440047F1FC013E2
(1010000000.048104) can0 125#9000409F42BDB960
(1010000000.050017) can0 00E#20529602080975B8
(1010000000.051142) can0 0D0#4A770460F3000000
(1010000000.052150) can0 033#000798000E4007D0
(1010000000.052151) can0 107#0000000000000000
(1010000000.052166) can0 FFF#0000000000000000
(1010000000.053161) can0 32D#80000420AC010020
(1010000000.054183) can0 6E0#0000000000000000
(1010000000.054184) can0 4FD#115E0A4E7D124788
(1010000000.054201) can0 2E1#0000000000000004
(1010000000.055147) can0 354#1FFF40000003C580
(1010000000.055148) can0 5E1#893FE00B0A000080
(1010000000.055149) can0 162#00080003EA11F4CE
(1010000000.055150) can0 0A7#2010FA24C12B80A0
(1010000000.057787) can0 125#9000409F42BD9B60
(1010000000.058807) can0 66C#0040000018000000
(1010000000.058823) can0 FFF#0000000000000000
(1010000000.060049) can0 00E#20529602080975B2
(1010000000.061113) can0 4E7#0000001403670000
(1010000000.062136) can0 153#00000004000C0004
(1010000000.062137) can0 FFF#0000000000000000
(1010000000.062138) can0 295#0000000000000040
(1010000000.062138) can0 662#4EE0000040000000
(1010000000.063119) can0 684#4CD580194154101E
(1010000000.063120) can0 636#249C0000F0000000
(1010000000.063121) can0 2D7#1000472000000008
(1010000000.063138) can0 19C#14EA2000020028C0
(1010000000.064189) can0 193#00080803E8880000
(1010000000.064190) can0 20E#4E2003A0003F8FFF
(1010000000.064191) can0 522#DF7FD1AC4C60DD5C
(1010000000.064192) can0 0D0#52770460F2000000
(1010000000.065161) can0 354#1FFF40000003C580
(1010000000.065178) can0 585#0040000000020018
(1010000000.065179) can0 5E1#893FE00B0A000080
(1010000000.065180) can0 28B#0000000000000000
(1010000000.066161) can0 033#000790000E8007D0
(1010000000.066177) can0 274#00F22AF5507C81DD
(1010000000.066178) can0 366#7FDDC8020147CE78
(1010000000.066179) can0 580#000000039E080000
(1010000000.067203) can0 434#03EAA0A000000000
(1010000000.067220) can0 6E0#0000000000000000
(1010000000.067221) can0 0C0#0000000000000000
(1010000000.067222) can0 0A7#2010FA24C12B80A0
(1010000000.067223) can0 407#4000DFF014C0BDE0
(1010000000.068202) can0 03C#000004002A000000
(1010000000.068203) can0 498#87FFBFFCFB800001
(1010000000.068223) can0 3E4#00D0000085000000
(1010000000.068224) can0 69E#0440047F20001402
(1010000000.069208) can0 65C#4008A27530000000
(1010000000.069209) can0 125#9000409F42BD7D60
(1010000000.069210) can0 207#0404E0582ADEB518
(1010000000.069211) can0 4C9#01F915820D02F64B
(1010000000.070245) can0 1D6#020B808030240580
(1010000000.070262) can0 577#000008000000011A
(1010000000.070263) can0 230#98001AC294001800
(1010000000.070264) can0 00E#20529602080975B2
(1010000000.071278) can0 3C1#7B551FBC2EB5E92E
(1010000000.071279) can0 2C1#01F38FC7C99E4BB0
(1010000000.071280) can0 0D0#5A770460F1000000
(1010000000.072228) can0 033#000788000EC007D0
(1010000000.072229) can0 107#0000000000000000
(1010000000.072230) can0 FFF#0000000000000000
(1010000000.072231) can0 0BA#05D893841000061E
(1010000000.073248) can0 6E0#0000000000000000
(1010000000.074271) can0 2E1#0000000000000004
(1010000000.075289) can0 354#1FFF40000003BE00
(1010000000.075290) can0 5E1#893FE00B0A000080
(1010000000.075292) can0 162#00080003EA11F4CE
(1010000000.075293) can0 0A7#2010FA24D12B80A0
(1010000000.077804) can0 125#9000409F42BD5F60
(1010000000.078825) can0 FFF#0000000000000000
(1010000000.079825) can0 4CB#8000000000000000
(1010000000.079826) can0 280#18E0027000000000
(1010000000.079827) can0 006#0800006400000000
(1010000000.080845) can0 00E#20529602080975B2
(1010000000.081868) can0 153#00000004000C0004
(1010000000.081869) can0 662#4EE0000040000000
(1010000000.081870) can0 19C#18E62000020028C0
(1010000000.081871) can0 0D0#62770460F0000000
(1010000000.082887) can0 033#000780000F0007D0
(1010000000.082888) can0 274#00F22CF3507C81DD
(1010000000.082889) can0 0C0#0000000000000000
(1010000000.082890) can0 FFF#0000000000000000
(1010000000.083902) can0 193#00080803E8880000
(1010000000.083904) can0 20E#4E2003A0003F8FFF
(1010000000.083905) can0 522#DF7FD1AC4BE8DC5C
(1010000000.084902) can0 366#7FDDC8020147CE78
(1010000000.084903) can0 354#1FFF40000003BE00
(1010000000.084904) can0 5E1#893FE00B0A000080
(1010000000.084905) can0 28B#0000000000000000
(1010000000.085924) can0 580#0000000396880000
(1010000000.085925) can0 434#040AA0A000000000
(1010000000.085926) can0 6E0#0000000000000000
(1010000000.085927) can0 0A7#2010FA24D12B80A0
(1010000000.086944) can0 03D#0000018000000000
(1010000000.086945) can0 498#87FFBFFCFA800002
(1010000000.086946) can0 230#97001AC294001A00
(1010000000.087942) can0 69E#0440047F1FC01402
(1010000000.088963) can0 125#9000409F42BF2160
(1010000000.090025) can0 00E#20529602080975AC
(1010000000.091115) can0 295#0000000000000040
(1010000000.092154) can0 0D0#6A770460EF000000
(1010000000.092155) can0 033#000778000F4007D0
(1010000000.092156) can0 107#0000000000000000
(1010000000.092157) can0 FFF#0000000000000000
(1010000000.093212) can0 5B3#0400000000000400
(1010000000.094219) can0 6E0#0000000000000000
(1010000000.094220) can0 2E1#0000000000000004
(1010000000.095222) can0 354#1FFF40000003AF00
(1010000000.095224) can0 5E1#893FE00B0A000080
(1010000000.095225) can0 162#00080003EA11F4CE
(1010000000.095226) can0 0A7#2010FA24C12B80A0
(1010000000.096242) can0 3C1#7B551FBAAF76A92E
(1010000000.096243) can0 55C#101B000041823000
(1010000000.097805) can0 125#9000409F42BF0360
(1010000000.098885) can0 FFF#0000000000000000
(1010000000.099995) can0 00E#20529602080975AC
(1010000000.101100) can0 153#00000004000C0004
(1010000000.102114) can0 662#4EE0000040000000
(1010000000.102119) can0 19C#1CE22000020028C0
(1010000000.102120) can0 0D0#72770460EE000000
(1010000000.102121) can0 033#000770000F8007D0
(1010000000.103095) can0 274#00F22EF1507C81DD
(1010000000.103096) can0 0C0#0000000000000000
(1010000000.103097) can0 30A#402D5001D32C3200
(1010000000.103098) can0 32D#80000420AC010020
(1010000000.104118) can0 193#00080803E8880000
(1010000000.104119) can0 4FD#11650A4E87134788
(1010000000.104120) can0 20E#4E1FFFA0003F8FFF
(1010000000.104121) can0 522#DF7FD1A8CEF0DB9C
(1010000000.105118) can0 354#1FFF400000041800
(1010000000.105119) can0 5E1#893FE00B0A000080
(1010000000.105120) can0 28B#0000000000000000
(1010000000.105121) can0 366#7FDDC8020147CE78
(1010000000.106137) can0 580#000000038F080000
(1010000000.106138) can0 434#042AA0A000000000
(1010000000.106139) can0 6E0#0000000000000000
(1010000000.106140) can0 0A7#2010FA24C12B80A0
(1010000000.107158) can0 2B4#14E9950000005800
(1010000000.107159) can0 1CA#3FF1FF8000000C38
(1010000000.107160) can0 498#87FFBFFCF9800003
(1010000000.107161) can0 230#96001AC294001C00
(1010000000.108178) can0 69E#0440047F1FC013E2
(1010000000.108179) can0 125#9000409F42BEE560
(1010000000.109975) can0 00E#20529602080975B2
(1010000000.111074) can0 0D0#7A770460ED000000
(1010000000.112095) can0 033#000768000FC007D0
(1010000000.112096) can0 577#0000080000000120
(1010000000.112097) can0 107#0000000000000000
(1010000000.112098) can0 FFF#0000000000000000
(1010000000.113146) can0 0BA#05D896841000061E
(1010000000.114147) can0 6E0#0000000000000000
(1010000000.114148) can0 2E1#0000000000000004
(1010000000.115142) can0 354#1FFF400000041800
(1010000000.115143) can0 5E1#893FE00B0A000080
(1010000000.115144) can0 162#00080003EA11F4CE
(1010000000.115145) can0 0A7#2010FA24D12B80A0
(1010000000.116173) can0 2A3#00000003FE804F80
(1010000000.117195) can0 26E#01064082890E0A04
(1010000000.118211) can0 125#9000409F42BEC760
(1010000000.119196) can0 FFF#0000000000000000
(1010000000.120218) can0 00E#20529602080975B2
(1010000000.121255) can0 3C1#7B551FBB2E77292E
(1010000000.121256) can0 153#00000004000C0004
(1010000000.122237) can0 295#0000000000000040
(1010000000.122238) can0 662#4EE0000040000000
(1010000000.122239) can0 19C#00FE2000020028C0
(1010000000.122240) can0 0D0#02770460FC000000
(1010000000.123330) can0 033#0007E0000C0007D0
(1010000000.123331) can0 274#00F220FF507C81DD
(1010000000.123332) can0 0C0#0000000000000000
(1010000000.123333) can0 193#00080803E8880000
(1010000000.124293) can0 20E#4E2003A0003F8FFF
(1010000000.124295) can0 522#DF7FD1A8CE78DB1C
(1010000000.124296) can0 366#7FDDC8020147CE78
(1010000000.124297) can0 354#1FFF400000041080
(1010000000.125313) can0 5E1#893FE00B0A000080
(1010000000.125314) can0 28B#0000000000000000
(1010000000.125315) can0 580#0000000387880000
(1010000000.125316) can0 434#044AA0A000000000
(1010000000.126287) can0 6E0#0000000000000000
(1010000000.126289) can0 6FC#0000075B32B75820
(1010000000.126290) can0 0A7#2010FA24D12B80A0
(1010000000.126291) can0 239#0000007D00004220
(1010000000.127293) can0 498#87FFBFFCF8800004
(1010000000.127294) can0 230#9C001A8A9C001E00
(1010000000.128299) can0 69E#0440047F1FC013E2
(1010000000.128300) can0 125#9000409F42BEA960
(1010000000.130050) can0 00E#20529602080975BE
(1010000000.131090) can0 0D7#0000020080000000
(1010000000.132111) can0 0D0#0A770460FB000000
(1010000000.132112) can0 033#0007D8000C4007D0
(1010000000.133129) can0 107#0000000000000000
(1010000000.133130) can0 FFF#0000000000000000
(1010000000.134126) can0 6E0#0000000000000000
(1010000000.134127) can0 2E1#0000000000000004
(1010000000.135145) can0 354#1FFF400000040180
(1010000000.135146) can0 5E1#893FE00B0A000080
(1010000000.135146) can0 162#00080003EA11F4CE
(1010000000.135147) can0 0A7#2010FA24D12B80A0
(1010000000.136143) can0 2B4#14E9960000005800
(1010000000.136144) can0 497#0000000000000000
(1010000000.137810) can0 125#9000409F42BE8B60
(1010000000.138829) can0 FFF#0000000000000000
(1010000000.139972) can0 00E#20529602080975C4
(1010000000.140997) can0 2E2#18080D4040000118
(1010000000.140998) can0 345#050202C23C774081
(1010000000.140999) can0 430#0030448BE08010A0
(1010000000.141000) can0 130#0001500000000000
(1010000000.142018) can0 153#00000004000C0004
(1010000000.142019) can0 662#4EE0000040000000
(1010000000.142020) can0 19C#04FA2000020028C0
(1010000000.142021) can0 0D0#12770460FA000000
(1010000000.142998) can0 033#0007D0000C8007D0
(1010000000.142999) can0 274#00F222FD507C81DD
(1010000000.143000) can0 0C0#0000000000000000
(1010000000.144069) can0 193#00080803E8880000
(1010000000.144070) can0 20E#4E2003A0003F8FFF
(1010000000.144071) can0 522#DF7FD1A8D580DA9C
(1010000000.144071) can0 366#7FDDC8020147CE78
(1010000000.145039) can0 354#1FFF400000040180
(1010000000.145040) can0 5E1#893FE00B0A000080
(1010000000.145041) can0 28B#0000000000000000
(1010000000.145042) can0 580#00000003F8080000
(1010000000.146060) can0 434#046800A000000000
(1010000000.146061) can0 3C1#7B551FBB6D77E92E
(1010000000.146062) can0 6E0#0000000000000000
(1010000000.146063) can0 0A7#2010FA24C12B80A0
(1010000000.147060) can0 2D2#0000200000000000
(1010000000.147061) can0 498#87FFBFFCF7800005
(1010000000.147062) can0 464#0002400000901994
(1010000000.147063) can0 230#AB001A8A9C000000
(1010000000.148081) can0 FFF#0000000000000000
(1010000000.148082) can0 FFF#0000000000000000
(1010000000.148083) can0 0F4#9A0C010204B10240
(1010000000.149100) can0 69E#0440047F1FC013E2
(1010000000.149101) can0 125#9000409F42BE6D60
(1010000000.150098) can0 00E#20529602080975E4
(1010000000.151118) can0 295#0000000000000040
(1010000000.152143) can0 0D0#1A770460F9000000
(1010000000.152144) can0 033#0007C8000CC007D0
(1010000000.152145) can0 107#0000000000000000
(1010000000.152146) can0 FFF#0000000000000000
(1010000000.153142) can0 0BA#05E897041000061E
(1010000000.153143) can0 51B#2842A9CA3A918941
(1010000000.153144) can0 32D#80000420AC010020
(1010000000.154160) can0 6E0#0000000000000000
(1010000000.154161) can0 4FD#11750A4E9D164788
(1010000000.154162) can0 2E1#0000000000000004
(1010000000.155162) can0 354#1FFF40000003FA00
(1010000000.155163) can0 5E1#893FE00B0A000080
(1010000000.155164) can0 162#00080003EA11F4CE
(1010000000.155165) can0 0A7#2010FA24C12B80A0
(1010000000.157848) can0 125#9000409F42BE4F60
(1010000000.158868) can0 66C#0040000018000000
(1010000000.158869) can0 FFF#0000000000000000
(1010000000.160009) can0 00E#20529602080975C4
(1010000000.161084) can0 4E7#0000001403670000
(1010000000.162105) can0 153#00000004000C0004
(1010000000.162106) can0 FFF#0000000000000000
(1010000000.162107) can0 662#4EE0000040000000
(1010000000.162108) can0 684#4CD580194154101E
(1010000000.163126) can0 636#249C0000F0000000
(1010000000.163127) can0 2D7#100047E800000008
(1010000000.163128) can0 19C#08F62000020028C0
(1010000000.163129) can0 0D0#22770460F8000000
(1010000000.164126) can0 193#00080803E8880000
(1010000000.164127) can0 20E#4E2003A0003F8FFF
(1010000000.164128) can0 522#DF7FD1A8D508DA1C
(1010000000.164129) can0 033#0007C0000D0007D0
(1010000000.165147) can0 585#0040000000020018
(1010000000.165148) can0 354#1FFF40000003FA00
(1010000000.165149) can0 5E1#893FE00B0A000080
(1010000000.165150) can0 28B#0000000000000000
(1010000000.166147) can0 274#00F224FB507C81DD
(1010000000.166148) can0 366#7FDDC8020147CE78
(1010000000.166149) can0 580#00000003F0880000
(1010000000.166150) can0 0C0#0000000000000000
(1010000000.167188) can0 434#0088E0A000000000
(1010000000.167189) can0 0A7#2010FA24D12B80A0
(1010000000.167190) can0 6E0#0000000000000000
(1010000000.167191) can0 407#4000DFF014C0BDE0
(1010000000.167192) can0 03C#0000040028000000
(1010000000.168189) can0 498#87FFBFFCF6800006
(1010000000.168190) can0 3E4#00D0000085000000
(1010000000.168191) can0 65C#4008A27530000000
(1010000000.168192) can0 207#040460482ADEB518
(1010000000.169211) can0 4C9#01F915820D02F64B
(1010000000.169212) can0 69E#0440047F1FC01402
(1010000000.169213) can0 125#9000409F42BE3160
(1010000000.169214) can0 1D6#020F828030240580
(1010000000.170229) can0 577#0000080000000120
(1010000000.170230) can0 230#AA001A8A9C000200
(1010000000.170231) can0 00E#20529602080975B2
(1010000000.170232) can0 3C1#7B551FBBEC78692E
(1010000000.171249) can0 0D0#2A770460F7000000
(1010000000.172250) can0 033#0007B8000D4007D0
(1010000000.172251) can0 107#0000000000000000
(1010000000.172252) can0 FFF#0000000000000000
(1010000000.173270) can0 6E0#0000000000000000
(1010000000.174291) can0 2E1#0000000000000004
(1010000000.174292) can0 354#1FFF40000003EB00
(1010000000.175312) can0 5E1#893FE00B0A000080
(1010000000.175313) can0 162#00080003EA11F4CE
(1010000000.175314) can0 0A7#2010FA24D12B80A0
(1010000000.175315) can0 2C1#01F36FC7C89E3DC4
(1010000000.177853) can0 125#9000409F42BE1360
(1010000000.178853) can0 FFF#0000000000000000
(1010000000.179874) can0 576#7FF800003FFC1FC0
(1010000000.180894) can0 00E#20529602080975BE
(1010000000.181895) can0 153#00000004000C0004
(1010000000.181896) can0 295#0000000000000040
(1010000000.181896) can0 662#4EE0000040000000
(1010000000.181897) can0 19C#0CF22000020028C0
(1010000000.182916) can0 0D0#32770460F6000000
(1010000000.182917) can0 033#0007B0000D8007D0
(1010000000.182918) can0 274#00F226F9507C81DD
(1010000000.182919) can0 0C0#0000000000000000
(1010000000.183936) can0 FFF#0000000000000000
(1010000000.183937) can0 193#00080803E8880000
(1010000000.183938) can0 20E#4E2003A0003F8FF7
(1010000000.183939) can0 522#DF7FD1A4D890D99C
(1010000000.184957) can0 366#7FDDC8020147CE78
(1010000000.184958) can0 354#1FFF40000003DC00
(1010000000.184959) can0 5E1#893FE00B0A000080
(1010000000.184960) can0 28B#0000000000000000
(1010000000.185957) can0 580#00000003E9080000
(1010000000.185958) can0 434#00A8E0A000000000
(1010000000.185959) can0 6E0#0000000000000000
(1010000000.185960) can0 0A7#2010FA24C12B80A0
(1010000000.185961) can0 03D#0000018000000000
(1010000000.186954) can0 498#87FFBFFCF5800007
(1010000000.186955) can0 230#B1001A4A9C000400
(1010000000.187976) can0 69E#0440047F1FC01402
(1010000000.188997) can0 125#9000409F42BDF560
(1010000000.189995) can0 00E#20529602080975B2
(1010000000.191082) can0 0D0#3A770460F5000000
(1010000000.192100) can0 033#0007A8000DC007D0
(1010000000.192102) can0 107#0000000000000000
(1010000000.192103) can0 FFF#0000000000000000
(1010000000.193100) can0 0BA#05E897C41000061E
(1010000000.193101) can0 5B3#0400000000000400
(1010000000.194121) can0 6E0#0000000000000000
(1010000000.194122) can0 2E1#0000000000000004
(1010000000.195143) can0 354#1FFF40000003DC00
(1010000000.195144) can0 5E1#893FE00B0A000080
(1010000000.195145) can0 162#00080003EA11F4CE
(1010000000.195146) can0 0A7#2010FA24C12B80A0
(1010000000.196162) can0 3C1#7B551FBC2B79292E
(1010000000.197934) can0 125#9000409F42BDD760
(1010000000.198936) can0 FFF#0000000000000000
(1010000000.199962) can0 00E#20529602080975B2
(1010000000.201078) can0 153#00000004000C0004
(1010000000.202099) can0 662#4EE0000040000000
(1010000000.202100) can0 19C#10EE2000020028C0
(1010000000.202101) can0 0D0#42770460F4000000
(1010000000.202102) can0 033#0007A0000E0007D0
(1010000000.203099) can0 274#00F228F7507C81DD
(1010000000.203100) can0 0C0#0000000000000000
(1010000000.203101) can0 32D#80000420AC010020
(1010000000.204095) can0 193#00080803E8880000
(1010000000.204096) can0 4FD#11630A4E8512C788
(1010000000.204096) can0 20E#4E2003A0003F4FF7
(1010000000.204097) can0 522#DF7FD1A15B98D91C
(1010000000.205140) can0 354#1FFF40000003D480
(1010000000.205141) can0 5E1#893FE00B0A000080
(1010000000.205142) can0 28B#0000000000000000
(1010000000.205143) can0 366#7FDDC8020147CE78
(1010000000.206117) can0 580#00000003E1880000
(1010000000.206118) can0 434#00C720A000000000
(1010000000.206119) can0 6E0#0000000000000000
(1010000000.206120) can0 0A7#2010FA24C12B80A0
(1010000000.207143) can0 2B4#14E9960000005800
(1010000000.207144) can0 1CA#3FF1FF8000000C38
(1010000000.207144) can0 230#B7001A129C000600
(1010000000.207145) can0 498#87FFBFFCF4800008
(1010000000.208161) can0 69E#0440047F1FC01422
(1010000000.209161) can0 125#9000409F42BDB960
(1010000000.210182) can0 00E#20529602080975B2
(1010000000.211182) can0 295#0000000000000040
(1010000000.212205) can0 0D0#4A770460F3000000
(1010000000.212206) can0 033#000798000E4007D0
(1010000000.212207) can0 107#0000000000000000
(1010000000.212208) can0 FFF#0000000000000000
(1010000000.213223) can0 577#0000080000000124
(1010000000.213224) can0 6E0#0000000000000000
(1010000000.214242) can0 2E1#0000000000000004
(1010000000.215265) can0 354#1FFF40000003C580
(1010000000.215266) can0 5E1#893FE00B0A000080
(1010000000.215267) can0 162#00080003EA11F4CE
(1010000000.215268) can0 0A7#2010FA24C12B80A0
(1010000000.215269) can0 2A3#00000003FE805400
(1010000000.217911) can0 125#9000409F42BD9B60
(1010000000.218931) can0 26E#01064082890E0A04
(1010000000.218932) can0 FFF#0000000000000000
(1010000000.220030) can0 00E#20529602080975B2
(1010000000.221076) can0 3C1#7B551FBB6BB9A92E
(1010000000.221077) can0 153#00000004000C0004
(1010000000.222075) can0 662#4EE0000040000000
(1010000000.222076) can0 19C#14EA2000020028C0
(1010000000.222077) can0 0D0#52770460F2000000
(1010000000.222078) can0 033#000790000E8007D0
(1010000000.223095) can0 274#00F22AF5507C81DD
(1010000000.223096) can0 0C0#0000000000000000
(1010000000.224118) can0 193#00080803E8880000
(1010000000.224119) can0 20E#4E2003A0003F6FFF
(1010000000.224120) can0 522#DF7FD1A15B20D89C
(1010000000.224121) can0 354#1FFF40000003C580
(1010000000.225118) can0 5E1#893FE00B0A000080
(1010000000.225119) can0 28B#0000000000000000
(1010000000.225120) can0 366#7FDDC8020147CE78
(1010000000.225121) can0 580#00000003DA080000
(1010000000.226117) can0 434#00E700A000000000
(1010000000.226118) can0 6E0#0000000000000000
(1010000000.226119) can0 6FC#0000075C52B75820
(1010000000.226120) can0 0A7#2010FA24D12B80A0
(1010000000.227137) can0 239#0000007D00004220
(1010000000.227138) can0 498#87FFBFFCF3800009
(1010000000.227139) can0 230#B6001A129C000800
(1010000000.228158) can0 69E#0440047F1FC01422
(1010000000.228159) can0 125#9000409F42BD7D60
(1010000000.229970) can0 00E#20529602080975B2
(1010000000.231073) can0 0D7#0000020080000000
(1010000000.232126) can0 0D0#5A770460F1000000
(1010000000.232127) can0 033#000788000EC007D0
(1010000000.232128) can0 107#0000000000000000
(1010000000.232129) can0 FFF#0000000000000000
(1010000000.233115) can0 0BA#05E898441000061E
(1010000000.234136) can0 6E0#0000000000000000
(1010000000.234137) can0 2E1#0000000000000004
(1010000000.235158) can0 354#1FFF40000003BE00
(1010000000.235159) can0 5E1#893FE00B0A000080
(1010000000.235160) can0 162#00080003EA11F4CE
(1010000000.235161) can0 0A7#2010FA24C12B80A0
(1010000000.236114) can0 2B7#0020284000008040
(1010000000.236115) can0 497#0000000000000000
(1010000000.237781) can0 125#9000409F42BD5F60
(1010000000.238802) can0 FFF#0000000000000000
(1010000000.240007) can0 00E#20529602080975B8
(1010000000.241013) can0 2E2#18080D4040000118
(1010000000.241014) can0 345#050202C23C774081
(1010000000.241015) can0 430#0030448BE08010A0
(1010000000.241016) can0 130#0001500000000000
(1010000000.242033) can0 153#00000004000C0004
(1010000000.242034) can0 295#0000000000000040
(1010000000.242035) can0 662#4EE0000040000000
(1010000000.242036) can0 19C#18E62000020028C0
(1010000000.243033) can0 0D0#62770460F0000000
(1010000000.243034) can0 033#000780000F0007D0
(1010000000.243049) can0 274#00F22CF3507C81DD
(1010000000.243050) can0 0C0#0000000000000000
(1010000000.244040) can0 193#00080803E8880000
(1010000000.244041) can0 20E#4E1FFFA0003F6FFF
(1010000000.244042) can0 522#DF7FD1A15AA8D81C
(1010000000.244043) can0 366#7FDDC8020147CE78
(1010000000.245054) can0 354#1FFF40000003BE00
(1010000000.245055) can0 5E1#893FE00B0A000080
(1010000000.245070) can0 28B#0000000000000000
(1010000000.245071) can0 580#00000003D2880000
(1010000000.246089) can0 434#0105A0A000000000
(1010000000.246090) can0 3C1#7B551FBAEB7A692E
(1010000000.246091) can0 6E0#0000000000000000
(1010000000.246092) can0 0A7#2010FA24C12B80A0
(1010000000.247072) can0 2D2#0000280000000000
(1010000000.247073) can0 55C#101B000041823000
(1010000000.247074) can0 498#87FFBFFCF280000A
(1010000000.247075) can0 464#0002400000901895
(1010000000.248056) can0 230#B5001A129C000A00
(1010000000.248057) can0 FFF#0000000000000000
(1010000000.248058) can0 FFF#0000000000000000
(1010000000.248058) can0 0F4#9A0C010204B10240
(1010000000.249128) can0 69E#0440047F1FC01422
(1010000000.249129) can0 125#9000409F42BF2160
(1010000000.250122) can0 00E#20529602080975BE
(1010000000.251134) can0 0D0#6A770460EF000000
(1010000000.252158) can0 033#000778000F4007D0
(1010000000.252159) can0 107#0000000000000000
(1010000000.252160) can0 FFF#0000000000000000
(1010000000.253170) can0 1C4#0000020001400000
(1010000000.253171) can0 2A4#4E1E011C040898D0
(1010000000.253172) can0 FFF#0000000000000000
(1010000000.253173) can0 32D#80000420AC010020
(1010000000.254170) can0 6E0#0000000000000000
(1010000000.254171) can0 4FD#11700A4E95154808
(1010000000.254174) can0 2E1#0000000000000004
(1010000000.255190) can0 354#1FFF40000003AF00
(1010000000.255191) can0 5E1#893FE00B0A000080
(1010000000.255192) can0 162#00080003EA11F4CE
(1010000000.255193) can0 0A7#2010FA24D12B80A0
(1010000000.256210) can0 2AB#A4D0C9D7E2D7CAFF
(1010000000.257252) can0 6D7#4102CF027007223C
(1010000000.258273) can0 125#9000409F42BF0360
(1010000000.258274) can0 12C#7906E0000001FDD0
(1010000000.259279) can0 66C#0040000018000000
(1010000000.259280) can0 FFF#0000000000000000
(1010000000.260278) can0 00E#20529602080975BE
(1010000000.261314) can0 4E7#0000001403670000
(1010000000.262336) can0 153#00000004000C0004
(1010000000.262337) can0 FFF#0000000000000000
(1010000000.262338) can0 662#4EE0000040000000
(1010000000.262338) can0 684#4CD580194154101E
(1010000000.262339) can0 636#249C0000F0000000
(1010000000.263323) can0 2D7#100048B800000008
(1010000000.263324) can0 19C#1CE22000020028C0
(1010000000.263325) can0 0D0#72770460EE000000
(1010000000.263326) can0 193#00080803E8880000
(1010000000.264344) can0 20E#4E2003A0003F4FFF
(1010000000.264345) can0 522#DF7FD1A15A30D79C
(1010000000.264346) can0 033#000770000F8007D0
(1010000000.264347) can0 585#0040000000020018
(1010000000.265341) can0 354#1FFF400000041800
(1010000000.265342) can0 5E1#893FE00B0A000080
(1010000000.265343) can0 28B#0000000000000000
(1010000000.265344) can0 274#00F22EF1507C81DD
(1010000000.266362) can0 366#7FDDC8020147CE78
(1010000000.266364) can0 580#00000003CB080000
(1010000000.266365) can0 0C0#0000000000000000
(1010000000.266366) can0 434#012620A000000000
(1010000000.267362) can0 0A7#2010FA24D12B80A0
(1010000000.267363) can0 6E0#0000000000000000
(1010000000.267364) can0 407#4000DFF014C0BDE0
(1010000000.267365) can0 03C#0000040029000000
(1010000000.268383) can0 498#87FFBFFCF180000B
(1010000000.268384) can0 3E4#00D0000085000000
(1010000000.268385) can0 65C#4008A27530000000
(1010000000.268386) can0 207#040460482ADEB518
(1010000000.268387) can0 4C9#01F915820D02F64B
(1010000000.269383) can0 69E#0440047F1FC01442
(1010000000.269384) can0 125#9000409F42BEE560
(1010000000.269385) can0 1D6#060B808030240580
(1010000000.269386) can0 577#0000080000000124
(1010000000.270403) can0 230#B4001A129C000C00
(1010000000.270404) can0 00E#20529602080975BE
(1010000000.270405) can0 3C1#7B551FBB2ABAE92E
(1010000000.271402) can0 295#0000000000000040
(1010000000.271403) can0 0D0#7A770460ED000000
(1010000000.272424) can0 033#000768000FC007D0
(1010000000.272425) can0 107#0000000000000000
(1010000000.272426) can0 FFF#0000000000000000
(1010000000.272427) can0 0BA#05E898441000061E
(1010000000.273438) can0 6E0#0000000000000000
(1010000000.274444) can0 2E1#0000000000000004
(1010000000.274445) can0 354#1FFF400000041800
(1010000000.275480) can0 5E1#893FE00B0A000080
(1010000000.275481) can0 162#00080003EA11F4CE
(1010000000.275482) can0 0A7#2010FA24D12B80A0
(1010000000.277851) can0 125#9000409F42BEC760
(1010000000.278853) can0 FFF#0000000000000000
(1010000000.279873) can0 4CB#8000000000000000
(1010000000.279874) can0 280#18E0027000000000
(1010000000.280896) can0 00E#20529602080975B8
(1010000000.280897) can0 2C1#01F34FC7C89E2BD8
(1010000000.281880) can0 153#00000004000C0004
(1010000000.281881) can0 662#4EE0000040000000
(1010000000.281882) can0 19C#00FE2000020028C0
(1010000000.281883) can0 0D0#02770460FC000000
(1010000000.282917) can0 033#0007E0000C0007D0
(1010000000.282921) can0 274#00F220FF507C81DD
(1010000000.282922) can0 0C0#0000000000000000
(1010000000.282923) can0 FFF#0000000000000000
(1010000000.283922) can0 193#00080803E8880000
(1010000000.283923) can0 20E#4E2003A0003F6FF7
(1010000000.283924) can0 522#DF7FD19D5DB8D6DC
(1010000000.284922) can0 366#7FDDC8020147CE78
(1010000000.284923) can0 354#1FFF400000041080
(1010000000.284924) can0 5E1#893FE00B0A000080
(1010000000.284925) can0 28B#0000000000000000
(1010000000.285943) can0 580#00000003C3880000
(1010000000.285944) can0 434#014680A000000000
(1010000000.285945) can0 6E0#0000000000000000
(1010000000.285946) can0 0A7#2010FA24D12B80A0
(1010000000.286965) can0 03D#0000018000000000
(1010000000.286966) can0 498#87FFBFFCF080000C
(1010000000.286967) can0 230#B3001A129C000E00
(1010000000.287961) can0 69E#0440047F1FC01442
(1010000000.288982) can0 125#9000409F42BEA960
(1010000000.289983) can0 00E#20529602080975B8
(1010000000.291107) can0 0D0#0A770460FB000000
(1010000000.292114) can0 033#0007D8000C4007D0
(1010000000.292115) can0 107#0000000000000000
(1010000000.292116) can0 FFF#0000000000000000
(1010000000.293128) can0 5B3#0400000000000400
(1010000000.294128) can0 6E0#0000000000000000
(1010000000.294129) can0 2E1#0000000000000004
(1010000000.295150) can0 354#1FFF400000040180
(1010000000.295151) can0 5E1#893FE00B0A000080
(1010000000.295152) can0 162#00080003EA11F4CE
(1010000000.295153) can0 0A7#2010FA24D12B80A0
(1010000000.296170) can0 3C1#7B551FBAEA3BA92E
(1010000000.296171) can0 671#E787FBD5DBDDBFFA
(1010000000.297919) can0 125#9000409F42BE8B60
(1010000000.298940) can0 FFF#0000000000000000
(1010000000.300002) can0 00E#20529602080975BE
(1010000000.301086) can0 153#00000004000C0004
(1010000000.302086) can0 295#0000000000000040
(1010000000.302087) can0 662#4EE0000040000000
(1010000000.302088) can0 19C#04FA2000020028C0
(1010000000.302088) can0 0D0#12770460FA000000
(1010000000.303107) can0 033#0007D0000C8007D0
(1010000000.303108) can0 274#00F222FD507C81DD
(1010000000.303109) can0 0C0#0000000000000000
(1010000000.303110) can0 32D#80000420AC010020
(1010000000.304111) can0 193#00080803E8880000
(1010000000.304112) can0 20E#4E2003A0003F8FF7
(1010000000.304113) can0 522#DF7FD19D5D40D65C
(1010000000.304114) can0 366#7FDDC8020147CE78
(1010000000.305127) can0 354#1FFF400000040180
(1010000000.305129) can0 5E1#893FE00B0A000080
(1010000000.305130) can0 28B#0000000000000000
(1010000000.305131) can0 580#00000003BC080000
(1010000000.306127) can0 434#016860A000000000
(1010000000.306128) can0 6E0#0000000000000000
(1010000000.306129) can0 0A7#2010FA24C12B80A0
(1010000000.306130) can0 2B4#14E9960000005800
(1010000000.307150) can0 1CA#3FF1FF8000000C38
(1010000000.307151) can0 498#87FFBFFCEF80000D
(1010000000.307152) can0 4FD#11630A4E85134808
(1010000000.307153) can0 230#BA0019D29C001000
(1010000000.307153) can0 5FD#BDDDFDF17EFFEDDA
(1010000000.308171) can0 69E#0440047F1FC01442
(1010000000.308172) can0 125#9000409F42BE6D60
(1010000000.309981) can0 00E#20529602080975B2
(1010000000.311105) can0 0D0#1A770460F9000000
(1010000000.312126) can0 033#0007C8000CC007D0
(1010000000.312128) can0 577#0000080000000126
(1010000000.312129) can0 107#0000000000000000
(1010000000.312129) can0 FFF#0000000000000000
(1010000000.313125) can0 0BA#05F89B841000061E
(1010000000.313126) can0 0F1#3E101CC00359CC00
(1010000000.314146) can0 6E0#0000000000000000
(1010000000.314151) can0 2E1#0000000000000004
(1010000000.315147) can0 354#1FFF40000003FA00
(1010000000.315148) can0 5E1#893FE00B0A000080
(1010000000.315149) can0 162#00080003EA11F4CE
(1010000000.315150) can0 0A7#2010FA24C12B80A0
(1010000000.316170) can0 2A3#00000003FE805A00
(1010000000.317853) can0 26E#01064082890E0A04
(1010000000.318874) can0 125#9000409F42BE4F60
(1010000000.318876) can0 FFF#0000000000000000
(1010000000.319895) can0 419#0A9B464D045FC2CF
(1010000000.320895) can0 00E#20529602080975B2
(1010000000.320896) can0 3C1#7B551FBBE8BC292E
(1010000000.321917) can0 153#00000004000C0004
(1010000000.321918) can0 662#4EE0000040000000
(1010000000.321919) can0 19C#08F62000020028C0
(1010000000.321920) can0 0D0#22770460F8000000
(1010000000.322916) can0 033#0007C0000D0007D0
(1010000000.322917) can0 274#00F224FB507C81DD
(1010000000.322918) can0 0C0#0000000000000000
(1010000000.323937) can0 193#00080803E8880000
(1010000000.323939) can0 20E#4E2003A0003F6FFF
(1010000000.323940) can0 522#DF7FD19D5CC8D5DC
(1010000000.324961) can0 366#7FDDC8020147CE78
(1010000000.324962) can0 354#1FFF40000003FA00
(1010000000.324963) can0 5E1#893FE00B0A000080
(1010000000.324963) can0 28B#0000000000000000
(1010000000.325958) can0 580#00000003B4880000
(1010000000.325959) can0 434#0186C0A000000000
(1010000000.325960) can0 6E0#0000000000000000
(1010000000.325961) can0 6FC#0000075BF2B75820
(1010000000.326978) can0 0A7#2010FA24D12B80A0
(1010000000.326979) can0 239#0000007D00004220
(1010000000.326980) can0 498#87FFBFFCEE80000E
(1010000000.326981) can0 230#B90019D29C001200
(1010000000.327987) can0 69E#0440047F1FC01442
(1010000000.328998) can0 125#9000409F42BE3160
(1010000000.329997) can0 00E#20529602080975BE
(1010000000.331081) can0 295#0000000000000040
(1010000000.332100) can0 0D0#2A770460F7000000
(1010000000.332102) can0 033#0007B8000D4007D0
(1010000000.332103) can0 107#0000000000000000
(1010000000.332104) can0 FFF#0000000000000000
(1010000000.333122) can0 0D7#0000020080000000
(1010000000.334122) can0 6E0#0000000000000000
(1010000000.334124) can0 2E1#0000000000000004
(1010000000.335144) can0 354#1FFF40000003EB00
(1010000000.335145) can0 5E1#893FE00B0A000080
(1010000000.335146) can0 162#00080003EA11F4CE
(1010000000.335147) can0 0A7#2010FA24D12B80A0
(1010000000.336145) can0 497#0000000000000000
(1010000000.337745) can0 125#9000409F42BE1360
(1010000000.338767) can0 FFF#0000000000000000
(1010000000.340001) can0 00E#20529602080975A6
(1010000000.341018) can0 2E2#18080D4040000118
(1010000000.341020) can0 345#050202C23C774081
(1010000000.341021) can0 430#0030448BE08010A0
(1010000000.341021) can0 130#0001500000000000
(1010000000.342019) can0 153#00000004000C0004
(1010000000.342020) can0 662#4EE0000040000000
(1010000000.342021) can0 19C#0CF22000020028C0
(1010000000.342021) can0 0D0#32770460F6000000
(1010000000.343039) can0 033#0007B0000D8007D0
(1010000000.343040) can0 274#00F226F9507C81DD
(1010000000.343041) can0 0C0#0000000000000000
(1010000000.344060) can0 193#00080803E8880000
(1010000000.344061) can0 20E#4E2003A0003F8FF7
(1010000000.344062) can0 522#DF7FD19D5C50D51C
(1010000000.344063) can0 366#7FDDC8020147CE78
(1010000000.345060) can0 354#1FFF40000003DC00
(1010000000.345062) can0 5E1#893FE00B0A000080
(1010000000.345063) can0 28B#0000000000000000
(1010000000.345064) can0 580#00000003AD080000
(1010000000.346102) can0 434#01A600A000000000
(1010000000.346107) can0 3C1#7B551FBB687CE92E
(1010000000.346108) can0 6E0#0000000000000000
(1010000000.346109) can0 0A7#2010FA24C12B80A0
(1010000000.346110) can0 2D2#0000300000000000
(1010000000.347100) can0 498#87FFBFFCED80000F
(1010000000.347101) can0 464#0002400000901796
(1010000000.347102) can0 230#B80019D29C001400
(1010000000.348088) can0 69E#0440047F1FC01442
(1010000000.348089) can0 FFF#0000000000000000
(1010000000.349142) can0 FFF#0000000000000000
(1010000000.349143) can0 0F4#9A0C010204B10240
(1010000000.349144) can0 125#9000409F42BDF560
(1010000000.350141) can0 00E#20529602080975B8
(1010000000.351162) can0 0D0#3A770460F5000000
(1010000000.352162) can0 033#0007A8000DC007D0
(1010000000.352163) can0 107#0000000000000000
(1010000000.352164) can0 FFF#0000000000000000
(1010000000.353184) can0 0BA#05F89CC41000061E
(1010000000.353185) can0 297#1100002000025110
(1010000000.353186) can0 51B#28B181B189C7F8C1
(1010000000.353187) can0 32D#80000420AC010020
(1010000000.354227) can0 6E0#0000000000000000
(1010000000.354228) can0 4FD#115A0A4E79114808
(1010000000.354229) can0 2E1#0000000000000004
(1010000000.355246) can0 354#1FFF40000003DC00
(1010000000.355247) can0 5E1#893FE00B0A000080
(1010000000.355248) can0 162#00080003EA11F4CE
(1010000000.355249) can0 0A7#2010FA24C12B80A0
(1010000000.355250) can0 FFF#0000000000000000
(1010000000.357743) can0 125#9000409F42BDD760
(1010000000.358744) can0 66C#0040000018000000
(1010000000.359765) can0 FFF#0000000000000000
(1010000000.360765) can0 00E#20529602080975B8
(1010000000.361807) can0 4E7#0000001403670000
(1010000000.361808) can0 153#00000004000C0004
(1010000000.361809) can0 FFF#0000000000000000
(1010000000.362808) can0 295#0000000000000040
(1010000000.362809) can0 662#4EE0000040000000
(1010000000.362810) can0 684#4CD580194154101E
(1010000000.362811) can0 636#249C0000F0000000
(1010000000.362812) can0 2D7#1000497800000008
(1010000000.363807) can0 19C#10EE2000020028C0
(1010000000.363808) can0 193#00080803E8880000
(1010000000.363809) can0 20E#4E2003A0003F8FF7
(1010000000.363810) can0 522#DF7FD19D5BD8D49C
(1010000000.364828) can0 0D0#42770460F4000000
(1010000000.364829) can0 585#0040000000020018
(1010000000.364830) can0 354#1FFF40000003D480
(1010000000.364831) can0 5E1#893FE00B0A000080
(1010000000.365848) can0 28B#0000000000000000
(1010000000.365849) can0 033#0007A0000E0007D0
(1010000000.365850) can0 274#00F228F7507C81DD
(1010000000.365851) can0 366#7FDDC8020147CE78
(1010000000.366869) can0 580#00000003A5880000
(1010000000.366870) can0 434#01C640A000000000
(1010000000.366871) can0 6E0#0000000000000000
(1010000000.366872) can0 0C0#0000000000000000
(1010000000.367890) can0 0A7#2010FA24C12B80A0
(1010000000.367891) can0 407#4000DFF014C0BDE0
(1010000000.367892) can0 03C#0000040028000000
(1010000000.367893) can0 498#87FFBFFCFC800000
(1010000000.367894) can0 3E4#00D0000085000000
(1010000000.368911) can0 69E#0440047F1FC01442
(1010000000.368912) can0 65C#4008A27530000000
(1010000000.368913) can0 125#9000409F42BDB960
(1010000000.368914) can0 207#040460482ADEB518
(1010000000.369910) can0 4C9#01F915820D02F64B
(1010000000.369911) can0 1D6#020F828030240580
(1010000000.369912) can0 577#0000080000000126
(1010000000.369913) can0 075#0F32000FAE1EE000
(1010000000.370931) can0 00E#20529602080975BE
(1010000000.370932) can0 3C1#7B551FBAE87D692E
(1010000000.370933) can0 230#B70019D29C001600
(1010000000.371951) can0 0D0#4A770460F3000000
(1010000000.371953) can0 033#000798000E4007D0
(1010000000.371954) can0 107#0000000000000000
(1010000000.372950) can0 FFF#0000000000000000
(1010000000.373970) can0 6E0#0000000000000000
(1010000000.375014) can0 2E1#0000000000000004
(1010000000.375015) can0 354#1FFF40000003C580
(1010000000.375016) can0 5E1#893FE00B0A000080
(1010000000.375017) can0 162#00080003EA11F4CE
(1010000000.375018) can0 0A7#2010FA24D12B80A0
(1010000000.376029) can0 03A#00000000001D0800
(1010000000.377740) can0 125#9000409F42BD9B60
(1010000000.378761) can0 FFF#0000000000000000
(1010000000.379781) can0 0F8#7EDFF4FD49FBA7B8
(1010000000.380802) can0 00E#20529602080975B2
(1010000000.381804) can0 153#00000004000C0004
(1010000000.381805) can0 662#4EE0000040000000
(1010000000.381806) can0 19C#14EA2000020028C0
(1010000000.381807) can0 0D0#52770460F2000000
(1010000000.382826) can0 033#000790000E8007D0
(1010000000.382827) can0 274#00F22AF5507C81DD
(1010000000.382828) can0 0C0#0000000000000000
(1010000000.382828) can0 FFF#0000000000000000
(1010000000.383845) can0 193#00080803E8880000
(1010000000.383846) can0 20E#4E2003A0003F8FF7
(1010000000.383847) can0 522#DF7FD19D5B60D3DC
(1010000000.384866) can0 354#1FFF40000003C580
(1010000000.384867) can0 5E1#893FE00B0A000080
(1010000000.384868) can0 28B#0000000000000000
(1010000000.384869) can0 366#7FDDC8020147CE78
(1010000000.385866) can0 580#000000039E080000
(1010000000.385867) can0 434#01E5A0A000000000
(1010000000.385868) can0 2C1#01F3AFC7CA1E09EE
(1010000000.385869) can0 6E0#0000000000000000
(1010000000.386887) can0 0A7#2010FA24D12B80A0
(1010000000.386888) can0 03D#0000018000000000
(1010000000.386889) can0 498#87FFBFFCFB800001
(1010000000.386890) can0 230#B60019D29C001800
(1010000000.387906) can0 69E#0440047F1FC01442
(1010000000.388907) can0 125#9000409F42BD7D60
(1010000000.389940) can0 00E#20529602080975BE
(1010000000.391073) can0 295#0000000000000040
(1010000000.392036) can0 0D0#5A770460F1000000
(1010000000.392038) can0 033#000788000EC007D0
(1010000000.392039) can0 107#0000000000000000
(1010000000.392040) can0 FFF#0000000000000000
(1010000000.393093) can0 0BA#06089F841000061E
(1010000000.393094) can0 5B3#0400000000000400
(1010000000.394093) can0 6E0#0000000000000000
(1010000000.394094) can0 2E1#0000000000000004
(1010000000.395114) can0 354#1FFF40000003BE00
(1010000000.395116) can0 5E1#893FE00B0A000080
(1010000000.395117) can0 162#00080003EA11F4CE
(1010000000.395118) can0 0A7#2010FA24C12B80A0
(1010000000.396107) can0 3C1#7B551FBBA6FE292E
(1010000000.396108) can0 55C#101B000041823000
(1010000000.397716) can0 125#9000409F42BD5F60
(1010000000.398759) can0 FFF#0000000000000000
(1010000000.399996) can0 00E#20529602080975B8
(1010000000.401050) can0 153#00000004000C0004
(1010000000.402043) can0 662#4EE0000040000000
(1010000000.402045) can0 19C#18E62000020028C0
(1010000000.402046) can0 0D0#62770460F0000000
(1010000000.402046) can0 033#000780000F0007D0
(1010000000.403071) can0 274#00F22CF3507C81DD
(1010000000.403072) can0 0C0#0000000000000000
(1010000000.403073) can0 32D#80000420AC010020
(1010000000.404095) can0 193#00080803E8880000
(1010000000.404096) can0 4FD#116C0A4E9114C808
(1010000000.404097) can0 20E#4E2003A0003F8FFF
(1010000000.404098) can0 522#DF7FD19D5AE8D35C
(1010000000.405093) can0 354#1FFF40000003BE00
(1010000000.405094) can0 5E1#893FE00B0A000080
(1010000000.405098) can0 28B#0000000000000000
(1010000000.405099) can0 366#7FDDC8020147CE78
(1010000000.406113) can0 580#0000000396880000
(1010000000.406114) can0 434#020820A000000000
(1010000000.406115) can0 6E0#0000000000000000
(1010000000.406116) can0 0A7#2010FA24C12B80A0
(1010000000.407113) can0 2B4#14E9960000005800
(1010000000.407114) can0 1CA#3FF1FF8000000C38
(1010000000.407115) can0 498#87FFBFFCFA800002
(1010000000.407116) can0 230#B50019D2A4001A00
(1010000000.408137) can0 69E#0440047F1FC01442
(1010000000.408138) can0 125#9000409F42BF2160
(1010000000.409966) can0 00E#20529602080975B8
(1010000000.411112) can0 0D0#6A770460EF000000
(1010000000.412120) can0 033#000778000F4007D0
(1010000000.412121) can0 577#000008000000012C
(1010000000.412122) can0 107#0000000000000000
(1010000000.412123) can0 FFF#0000000000000000
(1010000000.413195) can0 6E0#0000000000000000
(1010000000.414215) can0 2E1#0000000000000004
(1010000000.415258) can0 354#1FFF40000003AF00
(1010000000.415259) can0 5E1#893FE00B0A000080
(1010000000.415260) can0 162#00080003EA11F4CE
(1010000000.415261) can0 0A7#2010FA24D12B80A0
(1010000000.415262) can0 2A3#00000003FE805A80
(1010000000.417735) can0 125#9000409F42BF0360
(1010000000.418756) can0 26E#01064082890E0A04
(1010000000.418757) can0 FFF#0000000000000000
(1010000000.420032) can0 00E#20529602080975C4
(1010000000.421069) can0 3C1#7B551FBB66BEA92E
(1010000000.421071) can0 153#00000004000C0004
(1010000000.422090) can0 295#0000000000000040
(1010000000.422091) can0 662#4EE0000040000000
(1010000000.422092) can0 19C#1CE22000020028C0
(1010000000.422093) can0 0D0#72770460EE000000
(1010000000.423090) can0 033#000770000F8007D0
(1010000000.423091) can0 274#00F22EF1507C81DD
(1010000000.423092) can0 0C0#0000000000000000
(1010000000.424119) can0 193#00080803E8880000
(1010000000.424120) can0 20E#4E2003A0003F8FFF
(1010000000.424121) can0 522#DF7FD19D5A70D29C
(1010000000.424122) can0 366#7FDDC8020147CE78
(1010000000.425132) can0 354#1FFF400000041800
(1010000000.425133) can0 5E1#893FE00B0A000080
(1010000000.425134) can0 28B#0000000000000000
(1010000000.425135) can0 580#000000038F080000
(1010000000.425136) can0 434#022820A000000000
(1010000000.426132) can0 6E0#0000000000000000
(1010000000.426133) can0 6FC#0000075B12B75820
(1010000000.426134) can0 0A7#2010FA24C12B80A0
(1010000000.426135) can0 239#0000007D00004240
(1010000000.427151) can0 498#87FFBFFCF9800003
(1010000000.427152) can0 230#B40019D2A4001C00
(1010000000.428173) can0 69E#0440047F1FC01442
(1010000000.428174) can0 125#9000409F42BEE560
(1010000000.429985) can0 00E#20529602080975C4
(1010000000.431098) can0 0D7#0000020080000000
(1010000000.432104) can0 0D0#7A770460ED000000
(1010000000.432106) can0 033#000768000FC007D0
(1010000000.432107) can0 107#0000000000000000
(1010000000.432108) can0 FFF#0000000000000000
(1010000000.433139) can0 0BA#0608A0041000061E
(1010000000.434164) can0 6E0#0000000000000000
(1010000000.434166) can0 2E1#0000000000000004
(1010000000.435158) can0 354#1FFF400000041800
(1010000000.435160) can0 5E1#893FE00B0A000080
(1010000000.435161) can0 162#00080003EA11F4CE
(1010000000.435162) can0 0A7#2010FA24D12B80A0
(1010000000.436184) can0 497#0000000000000000
(1010000000.437790) can0 125#9000409F42BEC760
(1010000000.438986) can0 FFF#0000000000000000
(1010000000.440011) can0 00E#20529602080975C4
(1010000000.441036) can0 2E2#18080D4040000118
(1010000000.441043) can0 345#050202C23C774081
(1010000000.441044) can0 430#0030448BE08010A0
(1010000000.441045) can0 130#0001500000000000
(1010000000.442008) can0 153#00000004000C0004
(1010000000.442009) can0 662#4EE0000040000000
(1010000000.442010) can0 19C#00FE2000020028C0
(1010000000.442011) can0 0D0#02770460FC000000
(1010000000.443055) can0 033#0007E0000C0007D0
(1010000000.443057) can0 274#00F220FF507C81DD
(1010000000.443058) can0 0C0#0000000000000000
(1010000000.444042) can0 193#00080803E8880000
(1010000000.444044) can0 20E#4E2003A0003F8FFF
(1010000000.444045) can0 522#DF7FD19D59F8D25C
(1010000000.444046) can0 366#7FDDC8020147CE78
(1010000000.445099) can0 354#1FFF400000041080
(1010000000.445101) can0 5E1#893FE00B0A000080
(1010000000.445103) can0 28B#0000000000000000
(1010000000.445104) can0 580#0000000387880000
(1010000000.446095) can0 434#024000A000000000
(1010000000.446097) can0 3C1#7B551FBB65FF692E
(1010000000.446098) can0 6E0#0000000000000000
(1010000000.446099) can0 0A7#2010FA24C12B80A0
(1010000000.447114) can0 2D2#0000380000000000
(1010000000.447116) can0 498#87FFBFFCF8800004
(1010000000.447117) can0 464#0002400000901697
(1010000000.447118) can0 230#B30019D2A4001E00
(1010000000.448102) can0 69E#0440047F1FC01462
(1010000000.448103) can0 125#9000409F42BEA960
(1010000000.449138) can0 FFF#0000000000000000
(1010000000.449139) can0 FFF#0000000000000000
(1010000000.449140) can0 0F4#9A0C010204B10240
(1010000000.450157) can0 00E#20529602080975BE
(1010000000.451153) can0 295#0000000000000040
(1010000000.452143) can0 0D0#0A770460FB000000
(1010000000.452145) can0 033#0007D8000C4007D0
(1010000000.452146) can0 107#0000000000000000
(1010000000.452147) can0 FFF#0000000000000000
(1010000000.453200) can0 32D#80000420AC010020
(1010000000.454201) can0 6E0#0000000000000000
(1010000000.454203) can0 4FD#11660A4E8913C888
(1010000000.454204) can0 2E1#0000000000000004
(1010000000.455215) can0 354#1FFF400000040180
(1010000000.455216) can0 5E1#893FE00B0A000080
(1010000000.455217) can0 162#00080003EA11F4CE
(1010000000.455218) can0 0A7#2010FA24C12B80A0
(1010000000.457760) can0 125#9000409F42BE8B60
(1010000000.458783) can0 66C#0040000020000000
(1010000000.459804) can0 FFF#0000000000000000
(1010000000.460822) can0 00E#20529602080975B8
(1010000000.461825) can0 4E7#0000001403670000
(1010000000.461827) can0 153#00000004000C0004
(1010000000.461828) can0 FFF#0000000000000000
(1010000000.461829) can0 662#4EE0000040000000
(1010000000.462843) can0 684#4CD580194154101E
(1010000000.462844) can0 636#249C0000F0000000
(1010000000.462845) can0 2D7#10004A4000000008
(1010000000.462846) can0 19C#04FA2000020028C0
(1010000000.463847) can0 0D0#12770460FA000000
(1010000000.463849) can0 193#00080803E8880000
(1010000000.463850) can0 20E#4E2003A0003F8FFF
(1010000000.463851) can0 522#DF7FD19D6100D1DC
(1010000000.464858) can0 033#0007D0000C8007D0
(1010000000.464859) can0 585#0040000000020018
(1010000000.464860) can0 354#1FFF400000040180
(1010000000.464861) can0 5E1#893FE00B0A000080
(1010000000.465890) can0 28B#0000000000000000
(1010000000.465892) can0 274#00F222FD507C81DD
(1010000000.465893) can0 366#7FDDC8020147CE78
(1010000000.465893) can0 580#00000003F8080000
(1010000000.466902) can0 0C0#0000000000000000
(1010000000.466903) can0 434#026000A000000000
(1010000000.466904) can0 0A7#2010FA24D12B80A0
(1010000000.466905) can0 6E0#0000000000000000
(1010000000.467929) can0 407#4000DFF014C0BDE0
(1010000000.467930) can0 03C#0000040029000000
(1010000000.467931) can0 498#87FFBFFCF7800005
(1010000000.467932) can0 3E4#00D0000085000000
(1010000000.467934) can0 65C#4008B27530000000
(1010000000.468948) can0 207#040460482ADEB518
(1010000000.468949) can0 4C9#01F915820D02F64B
(1010000000.468950) can0 69E#0440047F1FC01462
(1010000000.468951) can0 125#9000409F42BE6D60
(1010000000.469948) can0 1D6#020B808030240580
(1010000000.469950) can0 577#000008000000012C
(1010000000.469951) can0 230#C20019D2A4000000
(1010000000.470967) can0 00E#20529602080975BE
(1010000000.470969) can0 3C1#7B551FBB25BFE92E
(1010000000.472001) can0 0D0#1A770460F9000000
(1010000000.472003) can0 033#0007C8000CC007D0
(1010000000.472004) can0 107#0000000000000000
(1010000000.472938) can0 FFF#0000000000000000
(1010000000.472940) can0 0BA#0608A0041000061E
(1010000000.474012) can0 6E0#0000000000000000
(1010000000.475010) can0 2E1#0000000000000004
(1010000000.475012) can0 354#1FFF40000003FA00
(1010000000.475013) can0 5E1#893FE00B0A000080
(1010000000.475014) can0 162#00080003EA11F4CE
(1010000000.476012) can0 0A7#2010FA24D12B80A0
(1010000000.476014) can0 671#E7BFFBD5DBDDBFFB
(1010000000.477766) can0 125#9000409F42BE4F60
(1010000000.478782) can0 FFF#0000000000000000
(1010000000.479801) can0 4CB#8000000000000000
(1010000000.479802) can0 280#18E0027000000000
(1010000000.480820) can0 00E#20529602080975C4
(1010000000.480822) can0 FFF#0000000000000000
(1010000000.481844) can0 153#00000004000C0004
(1010000000.481845) can0 295#0000000000000040
(1010000000.481846) can0 662#4EE0000040000000
(1010000000.481847) can0 19C#08F62000020028C0
(1010000000.482839) can0 0D0#22770460F8000000
(1010000000.482841) can0 033#0007C0000D0007D0
(1010000000.482842) can0 274#00F224FB507C81DD
(1010000000.482843) can0 0C0#0000000000000000
(1010000000.483866) can0 FFF#0000000000000000
(1010000000.483868) can0 193#00080803E8880000
(1010000000.483869) can0 20E#4E2003A0003F8FFF
(1010000000.483870) can0 522#DF7FD19D6088D19C
(1010000000.484860) can0 366#7FDDC8020147CE78
(1010000000.484862) can0 354#1FFF40000003FA00
(1010000000.484863) can0 5E1#893FE00B0A000080
(1010000000.484864) can0 28B#0000000000000000
(1010000000.485884) can0 580#00000003F0880000
(1010000000.485886) can0 434#028AA0A000000000
(1010000000.485887) can0 6E0#0000000000000000
(1010000000.485888) can0 0A7#2010FA24C12B80A0
(1010000000.486901) can0 03D#0000018000000000
(1010000000.486903) can0 498#87FFBFFCF6800006
(1010000000.486904) can0 230#C10019D2A4000200
(1010000000.486905) can0 5FD#BDDDFDFFFEFFEDDA
(1010000000.487889) can0 69E#0440047F1FC01482
(1010000000.488948) can0 125#9000409F42BE3160
(1010000000.490028) can0 00E#20529602080975BE
(1010000000.491017) can0 2C1#01F36FC7C99FFA02
(1010000000.492022) can0 0D0#2A770460F7000000
(1010000000.492023) can0 033#0007B8000D4007D0
(1010000000.492025) can0 107#0000000000000000
(1010000000.492026) can0 FFF#0000000000000000
(1010000000.493046) can0 5B3#0400000000000400
(1010000000.494092) can0 6E0#0000000000000000
(1010000000.494094) can0 2E1#0000000000000004
(1010000000.495093) can0 354#1FFF40000003EB00
(1010000000.495094) can0 5E1#893FE00B0A000080
(1010000000.495095) can0 162#00080003EA11F4CE
(1010000000.495096) can0 0A7#2010FA24C12B80A0
(1010000000.496038) can0 3C1#7B551FBC6380A92E
(1010000000.497710) can0 125#9000409F42BE1360
(1010000000.498803) can0 FFF#0000000000000000
(1010000000.499811) can0 533#ED7FCF7EFFF6EF7F
(1010000000.500783) can0 00E#20529602080975C4
(1010000000.501837) can0 153#00000004000C0004
(1010000000.501839) can0 662#4EE0000040000000
(1010000000.501840) can0 19C#0CF22000020028C0
(1010000000.501841) can0 0D0#32770460F6000000
(1010000000.502862) can0 033#0007B0000D8007D0
(1010000000.502863) can0 274#00F226F9507C81DD
(1010000000.502864) can0 0C0#0000000000000000
(1010000000.502865) can0 1C4#0000020001800000
(1010000000.503826) can0 2A4#2E8C021C040898D0
(1010000000.503828) can0 32D#80000420AC010020
(1010000000.503829) can0 193#00080803E8880000
(1010000000.503830) can0 20E#4E2007A0003F6FFF
(1010000000.504878) can0 522#DF7FD19D6010D15C
(1010000000.504880) can0 354#1FFF40000003DC00
(1010000000.504881) can0 5E1#893FE00B0A000080
(1010000000.504882) can0 28B#0000000000000000
(1010000000.505874) can0 366#7FDDC8020147CE78
(1010000000.505876) can0 580#00000003E9080000
(1010000000.505877) can0 434#02AAA0A000000000
(1010000000.505878) can0 6E0#0000000000000000
(1010000000.506902) can0 0A7#2010FA24C12B80A0
(1010000000.506903) can0 2B4#14E9960000005800
(1010000000.506904) can0 1CA#3FF1FF8000000C38
(1010000000.506905) can0 498#87FFBFFCF5800007
(1010000000.506906) can0 4FD#11600A4E7F124888
(1010000000.507940) can0 230#C00019D2A4000400
(1010000000.507942) can0 69E#0440047F20001482
(1010000000.508913) can0 125#9000409F42BDF560
(1010000000.510006) can0 00E#20529602080975BE
(1010000000.511099) can0 295#0000000000000040
(1010000000.512133) can0 0D0#3A770460F5000000
(1010000000.512138) can0 033#0007A8000DC007D0
(1010000000.512140) can0 107#0000000000000000
(1010000000.512143) can0 FFF#0000000000000000
(1010000000.513083) can0 0BA#0608A0841000061E
(1010000000.513088) can0 577#0000080000000130
(1010000000.514122) can0 6E0#0000000000000000
(1010000000.514126) can0 2E1#0000000000000004
(1010000000.515106) can0 354#1FFF40000003DC00
(1010000000.515110) can0 5E1#893FE00B0A000080
(1010000000.515115) can0 162#00080003EA11F4CE
(1010000000.515116) can0 0A7#2010FA24C12B80A0
(1010000000.516138) can0 2A3#00000003FE805A00
(1010000000.517726) can0 125#9000409F42BDD760
(1010000000.518772) can0 FFF#0000000000000000
(1010000000.519794) can0 26E#01064082890E0A04
(1010000000.520787) can0 3C1#7B551FBB6401292E
(1010000000.520789) can0 00E#20529602080975BE
(1010000000.521781) can0 153#00000004000C0004
(1010000000.521782) can0 662#4EE0000040000000
(1010000000.521783) can0 19C#10EE2000020028C0
(1010000000.521784) can0 0D0#42770460F4000000
(1010000000.522816) can0 033#0007A0000E0007D0
(1010000000.522817) can0 274#00F228F7507C81DD
(1010000000.522818) can0 0C0#0000000000000000
(1010000000.523859) can0 193#00080803E8880000
(1010000000.523860) can0 20E#4E2003A0003F6FF7
(1010000000.523861) can0 522#DF7FD19D5F98D11C
(1010000000.524877) can0 366#7FDDC8020147CE78
(1010000000.524879) can0 354#1FFF40000003D480
(1010000000.524880) can0 5E1#893FE00B0A000080
(1010000000.524881) can0 28B#0000000000000000
(1010000000.525878) can0 580#00000003E1880000
(1010000000.525880) can0 434#02CAA0A000000000
(1010000000.525881) can0 6E0#0000000000000000
(1010000000.525882) can0 6FC#0000075BD2B75820
(1010000000.526895) can0 0A7#2010FA24C12B80A0
(1010000000.526897) can0 239#0000007D00004240
(1010000000.526898) can0 498#87FFBFFCF4800008
(1010000000.526899) can0 230#BF0019D2A4000600
(1010000000.527896) can0 69E#0440047F1FC01482
(1010000000.528909) can0 125#9000409F42BDB960
(1010000000.530005) can0 00E#20529602080975C4
(1010000000.531131) can0 0D7#0000020080000000
(1010000000.532094) can0 0D0#4A770460F3000000
(1010000000.532097) can0 033#000798000E4007D0
(1010000000.532098) can0 107#0000000000000000
(1010000000.532099) can0 FFF#0000000000000000
(1010000000.533142) can0 655#6803FC0030000000
(1010000000.534164) can0 6E0#0000000000000000
(1010000000.534165) can0 2E1#0000000000000004
(1010000000.535168) can0 354#1FFF40000003C580
(1010000000.535169) can0 5E1#893FE00B0A000080
(1010000000.535170) can0 162#00080003EA11F4CE
(1010000000.535171) can0 0A7#2010FA24C12B80A0
(1010000000.536113) can0 497#0000000000000000
(1010000000.537782) can0 125#9000409F42BD9B60
(1010000000.538846) can0 FFF#0000000000000000
(1010000000.540009) can0 00E#20529602080975BE
(1010000000.541000) can0 2E2#18080D4040000118
(1010000000.541002) can0 345#050202C23C774081
(1010000000.541003) can0 430#0030448BE08010A0
(1010000000.541004) can0 130#0001500000000000
(1010000000.542020) can0 153#00000004000C0004
(1010000000.542021) can0 295#0000000000000040
(1010000000.542022) can0 662#4EE0000040000000
(1010000000.542023) can0 19C#14EA2000020028C0
(1010000000.543037) can0 0D0#52770460F2000000
(1010000000.543039) can0 033#000790000E8007D0
(1010000000.543040) can0 274#00F22AF5507C81DD
(1010000000.543041) can0 0C0#0000000000000000
(1010000000.544027) can0 193#00080803E8880000
(1010000000.544029) can0 20E#4E1FFFA0003F6FFF
(1010000000.544030) can0 522#DF7FD19D5F20D0DC
(1010000000.544031) can0 366#7FDDC8020147CE78
(1010000000.545065) can0 354#1FFF40000003C580
(1010000000.545068) can0 5E1#893FE00B0A000080
(1010000000.545069) can0 28B#0000000000000000
(1010000000.545070) can0 580#00000003DA080000
(1010000000.546082) can0 434#02EAA0A000000000
(1010000000.546084) can0 3C1#7B551FBAE3C1E92E
(1010000000.546085) can0 6E0#0000000000000000
(1010000000.546086) can0 0A7#2010FA24C12B80A0
(1010000000.547084) can0 2D2#0000400000000000
(1010000000.547085) can0 55C#101B000041823000
(1010000000.547086) can0 498#87FFBFFCF3800009
(1010000000.547087) can0 464#0002400000901598
(1010000000.548068) can0 230#BE0019D2A4000800
(1010000000.548069) can0 69E#0440047F1FC01482
(1010000000.548070) can0 125#9000409F42BD7D60
(1010000000.549104) can0 FFF#0000000000000000
(1010000000.549106) can0 FFF#0000000000000000
(1010000000.549107) can0 0F4#9A0C010204B10240
(1010000000.550123) can0 00E#20529602080975B8
(1010000000.551123) can0 0D0#5A770460F1000000
(1010000000.552147) can0 033#000788000EC007D0
(1010000000.553160) can0 107#0000000000000000
(1010000000.553162) can0 FFF#0000000000000000
(1010000000.553163) can0 0BA#0618A0C41000061E
(1010000000.553164) can0 51B#2909183F01060801
(1010000000.554186) can0 32D#80000420AC010020
(1010000000.554187) can0 6E0#0000000000000000
(1010000000.554188) can0 4FD#11620A4E8312C888
(1010000000.554189) can0 2E1#0000000000000004
(1010000000.555188) can0 354#1FFF40000003BE00
(1010000000.555190) can0 5E1#893FE00B0A000080
(1010000000.555191) can0 162#00080003EA11F4CE
(1010000000.555192) can0 0A7#2010FA24C12B80A0
(1010000000.557759) can0 125#9000409F42BD5F60
(1010000000.558773) can0 66C#0040000018000000
(1010000000.559767) can0 FFF#0000000000000000
(1010000000.560786) can0 00E#20529602080975BE
(1010000000.561793) can0 4E7#0000001403670000
(1010000000.561801) can0 153#00000004000C0004
(1010000000.561802) can0 FFF#0000000000000000
(1010000000.562810) can0 662#4EE0000040000000
(1010000000.562812) can0 684#4CD580194154101E
(1010000000.562813) can0 636#249C0000F0000000
(1010000000.562814) can0 2D7#10004B1000000008
(1010000000.562815) can0 19C#18E62000020028C0
(1010000000.563810) can0 0D0#62770460F0000000
(1010000000.563811) can0 193#00080803E8880000
(1010000000.563812) can0 20E#4E2003A0003F8FFF
(1010000000.563813) can0 522#DF7FD19D5EA8D09C
(1010000000.564831) can0 033#000780000F0007D0
(1010000000.564833) can0 585#0040000000020018
(1010000000.564834) can0 354#1FFF40000003BE00
(1010000000.564835) can0 5E1#893FE00B0A000080
(1010000000.565845) can0 28B#0000000000000000
(1010000000.565846) can0 274#00F22CF3507C81DD
(1010000000.565847) can0 366#7FDDC8020147CE78
(1010000000.565848) can0 580#00000003D2880000
(1010000000.566867) can0 0C0#0000000000000000
(1010000000.566869) can0 434#030A80A000000000
(1010000000.566870) can0 0A7#2010FA24C12B80A0
(1010000000.566871) can0 6E0#0000000000000000
(1010000000.567824) can0 407#4000DFF014C0BDE0
(1010000000.567831) can0 03C#000004002B000000
(1010000000.567832) can0 498#87FFBFFCF280000A
(1010000000.567833) can0 3E4#00D0000085000000
(1010000000.568889) can0 65C#4008B27530000000
(1010000000.568891) can0 207#040460482ADEB518
(1010000000.568892) can0 4C9#01F915820D02F64B
(1010000000.568893) can0 69E#0440047F1FC01482
(1010000000.568894) can0 125#9000409F42BF2160
(1010000000.569912) can0 1D6#020F828030240580
(1010000000.569913) can0 577#0000080000000130
(1010000000.569914) can0 230#BD0019D2A4000A00
(1010000000.570915) can0 00E#20529602080975BE
(1010000000.570917) can0 3C1#7B551FBBA282692E
(1010000000.571934) can0 295#0000000000000040
(1010000000.571936) can0 0D0#6A770460EF000000
(1010000000.571937) can0 033#000778000F4007D0
(1010000000.571938) can0 107#0000000000000000
(1010000000.572930) can0 FFF#0000000000000000
(1010000000.573948) can0 6E0#0000000000000000
(1010000000.574977) can0 2E1#0000000000000004
(1010000000.574978) can0 354#1FFF40000003AF00
(1010000000.574979) can0 5E1#893FE00B0A000080
(1010000000.574980) can0 162#00080003EA11F4CE
(1010000000.575976) can0 0A7#2010FA24C12B80A0
(1010000000.577739) can0 125#9000409F42BF0360
(1010000000.578827) can0 FFF#0000000000000000
(1010000000.580002) can0 00E#20529602080975B8
(1010000000.581076) can0 153#00000004000C0004
(1010000000.582091) can0 662#4EE0000040000000
(1010000000.582093) can0 19C#1CE22000020028C0
(1010000000.582094) can0 0D0#72770460EE000000
(1010000000.582095) can0 033#000770000F8007D0
(1010000000.583120) can0 274#00F22EF1507C81DD
(1010000000.583121) can0 0C0#0000000000000000
(1010000000.583122) can0 FFF#0000000000000000
(1010000000.584079) can0 193#00080803E8880000
(1010000000.584081) can0 20E#4E2003A0003F8FFF
(1010000000.584082) can0 522#DF7FD19D5E30D01C
(1010000000.584083) can0 354#1FFF400000041800
(1010000000.585139) can0 5E1#893FE00B0A000080
(1010000000.585141) can0 28B#0000000000000000
(1010000000.585142) can0 366#7FDDC8020147CE78
(1010000000.585143) can0 580#00000003CB080000
(1010000000.586158) can0 434#032A00A000000000
(1010000000.586160) can0 6E0#0000000000000000
(1010000000.586161) can0 0A7#2010FA24C12B80A0
(1010000000.586162) can0 03D#0000018000000000
(1010000000.587156) can0 498#87FFBFFCF180000B
(1010000000.587158) can0 230#BC0019D2A4000C00
(1010000000.588187) can0 69E#0440047F1FC01482
(1010000000.588189) can0 125#9000409F42BEE560
(1010000000.590024) can0 00E#20529602080975BE
(1010000000.591088) can0 0D0#7A770460ED000000
(1010000000.592103) can0 033#000768000FC007D0
(1010000000.592106) can0 107#0000000000000000
(1010000000.592107) can0 FFF#0000000000000000
(1010000000.593140) can0 0BA#0618A4441000061E
(1010000000.593142) can0 5B3#0400000000000400
(1010000000.594136) can0 6E0#0000000000000000
(1010000000.594138) can0 2E1#0000000000000004
(1010000000.595157) can0 354#1FFF400000041800
(1010000000.595158) can0 5E1#893FE00B0A000080
(1010000000.595159) can0 162#00080003EA11F4CE
(1010000000.595160) can0 0A7#2010FA24C12B80A0
(1010000000.596110) can0 3C1#7B551FBB6203292E
(1010000000.596111) can0 2C1#01F34FC7C99FE618
(1010000000.597701) can0 125#9000409F42BEC760
(1010000000.598722) can0 FFF#0000000000000000
(1010000000.599910) can0 00E#20529602080975B8
(1010000000.600983) can0 153#00000004000C0004
(1010000000.602002) can0 295#0000000000000040
(1010000000.602003) can0 662#4EE0000040000000
(1010000000.602004) can0 19C#00FE2000020028C0
(1010000000.602005) can0 0D0#02770460FC000000
(1010000000.603063) can0 033#0007E0000C0007D0
(1010000000.603064) can0 274#00F220FF507C81DD
(1010000000.603065) can0 0C0#0000000000000000
(1010000000.603066) can0 32D#80000420AC010020
(1010000000.604075) can0 193#00080803E8880000
(1010000000.604076) can0 20E#4E2003A0003F6FFF
(1010000000.604077) can0 522#DF7FD19D5DB8CF9C
(1010000000.604078) can0 366#7FDDC8020147CE78
(1010000000.605145) can0 354#1FFF400000041080
(1010000000.605147) can0 5E1#893FE00B0A000080
(1010000000.605148) can0 28B#0000000000000000
(1010000000.605149) can0 580#00000003C3880000
(1010000000.606079) can0 434#034AA0A000000000
(1010000000.606081) can0 6E0#0000000000000000
(1010000000.606082) can0 0A7#2010FA24C12B80A0
(1010000000.606083) can0 2B4#14E9960000005800
(1010000000.607132) can0 1CA#3FF1FF8000000C38
(1010000000.607133) can0 498#87FFBFFCF080000C
(1010000000.607134) can0 4FD#11630A4E8312C888
(1010000000.607135) can0 230#BB0019D2A4000E00
(1010000000.608105) can0 69E#0440047F1FC01482
(1010000000.608106) can0 125#9000409F42BEA960
(1010000000.610028) can0 00E#20529602080975BE
(1010000000.611122) can0 0D0#0A770460FB000000
(1010000000.612056) can0 033#0007D8000C4007D0
(1010000000.612058) can0 577#0000080000000132
(1010000000.612059) can0 107#0000000000000000
(1010000000.612060) can0 FFF#0000000000000000
(1010000000.613252) can0 6E0#0000000000000000
(1010000000.614269) can0 2E1#0000000000000004
(1010000000.615293) can0 354#1FFF400000040180
(1010000000.615295) can0 5E1#893FE00B0A000080
(1010000000.615296) can0 162#00080003EA11F4CE
(1010000000.615296) can0 0A7#2010FA24C12B80A0
(1010000000.615297) can0 2A3#00000003FE805A80
(1010000000.617750) can0 125#9000409F42BE8B60
(1010000000.618937) can0 FFF#0000000000000000
(1010000000.619932) can0 26E#01064082890E0A04
(1010000000.620961) can0 3C1#7B551FBAE203A92E
(1010000000.620962) can0 00E#20529602080975B8
(1010000000.621982) can0 153#00000004000C0004
(1010000000.621984) can0 662#4EE0000040000000
(1010000000.621985) can0 19C#04FA2000020028C0
(1010000000.621986) can0 0D0#12770460FA000000
(1010000000.622973) can0 033#0007D0000C8007D0
(1010000000.622974) can0 274#00F222FD507C81DD
(1010000000.622975) can0 0C0#0000000000000000
(1010000000.623997) can0 193#00080803E8880000
(1010000000.624003) can0 20E#4E2003A0003F6FFF
(1010000000.624004) can0 522#DF7FD19D5D40CF5C
(1010000000.625001) can0 354#1FFF400000040180
(1010000000.625002) can0 5E1#893FE00B0A000080
(1010000000.625003) can0 28B#0000000000000000
(1010000000.625004) can0 366#7FDDC8020147CE78
(1010000000.625992) can0 580#00000003BC080000
(1010000000.625994) can0 434#036AA0A000000000
(1010000000.625995) can0 6E0#0000000000000000
(1010000000.625996) can0 6FC#0000075BB2B75820
(1010000000.625996) can0 0A7#2010FA24D12B80A0
(1010000000.627048) can0 239#0000007D00004240
(1010000000.627050) can0 498#87FFBFFCEF80000D
(1010000000.627051) can0 230#BA0019D2A4001000
(1010000000.628039) can0 69E#0440047F1FC01482
(1010000000.628041) can0 125#9000409F42BE6D60
(1010000000.630001) can0 00E#20529602080975BE
(1010000000.631112) can0 295#0000000000000040
(1010000000.632038) can0 0D0#1A770460F9000000
(1010000000.632039) can0 033#0007C8000CC007D0
(1010000000.632040) can0 107#0000000000000000
(1010000000.632041) can0 FFF#0000000000000000
(1010000000.633130) can0 0BA#0618A4C41000061E
(1010000000.633131) can0 0D7#0000020080000000
(1010000000.634144) can0 6E0#0000000000000000
(1010000000.634145) can0 2E1#0000000000000004
(1010000000.635154) can0 354#1FFF40000003FA00
(1010000000.635155) can0 5E1#893FE00B0A000080
(1010000000.635156) can0 162#00080003EA11F4CE
(1010000000.635157) can0 0A7#2010FA24C12B80A0
(1010000000.636103) can0 497#0000000000000000
(1010000000.637740) can0 125#9000409F42BE4F60
(1010000000.638758) can0 FFF#0000000000000000
(1010000000.639988) can0 00E#20529602080975C4
(1010000000.640954) can0 2E2#18080D4040000118
(1010000000.640956) can0 345#050202C23C774081
(1010000000.640957) can0 430#0030448BE08010A0
(1010000000.640958) can0 130#0001500000000000
(1010000000.641985) can0 153#00000004000C0004
(1010000000.641987) can0 662#4EE0000040000000
(1010000000.641988) can0 19C#08F62000020028C0
(1010000000.641989) can0 0D0#22770460F8000000
(1010000000.642957) can0 033#0007C0000D0007D0
(1010000000.642960) can0 274#00F224FB507C81DD
(1010000000.642961) can0 0C0#0000000000000000
(1010000000.644046) can0 193#00080803E8880000
(1010000000.644049) can0 20E#4E2003A0003F6FFF
(1010000000.644050) can0 522#DF7FD19D5CC8CF1C
(1010000000.644051) can0 366#7FDDC8020147CE78
(1010000000.644982) can0 354#1FFF40000003FA00
(1010000000.644987) can0 5E1#893FE00B0A000080
(1010000000.644988) can0 28B#0000000000000000
(1010000000.644990) can0 580#00000003B4880000
(1010000000.646000) can0 434#0382A0A000000000
(1010000000.646003) can0 3C1#7B551FBC2004692E
(1010000000.646004) can0 6E0#0000000000000000
(1010000000.646006) can0 0A7#2010FA24D12B80A0
(1010000000.647035) can0 2D2#0000480000000000
(1010000000.647039) can0 498#87FFBFFCEE80000E
(1010000000.647042) can0 464#0002400000901499
(1010000000.647043) can0 230#B90019D2A4001200
(1010000000.648025) can0 69E#0440047F1FC014A2
(1010000000.648027) can0 125#9000409F42BE3160
(1010000000.649117) can0 FFF#0000000000000000
(1010000000.649119) can0 FFF#0000000000000000
(1010000000.649120) can0 0F4#9A0C010204B10240
(1010000000.650061) can0 00E#20529602080975BE
(1010000000.651062) can0 0D0#2A770460F7000000
(1010000000.652139) can0 033#0007B8000D4007D0
(1010000000.652141) can0 107#0000000000000000
(1010000000.652142) can0 FFF#0000000000000000
(1010000000.653076) can0 32D#80000420AC010020
(1010000000.654080) can0 6E0#0000000000000000
(1010000000.654098) can0 4FD#116A0A4E8D144908
(1010000000.654099) can0 2E1#0000000000000004
(1010000000.655140) can0 354#1FFF40000003EB00
(1010000000.655142) can0 5E1#893FE00B0A000080
(1010000000.655143) can0 162#00080003EA11F4CE
(1010000000.655144) can0 0A7#2010FA24C12B80A0
(1010000000.657757) can0 125#9000409F42BE1360
(1010000000.658753) can0 66C#0040000018000000
(1010000000.659771) can0 FFF#0000000000000000
(1010000000.660789) can0 00E#20529602080975BE
(1010000000.661824) can0 4E7#0000001403670000
(1010000000.661826) can0 153#00000004000C0004
(1010000000.661827) can0 FFF#0000000000000000
(1010000000.661828) can0 295#0000000000000040
(1010000000.662829) can0 662#4EE0000040000000
(1010000000.662831) can0 684#4CD580194154101E
(1010000000.662832) can0 636#249C0000F0000000
(1010000000.662833) can0 2D7#10004BD000000008
(1010000000.663852) can0 19C#0CF22000020028C0
(1010000000.663853) can0 193#00080803E8880000
(1010000000.663854) can0 20E#4E2003A0003F8FFF
(1010000000.663855) can0 522#DF7FD19D5C50CE9C
(1010000000.664846) can0 585#0040000000020018
(1010000000.664848) can0 354#1FFF40000003DC00
(1010000000.664849) can0 5E1#893FE00B0A000080
(1010000000.664850) can0 28B#0000000000000000
(1010000000.665862) can0 0D0#32770460F6000000
(1010000000.665864) can0 033#0007B0000D8007D0
(1010000000.665865) can0 274#00F226F9507C81DD
(1010000000.665866) can0 366#7FDDC8020147CE78
(1010000000.666868) can0 580#00000003AD080000
(1010000000.666870) can0 434#03AAA0A000000000
(1010000000.666872) can0 6E0#0000000000000000
(1010000000.666873) can0 0C0#0000000000000000
(1010000000.667909) can0 0A7#2010FA24C12B80A0
(1010000000.667911) can0 407#4000DFF014C0BDE0
(1010000000.667912) can0 03C#000004002D000000
(1010000000.667913) can0 498#87FFBFFCED80000F
(1010000000.667913) can0 3E4#00D0000085000000
(1010000000.668905) can0 69E#0440047F1FC014A2
(1010000000.668906) can0 65C#4008B27530000000
(1010000000.668907) can0 125#9000409F42BDF560
(1010000000.668908) can0 207#040460482ADEB518
(1010000000.669930) can0 4C9#01F915820D02F64B
(1010000000.669931) can0 1D6#020B808030240580
(1010000000.669932) can0 577#0000080000000132
(1010000000.669933) can0 230#B80019D2AC001400
(1010000000.670972) can0 3C1#7B551FBBDFC4E92E
(1010000000.670974) can0 00E#20529602080975BE
(1010000000.672002) can0 0D0#3A770460F5000000
(1010000000.672004) can0 033#0007A8000DC007D0
(1010000000.672005) can0 107#0000000000000000
(1010000000.672006) can0 FFF#0000000000000000
(1010000000.673003) can0 0BA#0618A4C41000061E
(1010000000.673993) can0 6E0#0000000000000000
(1010000000.675023) can0 2E1#0000000000000004
(1010000000.675024) can0 354#1FFF40000003DC00
(1010000000.675025) can0 5E1#893FE00B0A000080
(1010000000.675026) can0 162#00080003EA11F4CE
(1010000000.675027) can0 0A7#2010FA24C12B80A0
(1010000000.677741) can0 125#9000409F42BDD760
(1010000000.678751) can0 FFF#0000000000000000
(1010000000.679750) can0 4CB#8000000000000000
(1010000000.679752) can0 280#18E0027000000000
(1010000000.680772) can0 00E#20529602080975C4
(1010000000.681795) can0 153#00000004000C0004
(1010000000.681796) can0 662#4EE0000040000000
(1010000000.681797) can0 19C#10EE2000020028C0
(1010000000.681798) can0 0D0#42770460F4000000
(1010000000.682811) can0 033#0007A0000E0007D0
(1010000000.682813) can0 274#00F228F7507C81DD
(1010000000.682814) can0 0C0#0000000000000000
(1010000000.682815) can0 FFF#0000000000000000
(1010000000.683830) can0 193#00080803E8880000
(1010000000.683832) can0 20E#4E2003A0003F8FFF
(1010000000.683833) can0 522#DF7FD19D5BD8CE1C
(1010000000.684855) can0 366#7FDDC8020147CE78
(1010000000.684857) can0 354#1FFF40000003D480
(1010000000.684858) can0 5E1#893FE00B0A000080
(1010000000.684858) can0 28B#0000000000000000
(1010000000.685856) can0 580#00000003A5880000
(1010000000.685857) can0 434#03CAA0A000000000
(1010000000.685858) can0 6E0#0000000000000000
(1010000000.685859) can0 0A7#2010FA24C12B80A0
(1010000000.686873) can0 03D#0000018000000000
(1010000000.686874) can0 498#87FFBFFCFC800000
(1010000000.686875) can0 230#B70019D2AC001600
(1010000000.687896) can0 69E#0440047F1FC014A2
(1010000000.688894) can0 125#9000409F42BDB960
(1010000000.689981) can0 00E#20529602080975BE
(1010000000.691038) can0 295#0000000000000040
(1010000000.692040) can0 0D0#4A770460F3000000
(1010000000.692042) can0 033#000798000E4007D0
(1010000000.692044) can0 107#0000000000000000
(1010000000.692045) can0 FFF#0000000000000000
(1010000000.693103) can0 5B3#0400000000000400
(1010000000.694107) can0 6E0#0000000000000000
(1010000000.694109) can0 2E1#0000000000000004
(1010000000.695127) can0 354#1FFF40000003C580
(1010000000.695129) can0 5E1#893FE00B0A000080
(1010000000.695130) can0 162#00080003EA11F4CE
(1010000000.695131) can0 0A7#2010FA24D12B80A0
(1010000000.696095) can0 3C1#7B551FBAE005A92E
(1010000000.696097) can0 55C#101B000041823000
(1010000000.697726) can0 125#9000409F42BD9B60
(1010000000.698794) can0 FFF#0000000000000000
(1010000000.699971) can0 00E#20529602080975C4
(1010000000.700993) can0 2C1#01F38FC7C99FCE2C
(1010000000.701983) can0 153#00000004000C0004
(1010000000.701984) can0 662#4EE0000040000000
(1010000000.701985) can0 19C#14EA2000020028C0
(1010000000.701986) can0 0D0#52770460F2000000
(1010000000.701987) can0 033#000790000E8007D0
(1010000000.703003) can0 274#00F22AF5507C81DD
(1010000000.703005) can0 0C0#0000000000000000
(1010000000.703006) can0 32D#80000420AC010020
(1010000000.704031) can0 4FD#11660A4E8913C908
(1010000000.704033) can0 193#00080803E8880000
(1010000000.704034) can0 20E#4E2003A0003F8FFF
(1010000000.704035) can0 522#DF7FD19D5B60CDDC
(1010000000.705063) can0 354#1FFF40000003C580
(1010000000.705065) can0 5E1#893FE00B0A000080
(1010000000.705066) can0 28B#0000000000000000
(1010000000.705067) can0 366#7FDDC8020147CE78
(1010000000.706066) can0 580#000000039E080000
(1010000000.706068) can0 434#03EAA0A000000000
(1010000000.706069) can0 6E0#0000000000000000
(1010000000.706070) can0 0A7#2010FA24C12B80A0
(1010000000.707073) can0 2B4#14E9960000005800
(1010000000.707075) can0 1CA#3FF1FF8000000C38
(1010000000.707076) can0 498#87FFBFFCFB800001
(1010000000.707077) can0 230#B60019D2AC001800
(1010000000.708059) can0 69E#0440047F1FC014A2
(1010000000.708061) can0 125#9000409F42BD7D60
(1010000000.709987) can0 00E#20529602080975C4
(1010000000.711079) can0 0D0#5A770460F1000000
(1010000000.712068) can0 033#000788000EC007D0
(1010000000.712069) can0 577#0000080000000138
(1010000000.712070) can0 107#0000000000000000
(1010000000.712071) can0 FFF#0000000000000000
(1010000000.713101) can0 0BA#0628A6841000061E
(1010000000.714122) can0 6E0#0000000000000000
(1010000000.714124) can0 2E1#0000000000000004
(1010000000.715142) can0 354#1FFF40000003BE00
(1010000000.715143) can0 5E1#893FE00B0A000080
(1010000000.715144) can0 162#00080003EA11F4CE
(1010000000.715151) can0 0A7#2010FA24C12B80A0
(1010000000.716138) can0 2A3#00000003FE805B80
(1010000000.717730) can0 125#9000409F42BD5F60
(1010000000.718830) can0 FFF#0000000000000000
(1010000000.719827) can0 26E#01064082890E0A04
(1010000000.720849) can0 3C1#7B551FBADF86292E
(1010000000.720851) can0 00E#20529602080975CA
(1010000000.721837) can0 153#00000004000C0004
(1010000000.721838) can0 295#0000000000000040
(1010000000.721839) can0 662#4EE0000040000000
(1010000000.721840) can0 19C#18E62000020028C0
(1010000000.722869) can0 0D0#62770460F0000000
(1010000000.722871) can0 033#000780000F0007D0
(1010000000.722872) can0 274#00F22CF3507C81DD
(1010000000.722873) can0 0C0#0000000000000000
(1010000000.723867) can0 193#00080803E8880000
(1010000000.723868) can0 20E#4E2003A0003F8FF7
(1010000000.723869) can0 522#DF7FD19D5AE8CD5C
(1010000000.724907) can0 366#7FDDC8020147CE78
(1010000000.724909) can0 354#1FFF40000003BE00
(1010000000.724910) can0 5E1#893FE00B0A000080
(1010000000.724911) can0 28B#0000000000000000
(1010000000.724912) can0 580#0000000396880000
(1010000000.725912) can0 434#040AA0A000000000
(1010000000.725914) can0 6E0#0000000000000000
(1010000000.725915) can0 6FC#0000075C12B75820
(1010000000.725916) can0 0A7#2010FA24C12B80A0
(1010000000.726935) can0 239#0000007D00004240
(1010000000.726937) can0 498#87FFBFFCFA800002
(1010000000.726938) can0 230#B50019D2AC001A00
(1010000000.727952) can0 69E#0440047F1FC014A2
(1010000000.728952) can0 125#9000409F42BF2160
(1010000000.729974) can0 00E#20529602080975C4
(1010000000.731083) can0 0D7#0000020080000000
(1010000000.732063) can0 0D0#6A770460EF000000
(1010000000.732064) can0 033#000778000F4007D0
(1010000000.732065) can0 107#0000000000000000
(1010000000.732067) can0 FFF#0000000000000000
(1010000000.733182) can0 6E0#0000000000000000
(1010000000.734196) can0 2E1#0000000000000004
(1010000000.735222) can0 354#1FFF40000003AF00
(1010000000.735223) can0 5E1#893FE00B0A000080
(1010000000.735224) can0 162#00080003EA11F4CE
(1010000000.735225) can0 0A7#2010FA24C12B80A0
(1010000000.736187) can0 497#0000000000000000
(1010000000.737731) can0 125#9000409F42BF0360
(1010000000.738745) can0 FFF#0000000000000000
(1010000000.739975) can0 00E#20529602080975CA
(1010000000.740989) can0 2E2#18080D4040000118
(1010000000.740991) can0 345#050202C23C774081
(1010000000.740992) can0 430#0030448BE08010A0
(1010000000.740992) can0 130#0001500000000000
(1010000000.742013) can0 153#00000004000C0004
(1010000000.742014) can0 662#4EE0000040000000
(1010000000.742015) can0 19C#1CE22000020028C0
(1010000000.742016) can0 0D0#72770460EE000000
(1010000000.743035) can0 033#000770000F8007D0
(1010000000.743037) can0 274#00F22EF1507C81DD
(1010000000.743038) can0 0C0#0000000000000000
(1010000000.743039) can0 FFF#0000000000000000
(1010000000.744019) can0 193#00080803E8880000
(1010000000.744021) can0 20E#4E2003A0003F8FF7
(1010000000.744022) can0 522#DF7FD19D5A70CCDC
(1010000000.744023) can0 366#7FDDC8020147CE78
(1010000000.745053) can0 354#1FFF400000041800
(1010000000.745055) can0 5E1#893FE00B0A000080
(1010000000.745057) can0 28B#0000000000000000
(1010000000.745058) can0 580#000000038F080000
(1010000000.746054) can0 434#042AA0A000000000
(1010000000.746056) can0 3C1#7B551FBB9E06E92E
(1010000000.746057) can0 6E0#0000000000000000
(1010000000.746058) can0 0A7#2010FA24D12B80A0
(1010000000.747076) can0 2D2#0000500000000000
(1010000000.747083) can0 498#87FFBFFCF9800003
(1010000000.747084) can0 464#000240000090139A
(1010000000.747085) can0 230#B40019D2AC001C00
(1010000000.748072) can0 69E#0440047F1FC014C2
(1010000000.748073) can0 125#9000409F42BEE560
(1010000000.749136) can0 FFF#0000000000000000
(1010000000.749137) can0 FFF#0000000000000000
(1010000000.749138) can0 0F4#9A0C010204B10240
(1010000000.750159) can0 00E#20529602080975BE
(1010000000.751114) can0 295#0000000000000040
(1010000000.752187) can0 0D0#7A770460ED000000
(1010000000.752189) can0 033#000768000FC007D0
(1010000000.752190) can0 107#0000000000000000
(1010000000.752191) can0 FFF#0000000000000000
(1010000000.753178) can0 0BA#0628A6841000061E
(1010000000.753180) can0 273#0000000800000000
(1010000000.753181) can0 1C4#0000020001C00000
(1010000000.753182) can0 2A4#2020031C040898D0
(1010000000.754202) can0 6E0#0000000000000000
(1010000000.754204) can0 FFF#0000000000000000
(1010000000.754205) can0 371#0106000000000880
(1010000000.754206) can0 67D#0018600208000220
(1010000000.755244) can0 2E1#0000000000000004
(1010000000.755246) can0 354#1FFF400000041800
(1010000000.755247) can0 5E1#893FE00B0A000080
(1010000000.755248) can0 162#00080003EA11F4CE
(1010000000.755249) can0 0A7#2010FA24C12B80A0
(1010000000.756194) can0 51B#280C410128000121
(1010000000.756196) can0 32D#80000420AC010020
(1010000000.756198) can0 0CC#4341023238AFA20E
(1010000000.756199) can0 4FD#11690A4E8D144908
(1010000000.757262) can0 FFF#0000000000000000
(1010000000.757263) can0 5FD#BDDDFDFFFEFFEDDA
(1010000000.758280) can0 125#9000409F42BEC760
(1010000000.759274) can0 66C#0040000018000000
(1010000000.759276) can0 FFF#0000000000000000
(1010000000.760302) can0 00E#20529602080975CA
(1010000000.761324) can0 4E7#0000001403670000
(1010000000.761326) can0 153#00000004000C0004
(1010000000.762324) can0 FFF#0000000000000000
(1010000000.762326) can0 662#4EE0000040000000
(1010000000.762327) can0 684#4CD580194154101E
(1010000000.762328) can0 636#249C0000F0000000
(1010000000.763345) can0 2D7#10004C9800000008
(1010000000.763346) can0 19C#00FE2000020028C0
(1010000000.763347) can0 0D0#02770460FC000000
(1010000000.763348) can0 193#00080803E8880000
(1010000000.764334) can0 20E#4E2003A0003F8FFF
(1010000000.764336) can0 522#DF7FD19D59F8CC9C
(1010000000.764337) can0 585#0040000000020018
(1010000000.764338) can0 354#1FFF400000041080
(1010000000.765365) can0 5E1#893FE00B0A000080
(1010000000.765367) can0 28B#0000000000000000
(1010000000.765368) can0 033#0007E0000C0007D0
(1010000000.765370) can0 274#00F220FF507C81DD
(1010000000.766367) can0 366#7FDDC8020147CE78
(1010000000.766369) can0 580#0000000387880000
(1010000000.766370) can0 434#044AA0A000000000
(1010000000.766371) can0 0C0#0000000000000000
(1010000000.767400) can0 6E0#0000000000000000
(1010000000.767402) can0 0A7#2010FA24C12B80A0
(1010000000.767403) can0 0FD#0000010080100000
(1010000000.767404) can0 407#4000DFF014C0BDE0
(1010000000.768369) can0 03C#000004002C000000
(1010000000.768371) can0 FFF#0000000000000000
(1010000000.768372) can0 498#87FFBFFCF8800004
(1010000000.768373) can0 69E#0440047F1FC014C2
(1010000000.768374) can0 125#9000409F42BEA960
(1010000000.769406) can0 3E4#00D0000085000000
(1010000000.769408) can0 65C#4008B27530000000
(1010000000.769409) can0 207#040460482ADEB518
(1010000000.769410) can0 4C9#01F915820D02F64B
(1010000000.770405) can0 1D6#020F828030240580
(1010000000.770413) can0 1A4#00000002ECCC0000
(1010000000.770414) can0 00E#20529602080975C4
(1010000000.770415) can0 3C1#7B551FBBDD47692E
(1010000000.771423) can0 577#0000080000000138
(1010000000.771425) can0 230#B30019D2AC001E00
(1010000000.771426) can0 0D0#0A770460FB000000
(1010000000.771427) can0 033#0007D8000C4007D0
(1010000000.772444) can0 107#0000000000000000
(1010000000.772446) can0 FFF#0000000000000000
(1010000000.773447) can0 6E0#0000000000000000
(1010000000.774468) can0 2E1#0000000000000004
(1010000000.774470) can0 354#1FFF400000040180
(1010000000.775482) can0 5E1#893FE00B0A000080
(1010000000.775483) can0 162#00080003EA11F4CE
(1010000000.775484) can0 0A7#2010FA24D12B80A0
(1010000000.777709) can0 125#9000409F42BE8B60
(1010000000.778884) can0 FFF#0000000000000000
(1010000000.779974) can0 00E#20529602080975CA
(1010000000.780979) can0 153#00000004000C0004
(1010000000.782006) can0 295#0000000000000040
(1010000000.782008) can0 662#4EE0000040000000
(1010000000.782012) can0 19C#04FA2000020028C0
(1010000000.782015) can0 0D0#12770460FA000000
(1010000000.783003) can0 033#0007D0000C8007D0
(1010000000.783004) can0 274#00F222FD507C81DD
(1010000000.783005) can0 0C0#0000000000000000
(1010000000.783007) can0 FFF#0000000000000000
(1010000000.784032) can0 193#00080803E8880000
(1010000000.784035) can0 20E#4E2003A0003F6FFF
(1010000000.784036) can0 522#DF7FD19D6100CC9C
(1010000000.784038) can0 366#7FDDC8020147CE78
(1010000000.785026) can0 354#1FFF400000040180
(1010000000.785028) can0 5E1#893FE00B0A000080
(1010000000.785029) can0 28B#0000000000000000
(1010000000.785030) can0 580#00000003F8080000
(1010000000.786043) can0 434#046800A000000000
(1010000000.786046) can0 6E0#0000000000000000
(1010000000.786047) can0 0A7#2010FA24D12B80A0
(1010000000.786049) can0 03D#0000020000000000
(1010000000.787082) can0 FFF#0000000000000000
(1010000000.787083) can0 498#87FFBFFCF7800005
(1010000000.787085) can0 FFF#0000000000000000
(1010000000.787086) can0 230#C20019D2AC000000
(1010000000.788052) can0 69E#0440047F200014C2
(1010000000.788053) can0 125#9000409F42BE6D60
(1010000000.789923) can0 00E#20529602080975C4
(1010000000.791030) can0 0D0#1A770460F9000000
(1010000000.792033) can0 033#0007C8000CC007D0
(1010000000.792035) can0 107#0000000000000000
(1010000000.792038) can0 FFF#0000000000000000
(1010000000.793090) can0 0BA#0628A8041000061E
(1010000000.793092) can0 5B3#0400000000000400
(1010000000.794108) can0 6E0#0000000000000000
(1010000000.794110) can0 2E1#0000000000000004
(1010000000.795110) can0 354#1FFF40000003FA00
(1010000000.795112) can0 5E1#893FE00B0A000080
(1010000000.795113) can0 162#00080003EA11F4CE
(1010000000.795114) can0 0A7#2010FA24C12B80A0
(1010000000.796078) can0 3C1#7B551FBADD88292E
(1010000000.797720) can0 125#9000409F42BE4F60
(1010000000.798695) can0 FFF#0000000000000000
(1010000000.800002) can0 00E#20529602080975BE
(1010000000.801044) can0 153#00000004000C0004
(1010000000.802052) can0 662#4EE0000040000000
(1010000000.802054) can0 19C#08F62000020028C0
(1010000000.802055) can0 0D0#22770460F8000000
(1010000000.802056) can0 033#0007C0000D0007D0
(1010000000.802995) can0 274#00F224FB507C81DD
(1010000000.802996) can0 0C0#0000000000000000
(1010000000.802997) can0 1E5#01460405A841A3E0
(1010000000.802998) can0 32D#80000420AC010020
(1010000000.804032) can0 4FD#116B0A4E8F144908
(1010000000.804033) can0 193#00080803E8880000
(1010000000.804040) can0 20E#4E2003A0003F6FF7
(1010000000.804041) can0 522#DF7FD19D6088CC5C
(1010000000.805104) can0 354#1FFF40000003FA00
(1010000000.805105) can0 5E1#893FE00B0A000080
(1010000000.805106) can0 28B#0000000000000000
(1010000000.805107) can0 366#7FDDC8020147CE78
(1010000000.806108) can0 580#00000003F0880000
(1010000000.806110) can0 2C1#01F36FC7C91FBC42
(1010000000.806111) can0 434#0088E0A000000000
(1010000000.806112) can0 6E0#0000000000000000
(1010000000.807130) can0 0A7#2010FA24C12B80A0
(1010000000.807132) can0 2B4#14E9960000005800
(1010000000.807133) can0 1CA#3FF1FF8000000C38
(1010000000.807134) can0 498#87FFBFFCF6800006
(1010000000.807135) can0 230#C10019D2AC000200
(1010000000.808155) can0 69E#0440047F1FC014C2
(1010000000.808157) can0 125#9000409F42BE3160
(1010000000.809972) can0 00E#20529602080975C4
(1010000000.811070) can0 295#0000000000000040
(1010000000.812029) can0 0D0#2A770460F7000000
(1010000000.812031) can0 033#0007B8000D4007D0
(1010000000.812032) can0 107#0000000000000000
(1010000000.812033) can0 FFF#0000000000000000
(1010000000.813086) can0 0F1#3E101CC00359CC00
(1010000000.813088) can0 577#000008000000013C
(1010000000.814088) can0 6E0#0000000000000000
(1010000000.814091) can0 2E1#0000000000000004
(1010000000.815099) can0 354#1FFF40000003EB00
(1010000000.815101) can0 5E1#893FE00B0A000080
(1010000000.815102) can0 162#00080003EA11F4CE
(1010000000.815103) can0 0A7#2010FA24D12B80A0
(1010000000.816035) can0 2A3#00000003FE805D80
(1010000000.817720) can0 125#9000409F42BE1360
(1010000000.818818) can0 FFF#0000000000000000
(1010000000.819964) can0 3C1#7B551FBB1CC8A92E
(1010000000.820981) can0 00E#20529602080975BE
(1010000000.820982) can0 26E#01064082890E0A04
(1010000000.821980) can0 153#00000004000C0004
(1010000000.821981) can0 662#4EE0000040000000
(1010000000.821982) can0 19C#0CF22000020028C0
(1010000000.821983) can0 0D0#32770460F6000000
(1010000000.823001) can0 033#0007B0000D8007D0
(1010000000.823003) can0 274#00F226F9507C81DD
(1010000000.823004) can0 0C0#0000000000000000
(1010000000.824006) can0 193#00080803E8880000
(1010000000.824008) can0 20E#4E2003A0003F8FF7
(1010000000.824009) can0 522#DF7FD19D6010CC1C
(1010000000.825037) can0 354#1FFF40000003DC00
(1010000000.825038) can0 5E1#893FE00B0A000080
(1010000000.825039) can0 28B#0000000000000000
(1010000000.825040) can0 366#7FDDC8020147CE78
(1010000000.826026) can0 580#00000003E9080000
(1010000000.826028) can0 434#00A8E0A000000000
(1010000000.826029) can0 6E0#0000000000000000
(1010000000.826029) can0 6FC#0000075C52B75820
(1010000000.826030) can0 0A7#2010FA24D12B80A0
(1010000000.827046) can0 239#0000007D00004260
(1010000000.827049) can0 498#87FFBFFCF5800007
(1010000000.827050) can0 230#C00019D2AC000400
(1010000000.828020) can0 69E#0440047F1FC014C2
(1010000000.828022) can0 125#9000409F42BDF560
(1010000000.829971) can0 00E#20529602080975CA
(1010000000.831063) can0 0D7#0000020080000000
(1010000000.832092) can0 0D0#3A770460F5000000
(1010000000.832094) can0 033#0007A8000DC007D0
(1010000000.832095) can0 107#0000000000000000
(1010000000.832096) can0 FFF#0000000000000000
(1010000000.833105) can0 0BA#0638A8441000061E
(1010000000.833107) can0 041#8022002001000000
(1010000000.834105) can0 6E0#0000000000000000
(1010000000.834106) can0 2E1#0000000000000004
(1010000000.835089) can0 354#1FFF40000003DC00
(1010000000.835091) can0 5E1#893FE00B0A000080
(1010000000.835097) can0 162#00080003EA11F4CE
(1010000000.835098) can0 0A7#2010FA24C12B80A0
(1010000000.836110) can0 497#0000000000000000
(1010000000.837712) can0 125#9000409F42BDD760
(1010000000.838704) can0 FFF#0000000000000000
(1010000000.839961) can0 00E#20529602080975D0
(1010000000.840978) can0 2E2#18080D4040000118
(1010000000.840980) can0 345#050202C23C774081
(1010000000.840981) can0 430#0030448BE08010A0
(1010000000.840982) can0 130#0001500000000000
(1010000000.841999) can0 153#00000004000C0004
(1010000000.842001) can0 295#0000000000000040
(1010000000.842002) can0 662#4EE0000040000000
(1010000000.842003) can0 19C#10EE2000020028C0
(1010000000.842999) can0 0D0#42770460F4000000
(1010000000.843002) can0 033#0007A0000E0007D0
(1010000000.843003) can0 274#00F228F7507C81DD
(1010000000.843004) can0 0C0#0000000000000000
(1010000000.844013) can0 193#00080803E8880000
(1010000000.844015) can0 20E#4E2003A0003F8FF7
(1010000000.844017) can0 522#DF7FD19D5F98CC1C
(1010000000.844018) can0 366#7FDDC8020147CE78
(1010000000.845035) can0 354#1FFF40000003D480
(1010000000.845037) can0 5E1#893FE00B0A000080
(1010000000.845038) can0 28B#0000000000000000
(1010000000.845039) can0 580#00000003E1880000
(1010000000.846042) can0 434#00C720A000000000
(1010000000.846044) can0 3C1#7B551FBB5BC9692E
(1010000000.846045) can0 6E0#0000000000000000
(1010000000.846046) can0 0A7#2010FA24C12B80A0
(1010000000.847059) can0 2D2#0000080000000000
(1010000000.847061) can0 55C#101B000041823000
(1010000000.847062) can0 498#87FFBFFCF4800008
(1010000000.847063) can0 464#000240000090129B
(1010000000.848015) can0 230#BF0019D2B4000600
(1010000000.848018) can0 69E#0440047F1FC014E2
(1010000000.848019) can0 125#9000409F42BDB960
(1010000000.849081) can0 FFF#0000000000000000
(1010000000.849083) can0 FFF#0000000000000000
(1010000000.850101) can0 0F4#9A0C010204B10240
(1010000000.850103) can0 00E#20529602080975CA
(1010000000.851101) can0 0D0#4A770460F3000000
(1010000000.852057) can0 033#000798000E4007D0
(1010000000.852059) can0 107#0000000000000000
(1010000000.852060) can0 FFF#0000000000000000
(1010000000.853152) can0 297#1100002000025110
(1010000000.853154) can0 5AF#2000000000206800
(1010000000.853155) can0 32D#80000420AC010020
(1010000000.854137) can0 4FD#116B0A4E8F144988
(1010000000.854139) can0 6E0#0000000000000000
(1010000000.854140) can0 2E1#0000000000000004
(1010000000.855166) can0 354#1FFF40000003C580
(1010000000.855168) can0 5E1#893FE00B0A000080
(1010000000.855169) can0 162#00080003EA11F4CE
(1010000000.855170) can0 0A7#2010FA24D12B80A0
(1010000000.856090) can0 FFF#0000000000000000
(1010000000.857714) can0 125#9000409F42BD9B60
(1010000000.858708) can0 66C#0040000018000000
(1010000000.859726) can0 FFF#0000000000000000
(1010000000.860730) can0 00E#20529602080975CA
(1010000000.861746) can0 4E7#0000001403670000
(1010000000.861747) can0 153#00000004000C0004
(1010000000.861748) can0 FFF#0000000000000000
(1010000000.862769) can0 662#4EE0000040000000
(1010000000.862770) can0 684#4CD580194154101E
(1010000000.862771) can0 636#249C0000F0000000
(1010000000.862772) can0 2D7#10004D6800000008
(1010000000.862773) can0 19C#14EA2000020028C0
(1010000000.863788) can0 0D0#52770460F2000000
(1010000000.863790) can0 193#00080803E8880000
(1010000000.863791) can0 20E#4E2003A0003F6FFF
(1010000000.863792) can0 522#DF7FD19D5F20CBDC
(1010000000.864783) can0 033#000790000E8007D0
(1010000000.864790) can0 354#1FFF40000003C580
(1010000000.864791) can0 585#0040000000020018
(1010000000.864792) can0 5E1#893FE00B0A000080
(1010000000.865812) can0 28B#0000000000000000
(1010000000.865814) can0 274#00F22AF5507C81DD
(1010000000.865815) can0 366#7FDDC8020147CE78
(1010000000.865816) can0 0C0#0000000000000000
(1010000000.866811) can0 0A7#2010FA24C12B80A0
(1010000000.866813) can0 407#4000DFF014C0BDE0
(1010000000.866814) can0 03C#000004002E000000
(1010000000.866815) can0 3E4#00D0000085000000
(1010000000.867850) can0 580#00000003DA080000
(1010000000.867852) can0 65C#4008B27530000000
(1010000000.867853) can0 434#00E700A000000000
(1010000000.867854) can0 207#040460482ADEB518
(1010000000.868849) can0 6E0#0000000000000000
(1010000000.868851) can0 69E#0440047F1FC014E2
(1010000000.868852) can0 125#9000409F42BD7D60
(1010000000.868853) can0 498#87FFBFFCF3800009
(1010000000.868854) can0 4C9#01F915820D02F64B
(1010000000.869873) can0 1D6#020B808030240580
(1010000000.869875) can0 577#000008000000013C
(1010000000.869876) can0 075#0F32000FAE1EE000
(1010000000.870874) can0 230#BE0019D2B4000800
(1010000000.870876) can0 00E#20529602080975C4
(1010000000.870877) can0 3C1#7B551FBBDAC9E92E
(1010000000.871891) can0 295#0000000000000040
(1010000000.871893) can0 0D0#5A770460F1000000
(1010000000.871894) can0 033#000788000EC007D0
(1010000000.871895) can0 107#0000000000000000
(1010000000.872889) can0 FFF#0000000000000000
(1010000000.872891) can0 0BA#0638A8441000061E
(1010000000.873903) can0 6E0#0000000000000000
(1010000000.874935) can0 2E1#0000000000000004
(1010000000.874937) can0 354#1FFF40000003BE00
(1010000000.874938) can0 5E1#893FE00B0A000080
(1010000000.874940) can0 162#00080003EA11F4CE
(1010000000.875930) can0 0A7#2010FA24D12B80A0
(1010000000.875931) can0 03A#00000000001D0800
(1010000000.877710) can0 125#9000409F42BD5F60
(1010000000.878894) can0 FFF#0000000000000000
(1010000000.879911) can0 4CB#8000000000000000
(1010000000.879913) can0 280#18E0027000000000
(1010000000.880909) can0 00E#20529602080975CA
(1010000000.881938) can0 153#00000004000C0004
(1010000000.881940) can0 662#4EE0000040000000
(1010000000.881941) can0 19C#18E62000020028C0
(1010000000.881942) can0 0D0#62770460F0000000
(1010000000.882948) can0 033#000780000F0007D0
(1010000000.882950) can0 274#00F22CF3507C81DD
(1010000000.882951) can0 0C0#0000000000000000
(1010000000.882952) can0 3B9#2004720000001C42
(1010000000.883947) can0 FFF#0000000000000000
(1010000000.883949) can0 193#00080803E8880000
(1010000000.883950) can0 20E#4E2003A0003F6FFF
(1010000000.883951) can0 522#DF7FD19D5EA8CBDC
(1010000000.884969) can0 366#7FDDC8020147CE78
(1010000000.884970) can0 354#1FFF40000003BE00
(1010000000.884971) can0 5E1#893FE00B0A000080
(1010000000.884972) can0 28B#0000000000000000
(1010000000.885970) can0 580#00000003D2880000
(1010000000.885972) can0 434#0105A0A000000000
(1010000000.885973) can0 6E0#0000000000000000
(1010000000.885974) can0 0A7#2010FA24D12B80A0
(1010000000.887017) can0 03D#0000020000000000
(1010000000.887020) can0 21D#0000000000010000
(1010000000.887021) can0 498#87FFBFFCF280000A
(1010000000.887022) can0 4EE#A0000D08F04C4008
(1010000000.887023) can0 230#BD0019D2B4000A00
(1010000000.887994) can0 69E#0440047F1FC014E2
(1010000000.887996) can0 125#9000409F42BF2160
(1010000000.889984) can0 00E#20529602080975C4
(1010000000.891026) can0 0D0#6A770460EF000000
(1010000000.892033) can0 033#000778000F4007D0
(1010000000.892035) can0 107#0000000000000000
(1010000000.892036) can0 FFF#0000000000000000
(1010000000.893069) can0 5B3#0400000000000400
(1010000000.894094) can0 6E0#0000000000000000
(1010000000.894096) can0 2E1#0000000000000004
(1010000000.895098) can0 354#1FFF40000003AF00
(1010000000.895100) can0 5E1#893FE00B0A000080
(1010000000.895101) can0 162#00080003EA11F4CE
(1010000000.895102) can0 3C1#7B551FBB1ACAA92E
(1010000000.896097) can0 0A7#2010FA24D12B80A0
(1010000000.896099) can0 69D#808DCFB04FC1FCB1
(1010000000.897698) can0 125#9000409F42BF0360
(1010000000.898659) can0 FFF#0000000000000000
(1010000000.899665) can0 FFF#0000000000000000
(1010000000.900688) can0 00E#20529602080975C4
(1010000000.901735) can0 153#00000004000C0004
(1010000000.901737) can0 295#0000000000000040
(1010000000.901738) can0 662#4EE0000040000000
(1010000000.901739) can0 19C#1CE22000020028C0
(1010000000.902720) can0 0D0#72770460EE000000
(1010000000.902721) can0 033#000770000F8007D0
(1010000000.902722) can0 274#00F22EF1507C81DD
(1010000000.902723) can0 0C0#0000000000000000
(1010000000.903792) can0 32D#80000420AC010020
(1010000000.903793) can0 193#00080803E8880000
(1010000000.903794) can0 20E#4E2003A0003F8FF7
(1010000000.903795) can0 522#DF7FD19D5E30CB9C
(1010000000.904820) can0 366#7FDDC8020147CE78
(1010000000.904822) can0 354#1FFF400000041800
(1010000000.904823) can0 5E1#893FE00B0A000080
(1010000000.904824) can0 28B#0000000000000000
